!Murata Part Number: GJM1555C1H5R3WB01
!These Parameters are Measured in Series Mode Connection
!       o--ll--o
!Port1            Port2
!       o------o
!Operation Temp=25[degC], DC Bias Voltage=0[V]
!Freq. Start=100[MHz] Stop=20[GHz], 401[Steps]
!Data Generated on Apr 1, 2025
# Hz S RI R 50
!Freq.(Hz) S11(Real) S11(Imag) S21(Real) S21(Imag) S12(Real) S12(Imag) S22(Real) S22(Imag)
1.0E8 0.8999762340432985 -0.2998585828043355 0.1000237659567015 0.2998585828043355 0.1000237659567015 0.2998585828043355 0.8999762340432985 -0.2998585828043355
1.4975E8 0.8002577742465283 -0.3995465442738106 0.19974222575347175 0.3995465442738106 0.19974222575347175 0.3995465442738106 0.8002577742465283 -0.3995465442738106
1.995E8 0.6925717746606926 -0.461080515540865 0.30742822533930725 0.461080515540865 0.30742822533930725 0.461080515540865 0.6925717746606926 -0.461080515540865
2.4925E8 0.5900717739809955 -0.4913832837801958 0.4099282260190044 0.4913832837801958 0.4099282260190044 0.4913832837801958 0.5900717739809955 -0.4913832837801958
2.99E8 0.4992705284294318 -0.49947200815435844 0.5007294715705682 0.49947200815435844 0.5007294715705682 0.49947200815435844 0.4992705284294318 -0.49947200815435844
3.4875E8 0.4220096307510665 -0.4932602165360054 0.5779903692489334 0.4932602165360054 0.5779903692489334 0.4932602165360054 0.4220096307510665 -0.4932602165360054
3.985E8 0.3576442888828482 -0.4785923742042326 0.6423557111171517 0.4785923742042326 0.6423557111171517 0.4785923742042326 0.3576442888828482 -0.4785923742042326
4.4825E8 0.30452472903063116 -0.45939484427057997 0.6954752709693688 0.45939484427057997 0.6954752709693688 0.45939484427057997 0.30452472903063116 -0.45939484427057997
4.98E8 0.2607880001126556 -0.4381542026993523 0.7392119998873443 0.4381542026993523 0.7392119998873443 0.4381542026993523 0.2607880001126556 -0.4381542026993523
5.4775E8 0.2247085783648154 -0.41637794258501926 0.7752914216351847 0.41637794258501926 0.7752914216351847 0.41637794258501926 0.2247085783648154 -0.41637794258501926
5.975E8 0.1948167970281221 -0.39494227121614084 0.8051832029718778 0.39494227121614084 0.8051832029718778 0.39494227121614084 0.1948167970281221 -0.39494227121614084
6.4725E8 0.1699109835637697 -0.37432906302620705 0.8300890164362302 0.37432906302620705 0.8300890164362302 0.37432906302620705 0.1699109835637697 -0.37432906302620705
6.97E8 0.1490282217768296 -0.3547792466002745 0.8509717782231704 0.3547792466002745 0.8509717782231704 0.3547792466002745 0.1490282217768296 -0.3547792466002745
7.4675E8 0.13140386308314486 -0.33638942450267567 0.8685961369168552 0.33638942450267567 0.8685961369168552 0.33638942450267567 0.13140386308314486 -0.33638942450267567
7.965E8 0.1164323113642928 -0.3191718012299321 0.8835676886357072 0.3191718012299321 0.8835676886357072 0.3191718012299321 0.1164323113642928 -0.3191718012299321
8.4625E8 0.10363339307078924 -0.3030909813881175 0.8963666069292107 0.3030909813881175 0.8963666069292107 0.3030909813881175 0.10363339307078924 -0.3030909813881175
8.96E8 0.09262508196514413 -0.2880863688800462 0.9073749180348558 0.2880863688800462 0.9073749180348558 0.2880863688800462 0.09262508196514413 -0.2880863688800462
9.4575E8 0.08310199006982046 -0.2740856569238383 0.9168980099301796 0.2740856569238383 0.9168980099301796 0.2740856569238383 0.08310199006982046 -0.2740856569238383
9.955E8 0.07481864255263121 -0.2610128232664708 0.9251813574473688 0.2610128232664708 0.9251813574473688 0.2610128232664708 0.07481864255263121 -0.2610128232664708
1.04525E9 0.0675765530898288 -0.24879274520732217 0.9324234469101712 0.24879274520732217 0.9324234469101712 0.24879274520732217 0.0675765530898288 -0.24879274520732217
1.095E9 0.061214251628789525 -0.23735374313691307 0.9387857483712105 0.23735374313691307 0.9387857483712105 0.23735374313691307 0.061214251628789525 -0.23735374313691307
1.14475E9 0.0555995800329136 -0.22662886317815523 0.9444004199670866 0.22662886317815523 0.9444004199670866 0.22662886317815523 0.0555995800329136 -0.22662886317815523
1.1945E9 0.05062372135775876 -0.21655640147503344 0.9493762786422412 0.21655640147503344 0.9493762786422412 0.21655640147503344 0.05062372135775876 -0.21655640147503344
1.24425E9 0.04619655309247859 -0.20707998171090386 0.9538034469075217 0.20707998171090386 0.9538034469075217 0.20707998171090386 0.04619655309247859 -0.20707998171090386
1.294E9 0.042243013013360635 -0.19814837867986254 0.9577569869866392 0.19814837867986254 0.9577569869866392 0.19814837867986254 0.042243013013360635 -0.19814837867986254
1.34375E9 0.03870024188180073 -0.18971520665138558 0.9612997581181993 0.18971520665138558 0.9612997581181993 0.18971520665138558 0.03870024188180073 -0.18971520665138558
1.3935E9 0.035515324528835934 -0.18173854494676472 0.964484675471164 0.18173854494676472 0.964484675471164 0.18173854494676472 0.035515324528835934 -0.18173854494676472
1.44325E9 0.03264349402139327 -0.17418054415485773 0.9673565059786068 0.17418054415485773 0.9673565059786068 0.17418054415485773 0.03264349402139327 -0.17418054415485773
1.493E9 0.030046696012560447 -0.16700703828987035 0.9699533039874395 0.16700703828987035 0.9699533039874395 0.16700703828987035 0.030046696012560447 -0.16700703828987035
1.54275E9 0.02769243471700054 -0.160187176907466 0.9723075652829992 0.160187176907466 0.9723075652829992 0.160187176907466 0.02769243471700054 -0.160187176907466
1.5925E9 0.02555284026559821 -0.1536930842240486 0.9744471597344017 0.1536930842240486 0.9744471597344017 0.1536930842240486 0.02555284026559821 -0.1536930842240486
1.64225E9 0.023603911014105874 -0.14749954803862084 0.9763960889858941 0.14749954803862084 0.9763960889858941 0.14749954803862084 0.023603911014105874 -0.14749954803862084
1.692E9 0.02182489485061641 -0.14158373873203503 0.9781751051493836 0.14158373873203503 0.9781751051493836 0.14158373873203503 0.02182489485061641 -0.14158373873203503
1.74175E9 0.02019778151265574 -0.13592495717653097 0.9798022184873443 0.13592495717653097 0.9798022184873443 0.13592495717653097 0.02019778151265574 -0.13592495717653097
1.7915E9 0.018706884013558144 -0.13050440962293763 0.981293115986442 0.13050440962293763 0.981293115986442 0.13050440962293763 0.018706884013558144 -0.13050440962293763
1.84125E9 0.01733849195434629 -0.12530500728487923 0.9826615080456538 0.12530500728487923 0.9826615080456538 0.12530500728487923 0.01733849195434629 -0.12530500728487923
1.891E9 0.01608058310685347 -0.12031118824384988 0.9839194168931465 0.12031118824384988 0.9839194168931465 0.12031118824384988 0.01608058310685347 -0.12031118824384988
1.94075E9 0.014922582453565592 -0.11550875935137744 0.9850774175464343 0.11550875935137744 0.9850774175464343 0.11550875935137744 0.014922582453565592 -0.11550875935137744
1.9905E9 0.01385516005200961 -0.1108847559385836 0.9861448399479903 0.1108847559385836 0.9861448399479903 0.1108847559385836 0.01385516005200961 -0.1108847559385836
2.04025E9 0.01287006080092418 -0.10642731731798412 0.9871299391990759 0.10642731731798412 0.9871299391990759 0.10642731731798412 0.01287006080092418 -0.10642731731798412
2.09E9 0.011959960530842353 -0.10212557625201445 0.9880400394691576 0.10212557625201445 0.9880400394691576 0.10212557625201445 0.011959960530842353 -0.10212557625201445
2.13975E9 0.011118343905599664 -0.0979695607523766 0.9888816560944003 0.0979695607523766 0.9888816560944003 0.0979695607523766 0.011118343905599664 -0.0979695607523766
2.1895E9 0.010339400466430582 -0.0939501067552478 0.9896605995335696 0.0939501067552478 0.9896605995335696 0.0939501067552478 0.010339400466430582 -0.0939501067552478
2.23925E9 0.009617935824718562 -0.09005878038513244 0.9903820641752811 0.09005878038513244 0.9903820641752811 0.09005878038513244 0.009617935824718562 -0.09005878038513244
2.289E9 0.008949295549969477 -0.08628780867270222 0.9910507044500304 0.08628780867270222 0.9910507044500304 0.08628780867270222 0.008949295549969477 -0.08628780867270222
2.33875E9 0.008329299734610529 -0.0826300177289101 0.9916707002653892 0.0826300177289101 0.9916707002653892 0.0826300177289101 0.008329299734610529 -0.0826300177289101
2.3885E9 0.0077541865688050965 -0.07907877749947177 0.992245813431195 0.07907877749947177 0.992245813431195 0.07907877749947177 0.0077541865688050965 -0.07907877749947177
2.43825E9 0.007220563543761456 -0.07562795233143586 0.9927794364562387 0.07562795233143586 0.9927794364562387 0.07562795233143586 0.007220563543761456 -0.07562795233143586
2.488E9 0.006725365134404709 -0.07227185667824206 0.9932746348655955 0.07227185667824206 0.9932746348655955 0.07227185667824206 0.006725365134404709 -0.07227185667824206
2.53775E9 0.006265816002296042 -0.06900521535266751 0.993734183997704 0.06900521535266751 0.993734183997704 0.06900521535266751 0.006265816002296042 -0.06900521535266751
2.5875E9 0.005839398915618671 -0.0658231278096786 0.9941606010843811 0.0658231278096786 0.9941606010843811 0.0658231278096786 0.005839398915618671 -0.0658231278096786
2.63725E9 0.005443826711470199 -0.06272103600463809 0.9945561732885296 0.06272103600463809 0.9945561732885296 0.06272103600463809 0.005443826711470199 -0.06272103600463809
2.687E9 0.00507701773182552 -0.059694695427685865 0.9949229822681744 0.059694695427685865 0.9949229822681744 0.059694695427685865 0.00507701773182552 -0.059694695427685865
2.73675E9 0.004737074252525627 -0.056740148963422436 0.9952629257474743 0.056740148963422436 0.9952629257474743 0.056740148963422436 0.004737074252525627 -0.056740148963422436
2.7865E9 0.004422263497839358 -0.05385370326717499 0.9955777365021607 0.05385370326717499 0.9955777365021607 0.05385370326717499 0.004422263497839358 -0.05385370326717499
2.83625E9 0.0041310008942173826 -0.05103190738591462 0.9958689991057825 0.05103190738591462 0.9958689991057825 0.05103190738591462 0.0041310008942173826 -0.05103190738591462
2.886E9 0.0038618352679715244 -0.04827153338401813 0.9961381647320283 0.04827153338401813 0.9961381647320283 0.04827153338401813 0.0038618352679715244 -0.04827153338401813
2.93575E9 0.0036134357345179056 -0.04556955876213737 0.9963865642654821 0.04556955876213737 0.9963865642654821 0.04556955876213737 0.0036134357345179056 -0.04556955876213737
2.9855E9 0.00338458006293996 -0.0429231504819875 0.9966154199370602 0.0429231504819875 0.9966154199370602 0.0429231504819875 0.00338458006293996 -0.0429231504819875
3.03525E9 0.0031741443301156794 -0.040329650431354884 0.9968258556698844 0.040329650431354884 0.9968258556698844 0.040329650431354884 0.0031741443301156794 -0.040329650431354884
3.085E9 0.002981093704458482 -0.03778656218245374 0.9970189062955417 0.03778656218245374 0.9970189062955417 0.03778656218245374 0.002981093704458482 -0.03778656218245374
3.13475E9 0.0028044742212196636 -0.03529153891327857 0.9971955257787803 0.03529153891327857 0.9971955257787803 0.03529153891327857 0.0028044742212196636 -0.03529153891327857
3.1845E9 0.0026434054299307023 -0.03284237237610579 0.9973565945700691 0.03284237237610579 0.9973565945700691 0.03284237237610579 0.0026434054299307023 -0.03284237237610579
3.23425E9 0.0024970738104526506 -0.030436982810052644 0.9975029261895473 0.030436982810052644 0.9975029261895473 0.030436982810052644 0.0024970738104526506 -0.030436982810052644
3.284E9 0.0023647268676830653 -0.028073409705829066 0.9976352731323168 0.028073409705829066 0.9976352731323168 0.028073409705829066 0.0023647268676830653 -0.028073409705829066
3.33375E9 0.002245667826610349 -0.025749803340717914 0.9977543321733898 0.025749803340717914 0.9977543321733898 0.025749803340717914 0.002245667826610349 -0.025749803340717914
3.3835E9 0.002139250859401162 -0.02346441701055052 0.997860749140599 0.02346441701055052 0.997860749140599 0.02346441701055052 0.002139250859401162 -0.02346441701055052
3.43325E9 0.0020448767848103983 -0.021215599893166532 0.9979551232151894 0.021215599893166532 0.9979551232151894 0.021215599893166532 0.0020448767848103983 -0.021215599893166532
3.483E9 0.0019619891876240655 -0.01900179048467334 0.998038010812376 0.01900179048467334 0.998038010812376 0.01900179048467334 0.0019619891876240655 -0.01900179048467334
3.53275E9 0.0018900709122598878 -0.016821510555872082 0.9981099290877401 0.016821510555872082 0.9981099290877401 0.016821510555872082 0.0018900709122598878 -0.016821510555872082
3.5825E9 0.0018286408902059006 -0.01467335958158271 0.9981713591097942 0.01467335958158271 0.9981713591097942 0.01467335958158271 0.0018286408902059006 -0.01467335958158271
3.63225E9 0.001777251265798486 -0.01255600960036653 0.9982227487342015 0.01255600960036653 0.9982227487342015 0.01255600960036653 0.001777251265798486 -0.01255600960036653
3.682E9 0.001735484789033317 -0.010468200466382253 0.9982645152109668 0.010468200466382253 0.9982645152109668 0.010468200466382253 0.001735484789033317 -0.010468200466382253
3.73175E9 0.001702952447754465 -0.008408735458884584 0.9982970475522452 0.008408735458884584 0.9982970475522452 0.008408735458884584 0.001702952447754465 -0.008408735458884584
3.7815E9 0.0016792913147540775 -0.0063764772182364135 0.9983207086852459 0.0063764772182364135 0.9983207086852459 0.0063764772182364135 0.0016792913147540775 -0.0063764772182364135
3.83125E9 0.001664162588101564 -0.004370343980307648 0.9983358374118987 0.004370343980307648 0.9983358374118987 0.004370343980307648 0.001664162588101564 -0.004370343980307648
3.881E9 0.001657249805461898 -0.0023893060838138134 0.998342750194538 0.0023893060838138134 0.998342750194538 0.0023893060838138134 0.001657249805461898 -0.0023893060838138134
3.93075E9 0.0016582572153040719 -4.323827275458768E-4 0.9983417427846958 4.323827275458768E-4 0.9983417427846958 4.323827275458768E-4 0.0016582572153040719 -4.323827275458768E-4
3.9805E9 0.0016669082897827685 0.0015013610434096367 0.9983330917102173 -0.0015013610434096367 0.9983330917102173 -0.0015013610434096367 0.0016669082897827685 0.0015013610434096367
4.03025E9 0.0016829443657332037 0.0034128171414375243 0.9983170556342668 -0.0034128171414375243 0.9983170556342668 -0.0034128171414375243 0.0016829443657332037 0.0034128171414375243
4.08E9 0.001706123401680191 0.005302837047397036 0.9982938765983198 -0.005302837047397036 0.9982938765983198 -0.005302837047397036 0.001706123401680191 0.005302837047397036
4.12975E9 0.0017362188400529687 0.0071722342445599 0.998263781159947 -0.0071722342445599 0.998263781159947 -0.0071722342445599 0.0017362188400529687 0.0071722342445599
4.1795E9 0.0017730185649390713 0.00902178648978751 0.9982269814350608 -0.00902178648978751 0.9982269814350608 -0.00902178648978751 0.0017730185649390713 0.00902178648978751
4.22925E9 0.0018163239467222938 0.010852237934996404 0.9981836760532778 -0.010852237934996404 0.9981836760532778 -0.010852237934996404 0.0018163239467222938 0.010852237934996404
4.279E9 0.0018659489658477892 0.012664301110831003 0.9981340510341523 -0.012664301110831003 0.9981340510341523 -0.012664301110831003 0.0018659489658477892 0.012664301110831003
4.32875E9 0.0019217194087557486 0.014458658783444283 0.9980782805912443 -0.014458658783444283 0.9980782805912443 -0.014458658783444283 0.0019217194087557486 0.014458658783444283
4.3785E9 0.0019834721297360782 0.01623596569436792 0.998016527870264 -0.01623596569436792 0.998016527870264 -0.01623596569436792 0.0019834721297360782 0.01623596569436792
4.42825E9 0.0020510543730907793 0.017996850192624814 0.9979489456269094 -0.017996850192624814 0.9979489456269094 -0.017996850192624814 0.0020510543730907793 0.017996850192624814
4.478E9 0.002124323150557486 0.01974191576748751 0.9978756768494426 -0.01974191576748751 0.9978756768494426 -0.01974191576748751 0.002124323150557486 0.01974191576748751
4.52775E9 0.002203144669455041 0.021471742489610268 0.9977968553305449 -0.021471742489610268 0.9977968553305449 -0.021471742489610268 0.002203144669455041 0.021471742489610268
4.5775E9 0.0022873938074671543 0.023186888367650708 0.9977126061925329 -0.023186888367650708 0.9977126061925329 -0.023186888367650708 0.0022873938074671543 0.023186888367650708
4.62725E9 0.0023769536303892814 0.024887890626945387 0.9976230463696106 -0.024887890626945387 0.9976230463696106 -0.024887890626945387 0.0023769536303892814 0.024887890626945387
4.677E9 0.0024717149495323606 0.02657526691630354 0.9975282850504678 -0.02657526691630354 0.9975282850504678 -0.02657526691630354 0.0024717149495323606 0.02657526691630354
4.72675E9 0.0025715759158098208 0.028249516448533393 0.9974284240841901 -0.028249516448533393 0.9974284240841901 -0.028249516448533393 0.0025715759158098208 0.028249516448533393
4.7765E9 0.0026764416478354865 0.02991112107990722 0.9973235583521645 -0.02991112107990722 0.9973235583521645 -0.02991112107990722 0.0026764416478354865 0.02991112107990722
4.82625E9 0.0027862238916334927 0.031560546333405215 0.9972137761083665 -0.031560546333405215 0.9972137761083665 -0.031560546333405215 0.0027862238916334927 0.031560546333405215
4.876E9 0.0029008407098104747 0.033198242370246885 0.9970991592901898 -0.033198242370246885 0.9970991592901898 -0.033198242370246885 0.0029008407098104747 0.033198242370246885
4.92575E9 0.0030202161982679438 0.034824644913921184 0.9969797838017321 -0.034824644913921184 0.9969797838017321 -0.034824644913921184 0.0030202161982679438 0.034824644913921184
4.9755E9 0.003144280228741841 0.036440176130660945 0.9968557197712582 -0.036440176130660945 0.9968557197712582 -0.036440176130660945 0.003144280228741841 0.036440176130660945
5.02525E9 0.003272968215648958 0.03804524547006802 0.9967270317843511 -0.03804524547006802 0.9967270317843511 -0.03804524547006802 0.003272968215648958 0.03804524547006802
5.075E9 0.003406220905898534 0.03964025046938407 0.9965937790941014 -0.03964025046938407 0.9965937790941014 -0.03964025046938407 0.003406220905898534 0.03964025046938407
5.12475E9 0.0035439841904939744 0.041225577524715284 0.9964560158095059 -0.041225577524715284 0.9964560158095059 -0.041225577524715284 0.0035439841904939744 0.041225577524715284
5.1745E9 0.0036862089369059494 0.042801602632354496 0.9963137910630938 -0.042801602632354496 0.9963137910630938 -0.042801602632354496 0.0036862089369059494 0.042801602632354496
5.22425E9 0.00383285084134599 0.044368692103202476 0.996167149158654 -0.044368692103202476 0.996167149158654 -0.044368692103202476 0.00383285084134599 0.044368692103202476
5.274E9 0.0039838703002107005 0.045927203253168715 0.9960161296997893 -0.045927203253168715 0.9960161296997893 -0.045927203253168715 0.0039838703002107005 0.045927203253168715
5.32375E9 0.004139232300102435 0.04747748507233125 0.9958607676998975 -0.04747748507233125 0.9958607676998975 -0.04747748507233125 0.004139232300102435 0.04747748507233125
5.3735E9 0.004298906325964046 0.04901987887555246 0.9957010936740359 -0.04901987887555246 0.9957010936740359 -0.04901987887555246 0.004298906325964046 0.04901987887555246
5.42325E9 0.004462866286995001 0.05055471893718665 0.9955371337130052 -0.05055471893718665 0.9955371337130052 -0.05055471893718665 0.004462866286995001 0.05055471893718665
5.473E9 0.004631090460144652 0.05208233311246994 0.9953689095398554 -0.05208233311246994 0.9953689095398554 -0.05208233311246994 0.004631090460144652 0.05208233311246994
5.52275E9 0.0048035614511079535 0.05360304344816042 0.9951964385488921 -0.05360304344816042 0.9951964385488921 -0.05360304344816042 0.0048035614511079535 0.05360304344816042
5.5725E9 0.004980266172880312 0.05511716678499028 0.9950197338271197 -0.05511716678499028 0.9950197338271197 -0.05511716678499028 0.004980266172880312 0.05511716678499028
5.62225E9 0.005161195842063473 0.05662501535450594 0.9948388041579365 -0.05662501535450594 0.9948388041579365 -0.05662501535450594 0.005161195842063473 0.05662501535450594
5.672E9 0.00534634599325554 0.058126897372910276 0.9946536540067443 -0.058126897372910276 0.9946536540067443 -0.058126897372910276 0.00534634599325554 0.058126897372910276
5.72175E9 0.005535716512006001 0.05962311763457447 0.994464283487994 -0.05962311763457447 0.994464283487994 -0.05962311763457447 0.005535716512006001 0.05962311763457447
