!Murata Part Number: LQW15AN16NG80
!These Parameters are Measured in Shunt Mode Connection
!       o-----o
!          l
!Port1    [Z]     Port2
!          l
!       o-----o
!
!Freq. Start=50[MHz] Stop=20[GHz], 401[Steps]
# Hz S RI R 50
!Freq.(Hz) S11(Real) S11(Imag) S21(Real) S21(Imag) S12(Real) S12(Imag) S22(Real) S22(Imag)
5.0E7 -0.9498730797591862 0.18941910699106365 0.0501269202408138 0.18941910699106365 0.0501269202408138 0.18941910699106365 -0.9498730797591862 0.18941910699106365
5.0754570186123446E7 -0.9487174896686591 0.19191492576641403 0.0512825103313411 0.191914925766414 0.0512825103313411 0.191914925766414 -0.9487174896686591 0.19191492576641403
5.152052789556263E7 -0.9475338030016651 0.19443820895210398 0.052466196998334685 0.19443820895210398 0.052466196998334685 0.19443820895210398 -0.9475338030016651 0.19443820895210398
5.229804498202928E7 -0.9463213252766308 0.19698905166515834 0.05367867472336909 0.19698905166515832 0.05367867472336909 0.19698905166515832 -0.9463213252766308 0.19698905166515834
5.308729589274893E7 -0.9450793460837591 0.19956753671621355 0.054920653916240965 0.19956753671621352 0.054920653916240965 0.19956753671621352 -0.9450793460837591 0.19956753671621355
5.388845770760058E7 -0.9438071390201948 0.20217373384201542 0.056192860979805234 0.20217373384201542 0.056192860979805234 0.20217373384201542 -0.9438071390201948 0.20217373384201542
5.470171017884717E7 -0.9425039616496022 0.20480769891633485 0.05749603835039782 0.20480769891633485 0.05749603835039782 0.20480769891633485 -0.9425039616496022 0.20480769891633485
5.5527235771465644E7 -0.9411690554875232 0.2074694731396685 0.05883094451247699 0.2074694731396685 0.05883094451247699 0.2074694731396685 -0.9411690554875232 0.2074694731396685
5.6365219704085544E7 -0.939801646013909 0.21015908220814408 0.06019835398609097 0.21015908220814403 0.06019835398609097 0.21015908220814403 -0.939801646013909 0.21015908220814408
5.721584999054556E7 -0.9384009427142425 0.21287653546210417 0.06159905728575759 0.21287653546210417 0.06159905728575759 0.21287653546210417 -0.9384009427142425 0.21287653546210417
5.807931748207712E7 -0.9369661391506855 0.2156218250148969 0.0630338608493144 0.2156218250148969 0.0630338608493144 0.2156218250148969 -0.9369661391506855 0.2156218250148969
5.8955815910124585E7 -0.9354964130647232 0.2183949248624663 0.06450358693527677 0.2183949248624663 0.06450358693527677 0.2183949248624663 -0.9354964130647232 0.2183949248624663
5.984554192981184E7 -0.9339909265127851 0.22119578997439424 0.06600907348721495 0.22119578997439418 0.06600907348721495 0.22119578997439418 -0.9339909265127851 0.22119578997439424
6.074869516406457E7 -0.9324488260363621 0.22402435536711657 0.06755117396363786 0.22402435536711657 0.06755117396363786 0.22402435536711657 -0.9324488260363621 0.22402435536711657
6.166547824839868E7 -0.9308692428681513 0.2268805351601061 0.06913075713184876 0.2268805351601061 0.06913075713184876 0.2268805351601061 -0.9308692428681513 0.2268805351601061
6.2596096876384385E7 -0.9292512931757863 0.22976422161588947 0.07074870682421373 0.22976422161588947 0.07074870682421373 0.22976422161588947 -0.9292512931757863 0.22976422161588947
6.354075984579668E7 -0.9275940783447352 0.23267528416484973 0.07240592165526484 0.23267528416484973 0.07240592165526484 0.23267528416484973 -0.9275940783447352 0.23267528416484973
6.449967910546205E7 -0.9258966853019632 0.23561356841584538 0.07410331469803667 0.23561356841584538 0.07410331469803667 0.23561356841584538 -0.9258966853019632 0.23561356841584538
6.547306980281226E7 -0.9241581868819781 0.23857889515377595 0.07584181311802185 0.2385788951537759 0.07584181311802185 0.2385788951537759 -0.9241581868819781 0.23857889515377595
6.646115033215589E7 -0.9223776422368896 0.24157105932531045 0.07762235776311045 0.24157105932531045 0.07762235776311045 0.24157105932531045 -0.9223776422368896 0.24157105932531045
6.746414238367817E7 -0.9205540972921299 0.2445898290141059 0.0794459027078701 0.2445898290141059 0.0794459027078701 0.2445898290141059 -0.9205540972921299 0.2445898290141059
6.848227099318038E7 -0.9186865852494865 0.2476349444069447 0.08131341475051342 0.2476349444069447 0.08131341475051342 0.2476349444069447 -0.9186865852494865 0.2476349444069447
6.951576459256999E7 -0.9167741271391064 0.2507061167523362 0.08322587286089354 0.2507061167523362 0.08322587286089354 0.2507061167523362 -0.9167741271391064 0.2507061167523362
7.056485506111258E7 -0.9148157324221283 0.2538030273132463 0.08518426757787165 0.2538030273132463 0.08518426757787165 0.2538030273132463 -0.9148157324221283 0.2538030273132463
7.162977777745734E7 -0.9128103996455957 0.2569253263157458 0.08718960035440426 0.2569253263157458 0.08718960035440426 0.2569253263157458 -0.9128103996455957 0.2569253263157458
7.271077167244768E7 -0.9107571171512899 0.2600726318954979 0.08924288284871006 0.2600726318954979 0.08924288284871006 0.2600726318954979 -0.9107571171512899 0.2600726318954979
7.380807928272885E7 -0.9086548638401023 0.26324452904414547 0.09134513615989759 0.26324452904414547 0.09134513615989759 0.26324452904414547 -0.9086548638401023 0.26324452904414547
7.492194680516452E7 -0.9065026099935397 0.2664405685578006 0.09349739000646028 0.2664405685578006 0.09349739000646028 0.2664405685578006 -0.9065026099935397 0.2664405685578006
7.60526241520746E7 -0.904299318153919 0.2696602659899873 0.09570068184608076 0.2696602659899873 0.09570068184608076 0.2696602659899873 -0.904299318153919 0.2696602659899873
7.720036500730675E7 -0.9020439440647656 0.2729031006115458 0.09795605593523438 0.2729031006115458 0.09795605593523438 0.2729031006115458 -0.9020439440647656 0.2729031006115458
7.836542688315398E7 -0.8997354376728649 0.2761685143801618 0.10026456232713499 0.2761685143801618 0.10026456232713499 0.2761685143801618 -0.8997354376728649 0.2761685143801618
7.954807117813127E7 -0.8973727441933665 0.2794559109223502 0.10262725580663348 0.2794559109223503 0.10262725580663348 0.2794559109223503 -0.8973727441933665 0.2794559109223502
8.074856323562416E7 -0.8949548052392395 0.2827646545308906 0.10504519476076032 0.2827646545308906 0.10504519476076032 0.2827646545308906 -0.8949548052392395 0.2827646545308906
8.196717240342227E7 -0.8924805600163069 0.2860940691808801 0.10751943998369314 0.2860940691808801 0.10751943998369314 0.2860940691808801 -0.8924805600163069 0.2860940691808801
8.320417209415154E7 -0.8899489465849617 0.28944343756774493 0.11005105341503821 0.2894434375677449 0.11005105341503821 0.2894434375677449 -0.8899489465849617 0.28944343756774493
8.445983984661816E7 -0.8873589031895671 0.2928120001707237 0.11264109681043276 0.2928120001707237 0.11264109681043276 0.2928120001707237 -0.8873589031895671 0.2928120001707237
8.573445738807854E7 -0.8847093696563855 0.2961989543455148 0.11529063034361457 0.2961989543455148 0.11529063034361457 0.2961989543455148 -0.8847093696563855 0.2961989543455148
8.702831069744885E7 -0.8819992888607473 0.2996034534499493 0.11800071113925276 0.2996034534499494 0.11800071113925276 0.2996034534499494 -0.8819992888607473 0.2996034534499493
8.834169006946853E7 -0.8792276082639927 0.3030246060067303 0.1207723917360074 0.3030246060067303 0.1207723917360074 0.3030246060067303 -0.8792276082639927 0.3030246060067303
8.96748901798321E7 -0.8763932815205316 0.30646147490744513 0.12360671847946833 0.30646147490744513 0.12360671847946833 0.30646147490744513 -0.8763932815205316 0.30646147490744513
9.1028210151304E7 -0.873495270155169 0.30991307666222595 0.12650472984483097 0.30991307666222595 0.12650472984483097 0.30991307666222595 -0.873495270155169 0.30991307666222595
9.240195362083109E7 -0.8705325453106117 0.3133783806995928 0.1294674546893883 0.3133783806995928 0.1294674546893883 0.3133783806995928 -0.8705325453106117 0.3133783806995928
9.379642880766791E7 -0.8675040895648388 0.3168563087211667 0.13249591043516123 0.3168563087211667 0.13249591043516123 0.3168563087211667 -0.8675040895648388 0.3168563087211667
9.521194858253023E7 -0.8644088988177481 0.32034573411608624 0.13559110118225193 0.32034573411608624 0.13559110118225193 0.32034573411608624 -0.8644088988177481 0.32034573411608624
9.664883053779216E7 -0.8612459842462156 0.32384548144009 0.13875401575378435 0.32384548144009 0.13875401575378435 0.32384548144009 -0.8612459842462156 0.32384548144009
9.810739705874248E7 -0.8580143743264024 0.3273543259643536 0.1419856256735978 0.3273543259643536 0.1419856256735978 0.3273543259643536 -0.8580143743264024 0.3273543259643536
9.958797539591652E7 -0.8547131169218212 0.33087099329926983 0.14528688307817877 0.33087099329926983 0.14528688307817877 0.33087099329926983 -0.8547131169218212 0.33087099329926983
1.0109089773851961E8 -0.8513412814353437 0.33439415909845505 0.14865871856465626 0.33439415909845505 0.14865871856465626 0.33439415909845505 -0.8513412814353437 0.33439415909845505
1.0261650128895843E8 -0.8478979610229591 0.3379224488483306 0.15210203897704097 0.3379224488483306 0.15210203897704097 0.3379224488483306 -0.8478979610229591 0.3379224488483306
1.0416512833849736E8 -0.8443822748667317 0.3414544377486816 0.15561772513326838 0.3414544377486816 0.15561772513326838 0.3414544377486816 -0.8443822748667317 0.3414544377486816
1.0573712634405641E8 -0.8407933705040063 0.3449886506896189 0.15920662949599368 0.3449886506896189 0.15920662949599368 0.3449886506896189 -0.8407933705040063 0.3449886506896189
1.0733284800616828E8 -0.8371304262094998 0.34852356233037235 0.16286957379050018 0.34852356233037246 0.16286957379050018 0.34852356233037246 -0.8371304262094998 0.34852356233037235
1.0895265134811176E8 -0.8333926534264988 0.35205759728531705 0.16660734657350101 0.35205759728531705 0.16660734657350101 0.35205759728531705 -0.8333926534264988 0.35205759728531705
1.1059689979623953E8 -0.8295792992429454 0.35558913042257656 0.1704207007570546 0.3555891304225765 0.1704207007570546 0.3555891304225765 -0.8295792992429454 0.35558913042257656
1.1226596226151802E8 -0.8256896489077389 0.3591164872804616 0.17431035109226103 0.3591164872804616 0.17431035109226103 0.3591164872804616 -0.8256896489077389 0.3591164872804616
1.1396021322229806E8 -0.8217230283821374 0.3626379446068793 0.17827697161786255 0.36263794460687937 0.17827697161786255 0.36263794460687937 -0.8217230283821374 0.3626379446068793
1.1568003280833441E8 -0.817678806920664 0.3661517310266881 0.18232119307933595 0.3661517310266882 0.18232119307933595 0.3661517310266882 -0.817678806920664 0.3661517310266881
1.1742580688607343E8 -0.8135563996754638 0.36965602784178314 0.1864436003245361 0.36965602784178314 0.1864436003245361 0.36965602784178314 -0.8135563996754638 0.36965602784178314
1.1919792714522783E8 -0.8093552703175857 0.3731489699684557 0.1906447296824142 0.3731489699684557 0.1906447296824142 0.3731489699684557 -0.8093552703175857 0.3731489699684557
1.2099679118665792E8 -0.8050749336681894 0.3766286470163004 0.19492506633181045 0.3766286470163004 0.19492506633181045 0.3766286470163004 -0.8050749336681894 0.3766286470163004
1.2282280261157903E8 -0.8007149583322234 0.3800931045126184 0.1992850416677766 0.3800931045126184 0.1992850416677766 0.3800931045126184 -0.8007149583322234 0.3800931045126184
1.2467637111211549E8 -0.7962749693266511 0.38354034527591235 0.20372503067334882 0.38354034527591235 0.20372503067334882 0.38354034527591235 -0.7962749693266511 0.38354034527591235
1.265579125632208E8 -0.7917546506948756 0.3869683309416531 0.20824534930512442 0.3869683309416531 0.20824534930512442 0.3869683309416531 -0.7917546506948756 0.3869683309416531
1.284678491159853E8 -0.7871537480985692 0.39037498364305523 0.2128462519014307 0.39037498364305523 0.2128462519014307 0.39037498364305523 -0.7871537480985692 0.39037498364305523
1.3040660929235186E8 -0.7824720713777195 0.3937581878491029 0.21752792862228054 0.3937581878491029 0.21752792862228054 0.3937581878491029 -0.7824720713777195 0.3937581878491029
1.3237462808126101E8 -0.777709497069316 0.3971157923615213 0.22229050293068395 0.3971157923615213 0.22229050293068395 0.3971157923615213 -0.777709497069316 0.3971157923615213
1.3437234703624701E8 -0.7728659708747515 0.40044561247181587 0.22713402912524844 0.40044561247181587 0.22713402912524844 0.40044561247181587 -0.7728659708747515 0.40044561247181587
1.364002143745067E8 -0.7679415100656887 0.4037454322788676 0.23205848993431125 0.40374543227886767 0.23205848993431125 0.40374543227886767 -0.7679415100656887 0.4037454322788676
1.3845868507746372E8 -0.762936205817867 0.40701300716690925 0.23706379418213297 0.40701300716690925 0.23706379418213297 0.40701300716690925 -0.762936205817867 0.40701300716690925
1.405482209928499E8 -0.7578502254620842 0.4102460664430007 0.24214977453791584 0.4102460664430007 0.24214977453791584 0.4102460664430007 -0.7578502254620842 0.4102460664430007
1.426692909383278E8 -0.7526838146413957 0.41344231613238086 0.24731618535860436 0.4134423161323809 0.24731618535860436 0.4134423161323809 -0.7526838146413957 0.41344231613238086
1.4482237080667645E8 -0.7474372993634414 0.41659944192929105 0.2525627006365585 0.4165994419292911 0.2525627006365585 0.4165994419292911 -0.7474372993634414 0.41659944192929105
1.4700794367256513E8 -0.7421110879367191 0.4197151123000695 0.25788891206328085 0.4197151123000696 0.25788891206328085 0.4197151123000696 -0.7421110879367191 0.4197151123000695
1.492264999009378E8 -0.7367056727796121 0.42278698173447243 0.2632943272203877 0.42278698173447243 0.2632943272203877 0.42278698173447243 -0.7367056727796121 0.42278698173447243
1.5147853725703382E8 -0.7312216320910138 0.42581269414033407 0.26877836790898635 0.42581269414033407 0.26877836790898635 0.42581269414033407 -0.7312216320910138 0.42581269414033407
1.5376456101806876E8 -0.7256596313715027 0.4287898863758019 0.27434036862849726 0.4287898863758019 0.27434036862849726 0.4287898863758019 -0.7256596313715027 0.4287898863758019
1.5608508408660066E8 -0.7200204247842101 0.43171619191250726 0.2799795752157898 0.4317161919125074 0.2799795752157898 0.4317161919125074 -0.7200204247842101 0.43171619191250726
1.5844062710560706E8 -0.7143048563447657 0.434589244622142 0.2856951436552343 0.434589244622142 0.2856951436552343 0.434589244622142 -0.7143048563447657 0.434589244622142
1.6083171857529896E8 -0.7085138609300443 0.4374066826780331 0.2914861390699557 0.4374066826780331 0.2914861390699557 0.4374066826780331 -0.7085138609300443 0.4374066826780331
1.632588949716973E8 -0.7026484650958436 0.4401661525624309 0.29735153490415656 0.44016615256243086 0.29735153490415656 0.44016615256243086 -0.7026484650958436 0.4401661525624309
1.6572270086699936E8 -0.6967097876941022 0.442865313169364 0.3032902123058978 0.442865313169364 0.3032902123058978 0.442865313169364 -0.6967097876941022 0.442865313169364
1.6822368905176118E8 -0.6906990402808401 0.4455018399920833 0.30930095971916 0.4455018399920833 0.30930095971916 0.4455018399920833 -0.6906990402808401 0.4455018399920833
1.7076242065892437E8 -0.6846175273066326 0.448073429383305 0.3153824726933673 0.44807342938330497 0.3153824726933673 0.44807342938330497 -0.6846175273066326 0.448073429383305
1.7333946528971428E8 -0.6784666460821607 0.4505778028757003 0.32153335391783916 0.4505778028757004 0.32153335391783916 0.4505778028757004 -0.6784666460821607 0.4505778028757003
1.7595540114143828E8 -0.6722478865121568 0.4530127115493521 0.32775211348784317 0.4530127115493521 0.32775211348784317 0.4530127115493521 -0.6722478865121568 0.4530127115493521
1.786108151372127E8 -0.6659628305919438 0.45537594043223234 0.3340371694080563 0.45537594043223234 0.3340371694080563 0.45537594043223234 -0.6659628305919438 0.45537594043223234
1.8130630305764765E8 -0.6596131516616852 0.45766531291914525 0.3403868483383148 0.45766531291914525 0.3403868483383148 0.45766531291914525 -0.6596131516616852 0.45766531291914525
1.840424696745189E8 -0.6532006134144654 0.459878695194039 0.34679938658553455 0.459878695194039 0.34679938658553455 0.459878695194039 -0.6532006134144654 0.459878695194039
1.8681992888645732E8 -0.6467270686553687 0.46201400064012327 0.3532729313446313 0.4620140006401232 0.3532729313446313 0.4620140006401232 -0.6467270686553687 0.46201400064012327
1.8963930385668582E8 -0.6401944578098323 0.464069194221846 0.35980554219016764 0.464069194221846 0.35980554219016764 0.464069194221846 -0.6401944578098323 0.464069194221846
1.92501227152835E8 -0.6336048071806991 0.4660422968224846 0.36639519281930094 0.4660422968224846 0.36639519281930094 0.4660422968224846 -0.6336048071806991 0.4660422968224846
1.9540634088886917E8 -0.6269602269545796 0.4679313895208995 0.37303977304542024 0.4679313895208995 0.37303977304542024 0.4679313895208995 -0.6269602269545796 0.4679313895208995
1.983552968691535E8 -0.6202629089593571 0.4697346177908922 0.37973709104064285 0.4697346177908922 0.37973709104064285 0.4697346177908922 -0.6202629089593571 0.4697346177908922
2.0134875673469606E8 -0.6135151241758982 0.4714501956065996 0.3864848758241017 0.4714501956065997 0.3864848758241017 0.4714501956065997 -0.6135151241758982 0.4714501956065996
2.0438739211159652E8 -0.6067192200082896 0.47307640943745405 0.39328077999171035 0.47307640943745405 0.39328077999171035 0.47307640943745405 -0.6067192200082896 0.47307640943745405
2.074718847617352E8 -0.5998776173181656 0.47461162211643687 0.4001223826818343 0.47461162211643687 0.4001223826818343 0.47461162211643687 -0.5998776173181656 0.47461162211643687
2.106029267357361E8 -0.5929928072299402 0.476054276565666 0.40700719277005987 0.476054276565666 0.40700719277005987 0.476054276565666 -0.5929928072299402 0.476054276565666
2.1378122052823865E8 -0.5860673477149757 0.47740289936376457 0.4139326522850243 0.47740289936376457 0.4139326522850243 0.47740289936376457 -0.5860673477149757 0.47740289936376457
2.1700747923551247E8 -0.5791038599639236 0.4786561041399869 0.42089614003607645 0.4786561041399869 0.42089614003607645 0.4786561041399869 -0.5791038599639236 0.4786561041399869
2.2028242671545094E8 -0.5721050245576271 0.4798125947806918 0.4278949754423729 0.4798125947806918 0.4278949754423729 0.4798125947806918 -0.5721050245576271 0.4798125947806918
2.23606797749979E8 -0.5650735774480853 0.48087116843448374 0.4349264225519147 0.48087116843448374 0.4349264225519147 0.48087116843448374 -0.5650735774480853 0.48087116843448374
2.2698133820991236E8 -0.5580123057620322 0.48183071830315666 0.4419876942379677 0.48183071830315655 0.4419876942379677 0.48183071830315655 -0.5580123057620322 0.48183071830315666
2.3040680522230446E8 -0.55092404344067 0.4826902362064861 0.4490759565593301 0.4826902362064861 0.4490759565593301 0.4826902362064861 -0.55092404344067 0.4826902362064861
2.338839673403185E8 -0.5438116667300005 0.48344881490991093 0.45618833326999964 0.48344881490991093 0.45618833326999964 0.48344881490991093 -0.5438116667300005 0.48344881490991093
2.37413604715664E8 -0.5366780895370314 0.48410565020521407 0.4633219104629686 0.4841056502052142 0.4633219104629686 0.4841056502052142 -0.5366780895370314 0.48410565020521407
2.4099650927363476E8 -0.5295262586678614 0.48466004273545304 0.47047374133213876 0.48466004273545293 0.47047374133213876 0.48466004273545293 -0.5295262586678614 0.48466004273545304
2.446334848907889E8 -0.5223591489642888 0.48511139955659277 0.4776408510357113 0.48511139955659277 0.4776408510357113 0.48511139955659277 -0.5223591489642888 0.48511139955659277
2.4832534757531032E8 -0.5151797583561271 0.4854592354295434 0.484820241643873 0.4854592354295433 0.484820241643873 0.4854592354295433 -0.5151797583561271 0.4854592354295434
2.5207292565009177E8 -0.5079911028468266 0.48570317383759853 0.4920088971531734 0.48570317383759853 0.4920088971531734 0.48570317383759853 -0.5079911028468266 0.48570317383759853
2.558770599385812E8 -0.5007962114503305 0.4858429477255958 0.49920378854966957 0.48584294772559566 0.49920378854966957 0.48584294772559566 -0.5007962114503305 0.4858429477255958
2.5973860395343277E8 -0.49359812109729057 0.4858783999584595 0.5064018789027094 0.4858783999584595 0.5064018789027094 0.4858783999584595 -0.49359812109729057 0.4858783999584595
