!Murata Part Number: LQW15AN16NG80
!These Parameters are Measured in Series Mode Connection
!       o--[Z]--o
!Port1              Port2
!       o-------o
!
!Freq. Start=50[MHz] Stop=20[GHz], 401[Steps]
# Hz S RI R 50
!Freq.(Hz) S11(Real) S11(Imag) S21(Real) S21(Imag) S12(Real) S12(Imag) S22(Real) S22(Imag)
5.0E7 0.0056351889497044 0.05003646656830114 0.9943648110502956 -0.05003646656830113 0.9943648110502956 -0.05003646656830113 0.0056351889497044 0.05003646656830114
5.0754570186123446E7 0.005735533617579209 0.05075647178964088 0.9942644663824207 -0.05075647178964088 0.9942644663824207 -0.05075647178964088 0.005735533617579209 0.05075647178964088
5.152052789556263E7 0.00583800849240642 0.05148689224799553 0.9941619915075937 -0.05148689224799553 0.9941619915075937 -0.05148689224799553 0.00583800849240642 0.05148689224799553
5.229804498202928E7 0.005942673366993313 0.052227886924772246 0.9940573266330066 -0.052227886924772246 0.9940573266330066 -0.052227886924772246 0.005942673366993313 0.052227886924772246
5.308729589274893E7 0.006049590331276937 0.052979616965450636 0.993950409668723 -0.052979616965450636 0.993950409668723 -0.052979616965450636 0.006049590331276937 0.052979616965450636
5.388845770760058E7 0.0061588238390432246 0.053742245674147225 0.9938411761609569 -0.053742245674147225 0.9938411761609569 -0.053742245674147225 0.0061588238390432246 0.053742245674147225
5.470171017884717E7 0.006270440775119821 0.0545159385071788 0.9937295592248802 -0.05451593850717881 0.9937295592248802 -0.05451593850717881 0.006270440775119821 0.0545159385071788
5.5527235771465644E7 0.006384510523060337 0.055300863065653266 0.9936154894769397 -0.055300863065653266 0.9936154894769397 -0.055300863065653266 0.006384510523060337 0.055300863065653266
5.6365219704085544E7 0.0065011050333428026 0.05609718908711362 0.9934988949666572 -0.05609718908711363 0.9934988949666572 -0.05609718908711363 0.0065011050333428026 0.05609718908711362
5.721584999054556E7 0.006620298892110551 0.05690508843626033 0.9933797011078895 -0.05690508843626035 0.9933797011078895 -0.05690508843626035 0.006620298892110551 0.05690508843626033
5.807931748207712E7 0.006742169390488307 0.05772473509477229 0.9932578306095118 -0.05772473509477229 0.9932578306095118 -0.05772473509477229 0.006742169390488307 0.05772473509477229
5.8955815910124585E7 0.0068667965945112906 0.05855630515024526 0.9931332034054888 -0.05855630515024526 0.9931332034054888 -0.05855630515024526 0.0068667965945112906 0.05855630515024526
5.984554192981184E7 0.006994263415709466 0.0593999767842621 0.9930057365842903 -0.0593999767842621 0.9930057365842903 -0.0593999767842621 0.006994263415709466 0.0593999767842621
6.074869516406457E7 0.007124655682393227 0.06025593025960531 0.9928753443176066 -0.06025593025960531 0.9928753443176066 -0.06025593025960531 0.007124655682393227 0.06025593025960531
6.166547824839868E7 0.007258062211690848 0.06112434790661813 0.992741937788309 -0.06112434790661812 0.992741937788309 -0.06112434790661812 0.007258062211690848 0.06112434790661813
6.2596096876384385E7 0.007394574882391452 0.06200541410871581 0.9926054251176085 -0.0620054141087158 0.9926054251176085 -0.0620054141087158 0.007394574882391452 0.06200541410871581
6.354075984579668E7 0.0075342887086506495 0.06289931528704405 0.9924657112913493 -0.06289931528704405 0.9924657112913493 -0.06289931528704405 0.0075342887086506495 0.06289931528704405
6.449967910546205E7 0.007677301914618626 0.06380623988427532 0.9923226980853813 -0.06380623988427532 0.9923226980853813 -0.06380623988427532 0.007677301914618626 0.06380623988427532
6.547306980281226E7 0.007823716010053355 0.06472637834753038 0.9921762839899466 -0.06472637834753038 0.9921762839899466 -0.06472637834753038 0.007823716010053355 0.06472637834753038
6.646115033215589E7 0.007973635866983325 0.06565992311040429 0.9920263641330168 -0.06565992311040429 0.9920263641330168 -0.06565992311040429 0.007973635866983325 0.06565992311040429
6.746414238367817E7 0.008127169797486197 0.06660706857407242 0.9918728302025138 -0.06660706857407243 0.9918728302025138 -0.06660706857407243 0.008127169797486197 0.06660706857407242
6.848227099318038E7 0.008284429632651247 0.06756801108744537 0.9917155703673488 -0.06756801108744537 0.9917155703673488 -0.06756801108744537 0.008284429632651247 0.06756801108744537
6.951576459256999E7 0.008445530802794084 0.06854294892633503 0.9915544691972059 -0.06854294892633503 0.9915544691972059 -0.06854294892633503 0.008445530802794084 0.06854294892633503
7.056485506111258E7 0.0086105924189932 0.06953208227158954 0.9913894075810068 -0.06953208227158954 0.9913894075810068 -0.06953208227158954 0.0086105924189932 0.06953208227158954
7.162977777745734E7 0.008779737356017855 0.07053561318614728 0.9912202626439822 -0.07053561318614729 0.9912202626439822 -0.07053561318614729 0.008779737356017855 0.07053561318614728
7.271077167244768E7 0.008953092336716685 0.07155374559095443 0.9910469076632834 -0.07155374559095443 0.9910469076632834 -0.07155374559095443 0.008953092336716685 0.07155374559095443
7.380807928272885E7 0.009130788017936172 0.072586685239685 0.9908692119820639 -0.07258668523968502 0.9908692119820639 -0.07258668523968502 0.009130788017936172 0.072586685239685
7.492194680516452E7 0.00931295907803708 0.07363463969219576 0.9906870409219631 -0.07363463969219577 0.9906870409219631 -0.07363463969219577 0.00931295907803708 0.07363463969219576
7.60526241520746E7 0.009499744306075742 0.07469781828664146 0.9905002556939242 -0.07469781828664147 0.9905002556939242 -0.07469781828664147 0.009499744306075742 0.07469781828664146
7.720036500730675E7 0.009691286692715965 0.07577643211017204 0.990308713307284 -0.07577643211017204 0.990308713307284 -0.07577643211017204 0.009691286692715965 0.07577643211017204
7.836542688315398E7 0.009887733522935151 0.07687069396812533 0.990112266477065 -0.07687069396812533 0.990112266477065 -0.07687069396812533 0.009887733522935151 0.07687069396812533
7.954807117813127E7 0.010089236470586248 0.07798081835162358 0.9899107635294138 -0.07798081835162357 0.9899107635294138 -0.07798081835162357 0.010089236470586248 0.07798081835162358
8.074856323562416E7 0.010295951694875124 0.0791070214034777 0.9897040483051248 -0.0791070214034777 0.9897040483051248 -0.0791070214034777 0.010295951694875124 0.0791070214034777
8.196717240342227E7 0.010508039938809763 0.08024952088229503 0.9894919600611903 -0.08024952088229502 0.9894919600611903 -0.08024952088229502 0.010508039938809763 0.08024952088229503
8.320417209415154E7 0.010725666629675503 0.08140853612468364 0.9892743333703244 -0.08140853612468364 0.9892743333703244 -0.08140853612468364 0.010725666629675503 0.08140853612468364
8.445983984661816E7 0.010949001981586775 0.08258428800543806 0.9890509980184132 -0.08258428800543806 0.9890509980184132 -0.08258428800543806 0.010949001981586775 0.08258428800543806
8.573445738807854E7 0.011178221100163173 0.0837769988955887 0.9888217788998367 -0.0837769988955887 0.9888217788998367 -0.0837769988955887 0.011178221100163173 0.0837769988955887
8.702831069744885E7 0.011413504089373604 0.08498689261818969 0.9885864959106262 -0.08498689261818967 0.9885864959106262 -0.08498689261818967 0.011413504089373604 0.08498689261818969
8.834169006946853E7 0.011655036160589013 0.08621419440171636 0.9883449638394108 -0.08621419440171635 0.9883449638394108 -0.08621419440171635 0.011655036160589013 0.08621419440171636
8.96748901798321E7 0.011903007743880138 0.08745913083093858 0.9880969922561198 -0.08745913083093858 0.9880969922561198 -0.08745913083093858 0.011903007743880138 0.08745913083093858
9.1028210151304E7 0.012157614601592684 0.0887219297951301 0.9878423853984071 -0.0887219297951301 0.9878423853984071 -0.0887219297951301 0.012157614601592684 0.0887219297951301
9.240195362083109E7 0.012419057944228413 0.09000282043347144 0.9875809420557715 -0.09000282043347144 0.9875809420557715 -0.09000282043347144 0.012419057944228413 0.09000282043347144
9.379642880766791E7 0.012687544548655841 0.09130203307749661 0.987312455451344 -0.09130203307749661 0.987312455451344 -0.09130203307749661 0.012687544548655841 0.09130203307749661
9.521194858253023E7 0.012963286878670505 0.09261979919043277 0.9870367131213296 -0.09261979919043277 0.9870367131213296 -0.09261979919043277 0.012963286878670505 0.09261979919043277
9.664883053779216E7 0.013246503207919442 0.09395635130327423 0.9867534967920805 -0.09395635130327423 0.9867534967920805 -0.09395635130327423 0.013246503207919442 0.09395635130327423
9.810739705874248E7 0.013537417745200453 0.09531192294743035 0.9864625822547995 -0.09531192294743035 0.9864625822547995 -0.09531192294743035 0.013537417745200453 0.09531192294743035
9.958797539591652E7 0.013836260762141646 0.09668674858378144 0.9861637392378584 -0.09668674858378146 0.9861637392378584 -0.09668674858378146 0.013836260762141646 0.09668674858378144
1.0109089773851961E8 0.014143268723261802 0.09808106352797308 0.9858567312767383 -0.09808106352797306 0.9858567312767383 -0.09808106352797306 0.014143268723261802 0.09808106352797308
1.0261650128895843E8 0.014458684418407376 0.09949510387177478 0.9855413155815925 -0.09949510387177478 0.9855413155815925 -0.09949510387177478 0.014458684418407376 0.09949510387177478
1.0416512833849736E8 0.014782757097556588 0.10092910640032576 0.9852172429024433 -0.10092910640032575 0.9852172429024433 -0.10092910640032575 0.014782757097556588 0.10092910640032576
1.0573712634405641E8 0.015115742607975864 0.10238330850508491 0.984884257392024 -0.10238330850508491 0.984884257392024 -0.10238330850508491 0.015115742607975864 0.10238330850508491
1.0733284800616828E8 0.015457903533708855 0.10385794809230034 0.9845420964662913 -0.10385794809230033 0.9845420964662913 -0.10385794809230033 0.015457903533708855 0.10385794809230034
1.0895265134811176E8 0.01580950933737241 0.10535326348680756 0.9841904906626276 -0.10535326348680756 0.9841904906626276 -0.10535326348680756 0.01580950933737241 0.10535326348680756
1.1059689979623953E8 0.01617083650422861 0.10686949333096289 0.9838291634957712 -0.10686949333096292 0.9838291634957712 -0.10686949333096292 0.01617083650422861 0.10686949333096289
1.1226596226151802E8 0.016542168688496374 0.10840687647851457 0.9834578313115035 -0.10840687647851457 0.9834578313115035 -0.10840687647851457 0.016542168688496374 0.10840687647851457
1.1396021322229806E8 0.016923796861860047 0.10996565188320871 0.98307620313814 -0.10996565188320871 0.98307620313814 -0.10996565188320871 0.016923796861860047 0.10996565188320871
1.1568003280833441E8 0.017316019464126704 0.11154605848192486 0.9826839805358734 -0.11154605848192486 0.9826839805358734 -0.11154605848192486 0.017316019464126704 0.11154605848192486
1.1742580688607343E8 0.017719142555977924 0.1131483350721309 0.9822808574440219 -0.1131483350721309 0.9822808574440219 -0.1131483350721309 0.017719142555977924 0.1131483350721309
1.1919792714522783E8 0.018133479973755046 0.11477272018344249 0.9818665200262451 -0.11477272018344249 0.9818665200262451 -0.11477272018344249 0.018133479973755046 0.11477272018344249
1.2099679118665792E8 0.0185593534862112 0.11641945194306857 0.9814406465137888 -0.1164194519430686 0.9814406465137888 -0.1164194519430686 0.0185593534862112 0.11641945194306857
1.2282280261157903E8 0.018997092953156085 0.11808876793491968 0.9810029070468439 -0.11808876793491965 0.9810029070468439 -0.11808876793491965 0.018997092953156085 0.11808876793491968
1.2467637111211549E8 0.01944703648591336 0.1197809050521518 0.9805529635140867 -0.1197809050521518 0.9805529635140867 -0.1197809050521518 0.01944703648591336 0.1197809050521518
1.265579125632208E8 0.01990953060950265 0.12149609934291274 0.9800904693904975 -0.12149609934291275 0.9800904693904975 -0.12149609934291275 0.01990953060950265 0.12149609934291274
1.284678491159853E8 0.02038493042645151 0.12323458584905413 0.9796150695735485 -0.12323458584905413 0.9796150695735485 -0.12323458584905413 0.02038493042645151 0.12323458584905413
1.3040660929235186E8 0.020873599782134867 0.12499659843756769 0.9791264002178652 -0.12499659843756769 0.9791264002178652 -0.12499659843756769 0.020873599782134867 0.12499659843756769
1.3237462808126101E8 0.02137591143153108 0.1267823696244969 0.9786240885684689 -0.1267823696244969 0.9786240885684689 -0.1267823696244969 0.02137591143153108 0.1267823696244969
1.3437234703624701E8 0.02189224720727632 0.12859213039107345 0.9781077527927237 -0.12859213039107348 0.9781077527927237 -0.12859213039107348 0.02189224720727632 0.12859213039107345
1.364002143745067E8 0.022422998188889376 0.13042610999181886 0.9775770018111106 -0.13042610999181886 0.9775770018111106 -0.13042610999181886 0.022422998188889376 0.13042610999181886
1.3845868507746372E8 0.022968564873030627 0.13228453575434854 0.9770314351269694 -0.13228453575434856 0.9770314351269694 -0.13228453575434856 0.022968564873030627 0.13228453575434854
1.405482209928499E8 0.023529357344648727 0.13416763287060834 0.9764706426553513 -0.13416763287060834 0.9764706426553513 -0.13416763287060834 0.023529357344648727 0.13416763287060834
1.426692909383278E8 0.024105795448858994 0.13607562417926825 0.975894204551141 -0.13607562417926822 0.975894204551141 -0.13607562417926822 0.024105795448858994 0.13607562417926825
1.4482237080667645E8 0.024698308963386113 0.13800872993899033 0.975301691036614 -0.13800872993899033 0.975301691036614 -0.13800872993899033 0.024698308963386113 0.13800872993899033
1.4700794367256513E8 0.02530733777139347 0.1399671675922844 0.9746926622286064 -0.1399671675922844 0.9746926622286064 -0.1399671675922844 0.02530733777139347 0.1399671675922844
1.492264999009378E8 0.025933332034508115 0.1419511515196537 0.9740666679654919 -0.14195115151965373 0.9740666679654919 -0.14195115151965373 0.025933332034508115 0.1419511515196537
1.5147853725703382E8 0.026576752365838927 0.14396089278373111 0.973423247634161 -0.14396089278373111 0.973423247634161 -0.14396089278373111 0.026576752365838927 0.14396089278373111
1.5376456101806876E8 0.02723807000277107 0.145996598863095 0.972761929997229 -0.145996598863095 0.972761929997229 -0.145996598863095 0.02723807000277107 0.145996598863095
1.5608508408660066E8 0.027917766979305803 0.1480584733754493 0.9720822330206944 -0.1480584733754493 0.9720822330206944 -0.1480584733754493 0.027917766979305803 0.1480584733754493
1.5844062710560706E8 0.028616336297698972 0.15014671578984395 0.971383663702301 -0.15014671578984395 0.971383663702301 -0.15014671578984395 0.028616336297698972 0.15014671578984395
1.6083171857529896E8 0.029334282099135793 0.15226152112760472 0.9706657179008641 -0.15226152112760472 0.9706657179008641 -0.15226152112760472 0.029334282099135793 0.15226152112760472
1.632588949716973E8 0.030072119833160743 0.15440307965163313 0.9699278801668392 -0.15440307965163313 0.9699278801668392 -0.15440307965163313 0.030072119833160743 0.15440307965163313
1.6572270086699936E8 0.03083037642556388 0.15657157654373166 0.9691696235744359 -0.15657157654373163 0.9691696235744359 -0.15657157654373163 0.03083037642556388 0.15657157654373166
1.6822368905176118E8 0.031609590444403875 0.15876719156959887 0.9683904095555961 -0.1587671915695989 0.9683904095555961 -0.1587671915695989 0.031609590444403875 0.15876719156959887
1.7076242065892437E8 0.03241031226382694 0.1609900987311348 0.967589687736173 -0.1609900987311348 0.967589687736173 -0.1609900987311348 0.03241031226382694 0.1609900987311348
1.7333946528971428E8 0.03323310422531793 0.16324046590568694 0.9667668957746821 -0.16324046590568694 0.9667668957746821 -0.16324046590568694 0.03323310422531793 0.16324046590568694
1.7595540114143828E8 0.034078540795995094 0.16551845447186309 0.9659214592040049 -0.16551845447186309 0.9659214592040049 -0.16551845447186309 0.034078540795995094 0.16551845447186309
1.786108151372127E8 0.03494720872353389 0.16782421892152732 0.9650527912764661 -0.16782421892152732 0.9650527912764661 -0.16782421892152732 0.03494720872353389 0.16782421892152732
1.8130630305764765E8 0.03583970718727721 0.17015790645759235 0.9641602928127228 -0.17015790645759235 0.9641602928127228 -0.17015790645759235 0.03583970718727721 0.17015790645759235
1.840424696745189E8 0.036756647945059326 0.17251965657721377 0.9632433520549406 -0.17251965657721377 0.9632433520549406 -0.17251965657721377 0.036756647945059326 0.17251965657721377
1.8681992888645732E8 0.0376986554752393 0.1749096006399881 0.9623013445247609 -0.17490960063998812 0.9623013445247609 -0.17490960063998812 0.0376986554752393 0.1749096006399881
1.8963930385668582E8 0.03866636711340541 0.17732786142075208 0.9613336328865946 -0.17732786142075208 0.9613336328865946 -0.17732786142075208 0.03866636711340541 0.17732786142075208
1.92501227152835E8 0.039660433183176115 0.17977455264657743 0.9603395668168238 -0.1797745526465774 0.9603395668168238 -0.1797745526465774 0.039660433183176115 0.17977455264657743
1.9540634088886917E8 0.04068151712048509 0.1822497785175552 0.9593184828795149 -0.18224977851755522 0.9593184828795149 -0.18224977851755522 0.04068151712048509 0.1822497785175552
1.983552968691535E8 0.041730295590696666 0.1847536332109608 0.9582697044093033 -0.18475363321096083 0.9582697044093033 -0.18475363321096083 0.041730295590696666 0.1847536332109608
2.0134875673469606E8 0.04280745859785596 0.1872862003683959 0.957192541402144 -0.18728620036839588 0.957192541402144 -0.18728620036839588 0.04280745859785596 0.1872862003683959
2.0438739211159652E8 0.04391370958533172 0.1898475525655031 0.9560862904146682 -0.1898475525655031 0.9560862904146682 -0.1898475525655031 0.04391370958533172 0.1898475525655031
2.074718847617352E8 0.04504976552706324 0.19243775076385886 0.9549502344729367 -0.19243775076385886 0.9549502344729367 -0.19243775076385886 0.04504976552706324 0.19243775076385886
2.106029267357361E8 0.046216357008570796 0.1950568437446528 0.9537836429914291 -0.1950568437446528 0.9537836429914291 -0.1950568437446528 0.046216357008570796 0.1950568437446528
2.1378122052823865E8 0.04741422829683903 0.19770486752377878 0.952585771703161 -0.19770486752377878 0.952585771703161 -0.19770486752377878 0.04741422829683903 0.19770486752377878
2.1700747923551247E8 0.04864413739812486 0.20038184474797135 0.9513558626018751 -0.20038184474797135 0.9513558626018751 -0.20038184474797135 0.04864413739812486 0.20038184474797135
2.2028242671545094E8 0.04990685610268576 0.20308778407164058 0.9500931438973143 -0.20308778407164058 0.9500931438973143 -0.20308778407164058 0.04990685610268576 0.20308778407164058
2.23606797749979E8 0.05120317001536447 0.2058226795140806 0.9487968299846354 -0.2058226795140806 0.9487968299846354 -0.2058226795140806 0.05120317001536447 0.2058226795140806
2.2698133820991236E8 0.05253387857090325 0.20858650979674867 0.9474661214290967 -0.20858650979674867 0.9474661214290967 -0.20858650979674867 0.05253387857090325 0.20858650979674867
2.3040680522230446E8 0.053899795032797855 0.21137923766034403 0.9461002049672022 -0.21137923766034403 0.9461002049672022 -0.21137923766034403 0.053899795032797855 0.21137923766034403
2.338839673403185E8 0.05530174647443487 0.2142008091614477 0.944698253525565 -0.2142008091614477 0.944698253525565 -0.2142008091614477 0.05530174647443487 0.2142008091614477
2.37413604715664E8 0.056740573741188564 0.2170511529485253 0.9432594262588115 -0.2170511529485253 0.9432594262588115 -0.2170511529485253 0.056740573741188564 0.2170511529485253
2.4099650927363476E8 0.05821713139208461 0.21993017951713845 0.9417828686079154 -0.21993017951713845 0.9417828686079154 -0.21993017951713845 0.05821713139208461 0.21993017951713845
2.446334848907889E8 0.059732287619567455 0.22283778044426183 0.9402677123804325 -0.22283778044426183 0.9402677123804325 -0.22283778044426183 0.059732287619567455 0.22283778044426183
2.4832534757531032E8 0.06128692414583651 0.22577382760165948 0.9387130758541635 -0.22577382760165948 0.9387130758541635 -0.22577382760165948 0.06128692414583651 0.22577382760165948
2.5207292565009177E8 0.06288193609414665 0.22873817234833865 0.9371180639058533 -0.22873817234833865 0.9371180639058533 -0.22873817234833865 0.06288193609414665 0.22873817234833865
