!QPL9547
!S-parameters de-embedded to device pins
!Freq range: 0-6GHz 
!VDD = 5V, IDD = 65mA
!PortZ  Port1:50+j0    Port2:50+j0
!Created Thu Jan 23 16:40:10 2020
!T ambient (deg c): 25.00
!2 Port Network Data from SP2.SP block
!freq  magS11  angS11  magS21  angS21  magS12  angS12  magS22  angS22  
# Hz S RI R 50

100000000	5.794645e-001	-1.408821e-001	-2.877069e+001	6.625641e+000	1.525606e-002	2.369791e-003	2.672137e-001	-1.273641e-002
150000000	5.555961e-001	-1.902591e-001	-2.759329e+001	9.165064e+000	1.530945e-002	2.830682e-003	2.693962e-001	-9.745223e-003
200000000	5.244676e-001	-2.353829e-001	-2.586171e+001	1.131881e+001	1.538720e-002	3.457170e-003	2.717748e-001	-9.299188e-003
250000000	4.874839e-001	-2.746632e-001	-2.411888e+001	1.330183e+001	1.547558e-002	4.164626e-003	2.757853e-001	-1.081084e-002
300000000	4.478600e-001	-3.085771e-001	-2.216991e+001	1.479333e+001	1.562317e-002	4.904090e-003	2.793373e-001	-1.554339e-002
350000000	4.062963e-001	-3.343873e-001	-2.014580e+001	1.596599e+001	1.577122e-002	5.671876e-003	2.817183e-001	-1.974920e-002
400000000	3.641673e-001	-3.536156e-001	-1.817040e+001	1.686872e+001	1.602448e-002	6.446470e-003	2.839980e-001	-2.505939e-002
450000000	3.227402e-001	-3.671898e-001	-1.625645e+001	1.745543e+001	1.627137e-002	7.211398e-003	2.847091e-001	-3.069577e-002
500000000	2.817620e-001	-3.756129e-001	-1.444977e+001	1.787379e+001	1.657310e-002	7.969756e-003	2.849997e-001	-3.677597e-002
550000000	2.454644e-001	-3.802175e-001	-1.272589e+001	1.801203e+001	1.690925e-002	8.754854e-003	2.857666e-001	-4.347184e-002
600000000	2.098831e-001	-3.808401e-001	-1.115063e+001	1.805297e+001	1.728493e-002	9.497241e-003	2.853302e-001	-5.056155e-002
650000000	1.773751e-001	-3.784334e-001	-9.672663e+000	1.791833e+001	1.770576e-002	1.023203e-002	2.838227e-001	-5.719443e-002
700000000	1.465634e-001	-3.737007e-001	-8.329624e+000	1.775320e+001	1.815056e-002	1.092121e-002	2.822950e-001	-6.390539e-002
750000000	1.187203e-001	-3.675713e-001	-7.107328e+000	1.748018e+001	1.862659e-002	1.165229e-002	2.806607e-001	-7.068014e-002
800000000	9.250616e-002	-3.599076e-001	-5.987684e+000	1.715227e+001	1.913356e-002	1.229671e-002	2.781437e-001	-7.724489e-002
850000000	6.873296e-002	-3.515273e-001	-4.975955e+000	1.677978e+001	1.968712e-002	1.294934e-002	2.752527e-001	-8.360067e-002
900000000	4.696248e-002	-3.421337e-001	-4.048646e+000	1.638372e+001	2.023318e-002	1.356267e-002	2.721502e-001	-9.004210e-002
950000000	2.711878e-002	-3.319138e-001	-3.202745e+000	1.596202e+001	2.083994e-002	1.418474e-002	2.687681e-001	-9.599446e-002
1000000000	8.505561e-003	-3.212074e-001	-2.429959e+000	1.554110e+001	2.145482e-002	1.475293e-002	2.650706e-001	-1.021131e-001
1050000000	-8.538264e-003	-3.109335e-001	-1.731384e+000	1.510165e+001	2.209480e-002	1.529888e-002	2.612007e-001	-1.080223e-001
1100000000	-2.421976e-002	-3.001538e-001	-1.092856e+000	1.466914e+001	2.275409e-002	1.584015e-002	2.570552e-001	-1.136523e-001
1150000000	-3.859503e-002	-2.891810e-001	-5.090010e-001	1.422897e+001	2.344570e-002	1.631944e-002	2.525338e-001	-1.191717e-001
1200000000	-5.183058e-002	-2.781053e-001	2.407642e-002	1.379608e+001	2.412779e-002	1.678356e-002	2.477660e-001	-1.244608e-001
1250000000	-6.423557e-002	-2.676355e-001	5.075653e-001	1.336867e+001	2.485708e-002	1.725114e-002	2.429888e-001	-1.296902e-001
1300000000	-7.560467e-002	-2.572072e-001	9.519731e-001	1.294906e+001	2.560696e-002	1.767175e-002	2.380520e-001	-1.346047e-001
1350000000	-8.648689e-002	-2.464385e-001	1.358420e+000	1.253874e+001	2.636971e-002	1.805283e-002	2.325329e-001	-1.394631e-001
1400000000	-9.630849e-002	-2.358938e-001	1.732849e+000	1.213460e+001	2.716044e-002	1.842306e-002	2.269664e-001	-1.441803e-001
1450000000	-1.053656e-001	-2.257293e-001	2.077709e+000	1.174176e+001	2.792060e-002	1.873737e-002	2.214089e-001	-1.487436e-001
1500000000	-1.140001e-001	-2.156844e-001	2.389390e+000	1.135471e+001	2.872137e-002	1.902084e-002	2.155499e-001	-1.532812e-001
1550000000	-1.219830e-001	-2.054871e-001	2.681253e+000	1.097900e+001	2.954291e-002	1.929280e-002	2.092055e-001	-1.575166e-001
1600000000	-1.294818e-001	-1.955501e-001	2.947823e+000	1.061069e+001	3.038267e-002	1.953963e-002	2.029140e-001	-1.616718e-001
1650000000	-1.365594e-001	-1.858302e-001	3.191412e+000	1.025315e+001	3.120220e-002	1.975526e-002	1.964857e-001	-1.658134e-001
1700000000	-1.429739e-001	-1.763360e-001	3.416455e+000	9.902818e+000	3.204929e-002	1.991519e-002	1.899475e-001	-1.697846e-001
1750000000	-1.490986e-001	-1.668083e-001	3.624930e+000	9.563865e+000	3.289642e-002	2.007003e-002	1.831333e-001	-1.735036e-001
1800000000	-1.550326e-001	-1.575953e-001	3.814771e+000	9.232984e+000	3.373891e-002	2.019565e-002	1.760779e-001	-1.772485e-001
1850000000	-1.601739e-001	-1.485069e-001	3.992762e+000	8.911793e+000	3.461676e-002	2.028130e-002	1.690516e-001	-1.807623e-001
1900000000	-1.649311e-001	-1.393141e-001	4.152470e+000	8.596392e+000	3.548456e-002	2.032725e-002	1.617017e-001	-1.841012e-001
1950000000	-1.699059e-001	-1.302955e-001	4.302765e+000	8.290436e+000	3.637445e-002	2.035543e-002	1.539189e-001	-1.873600e-001
2000000000	-1.742332e-001	-1.220809e-001	4.440465e+000	7.992387e+000	3.724602e-002	2.033661e-002	1.465801e-001	-1.908826e-001
2050000000	-1.780185e-001	-1.132892e-001	4.567399e+000	7.701913e+000	3.810986e-002	2.029136e-002	1.392593e-001	-1.937267e-001
2100000000	-1.815039e-001	-1.043372e-001	4.683946e+000	7.415646e+000	3.899268e-002	2.018393e-002	1.310703e-001	-1.963559e-001
2150000000	-1.850379e-001	-9.620698e-002	4.791023e+000	7.135371e+000	3.985755e-002	2.006866e-002	1.227469e-001	-1.995040e-001
2200000000	-1.879412e-001	-8.816840e-002	4.886953e+000	6.864219e+000	4.075251e-002	1.996153e-002	1.150895e-001	-2.023373e-001
2250000000	-1.909364e-001	-8.013284e-002	4.974458e+000	6.599476e+000	4.161284e-002	1.979685e-002	1.068969e-001	-2.046626e-001
2300000000	-1.935416e-001	-7.242070e-002	5.056002e+000	6.339457e+000	4.250026e-002	1.959143e-002	9.830200e-002	-2.072889e-001
2350000000	-1.955556e-001	-6.464066e-002	5.129685e+000	6.085798e+000	4.333947e-002	1.935784e-002	9.001048e-002	-2.095529e-001
2400000000	-1.979707e-001	-5.712703e-002	5.193539e+000	5.838125e+000	4.420006e-002	1.911169e-002	8.155413e-002	-2.116108e-001
2450000000	-2.000452e-001	-5.010814e-002	5.253139e+000	5.596182e+000	4.503747e-002	1.882953e-002	7.286241e-002	-2.136711e-001
2500000000	-2.014485e-001	-4.296366e-002	5.305606e+000	5.359254e+000	4.588498e-002	1.854372e-002	6.437165e-002	-2.155872e-001
2550000000	-2.032731e-001	-3.576549e-002	5.352390e+000	5.127943e+000	4.672919e-002	1.821801e-002	5.545075e-002	-2.171605e-001
2600000000	-2.046428e-001	-2.929657e-002	5.392954e+000	4.900964e+000	4.758170e-002	1.784738e-002	4.652917e-002	-2.190235e-001
2650000000	-2.055552e-001	-2.277340e-002	5.427830e+000	4.678559e+000	4.842644e-002	1.744721e-002	3.797586e-002	-2.204596e-001
2700000000	-2.067904e-001	-1.612034e-002	5.458257e+000	4.461208e+000	4.925805e-002	1.703545e-002	2.881517e-002	-2.214001e-001
2750000000	-2.079788e-001	-1.038815e-002	5.483483e+000	4.247087e+000	5.003461e-002	1.657075e-002	1.971541e-002	-2.227355e-001
2800000000	-2.082799e-001	-4.561325e-003	5.502833e+000	4.038930e+000	5.084650e-002	1.612525e-002	1.095684e-002	-2.239627e-001
2850000000	-2.086855e-001	1.423487e-003	5.517236e+000	3.834111e+000	5.161985e-002	1.559639e-002	1.817315e-003	-2.245123e-001
2900000000	-2.137284e-001	-1.701765e-002	5.538904e+000	3.666362e+000	5.258147e-002	1.531912e-002	-1.172902e-002	-2.137374e-001
2950000000	-2.128456e-001	-1.253691e-002	5.548676e+000	3.473547e+000	5.335835e-002	1.476569e-002	-1.891278e-002	-2.148844e-001
3000000000	-2.120939e-001	-7.947786e-003	5.553960e+000	3.284301e+000	5.414100e-002	1.422869e-002	-2.664551e-002	-2.151351e-001
3050000000	-2.107361e-001	-3.558057e-003	5.557099e+000	3.097106e+000	5.492491e-002	1.366566e-002	-3.506517e-002	-2.159316e-001
3100000000	-2.086084e-001	8.183785e-004	5.554084e+000	2.913742e+000	5.565644e-002	1.304544e-002	-4.297745e-002	-2.166919e-001
3150000000	-2.073890e-001	5.067241e-003	5.548440e+000	2.735250e+000	5.639347e-002	1.239808e-002	-5.084132e-002	-2.166276e-001
3200000000	-2.061729e-001	8.696075e-003	5.540412e+000	2.559317e+000	5.712844e-002	1.174562e-002	-5.918010e-002	-2.166848e-001
3250000000	-2.037809e-001	1.232418e-002	5.528414e+000	2.386384e+000	5.785637e-002	1.106968e-002	-6.707796e-002	-2.168276e-001
3300000000	-2.018980e-001	1.625391e-002	5.514838e+000	2.217591e+000	5.855082e-002	1.042605e-002	-7.512410e-002	-2.161318e-001
3350000000	-2.004289e-001	1.938012e-002	5.495751e+000	2.051368e+000	5.925170e-002	9.685007e-003	-8.368753e-002	-2.156882e-001
3400000000	-1.978680e-001	2.222702e-002	5.475302e+000	1.888856e+000	5.995608e-002	8.936938e-003	-9.179715e-002	-2.148327e-001
3450000000	-1.957693e-001	2.581206e-002	5.452044e+000	1.728629e+000	6.059978e-002	8.157347e-003	-9.987519e-002	-2.134002e-001
3500000000	-1.942272e-001	2.841551e-002	5.425725e+000	1.571599e+000	6.122211e-002	7.379323e-003	-1.083671e-001	-2.120542e-001
3550000000	-1.916699e-001	3.101110e-002	5.396984e+000	1.417961e+000	6.187233e-002	6.548182e-003	-1.163922e-001	-2.106415e-001
3600000000	-1.888120e-001	3.431835e-002	5.364667e+000	1.267343e+000	6.245042e-002	5.717253e-003	-1.246932e-001	-2.083006e-001
3650000000	-1.866538e-001	3.685662e-002	5.331132e+000	1.119840e+000	6.301864e-002	4.850029e-003	-1.333343e-001	-2.062459e-001
3700000000	-1.842533e-001	3.917568e-002	5.295105e+000	9.744238e-001	6.359173e-002	3.976999e-003	-1.414171e-001	-2.041269e-001
3750000000	-1.813715e-001	4.226409e-002	5.257115e+000	8.324115e-001	6.414131e-002	3.107356e-003	-1.494358e-001	-2.011031e-001
3800000000	-1.785672e-001	4.482606e-002	5.215688e+000	6.933151e-001	6.469159e-002	2.188838e-003	-1.579339e-001	-1.983071e-001
3850000000	-1.752562e-001	4.694876e-002	5.174056e+000	5.570302e-001	6.516700e-002	1.241907e-003	-1.658449e-001	-1.956457e-001
3900000000	-1.726196e-001	4.958927e-002	5.129987e+000	4.219543e-001	6.560858e-002	2.931167e-004	-1.738449e-001	-1.918510e-001
3950000000	-1.703602e-001	5.192198e-002	5.083273e+000	2.895991e-001	6.609974e-002	-6.407978e-004	-1.824125e-001	-1.879201e-001
4000000000	-1.668930e-001	5.383266e-002	5.035456e+000	1.584954e-001	6.650000e-002	-1.635322e-003	-1.903676e-001	-1.838929e-001
4050000000	-1.639950e-001	5.651690e-002	4.983421e+000	3.052512e-002	6.690457e-002	-2.576731e-003	-1.983445e-001	-1.791427e-001
4100000000	-1.615842e-001	5.880337e-002	4.930154e+000	-9.510656e-002	6.733392e-002	-3.576849e-003	-2.067923e-001	-1.744965e-001
4150000000	-1.582960e-001	6.077065e-002	4.874722e+000	-2.184025e-001	6.771971e-002	-4.613934e-003	-2.147034e-001	-1.696081e-001
4200000000	-1.553021e-001	6.343686e-002	4.816325e+000	-3.394097e-001	6.807038e-002	-5.638640e-003	-2.222335e-001	-1.634278e-001
4250000000	-1.528997e-001	6.560106e-002	4.756270e+000	-4.578665e-001	6.840647e-002	-6.706700e-003	-2.300431e-001	-1.573321e-001
4300000000	-1.495667e-001	6.745809e-002	4.693419e+000	-5.727003e-001	6.868021e-002	-7.785807e-003	-2.375481e-001	-1.519204e-001
4350000000	-1.457430e-001	7.037842e-002	4.629301e+000	-6.854600e-001	6.897452e-002	-8.833421e-003	-2.450453e-001	-1.454676e-001
4400000000	-1.431792e-001	7.283176e-002	4.561985e+000	-7.963476e-001	6.923419e-002	-1.000576e-002	-2.527292e-001	-1.385486e-001
4450000000	-1.404240e-001	7.454544e-002	4.493365e+000	-9.040687e-001	6.941469e-002	-1.112271e-002	-2.594553e-001	-1.315223e-001
4500000000	-1.372280e-001	7.700220e-002	4.423234e+000	-1.009637e+000	6.961628e-002	-1.226584e-002	-2.660279e-001	-1.237162e-001
4550000000	-1.342886e-001	7.928088e-002	4.350318e+000	-1.112943e+000	6.978112e-002	-1.339114e-002	-2.731888e-001	-1.161304e-001
4600000000	-1.314163e-001	8.098693e-002	4.276357e+000	-1.213573e+000	6.989424e-002	-1.456747e-002	-2.796267e-001	-1.083125e-001
4650000000	-1.289624e-001	8.353933e-002	4.198953e+000	-1.310808e+000	6.993038e-002	-1.572412e-002	-2.857985e-001	-9.907989e-002
4700000000	-1.267465e-001	8.544747e-002	4.120669e+000	-1.405017e+000	6.999841e-002	-1.687366e-002	-2.925705e-001	-9.002934e-002
4750000000	-1.238284e-001	8.705997e-002	4.040136e+000	-1.497498e+000	7.005358e-002	-1.805467e-002	-2.986149e-001	-8.125691e-002
4800000000	-1.208704e-001	8.929516e-002	3.958506e+000	-1.586941e+000	7.002460e-002	-1.929605e-002	-3.039218e-001	-7.163628e-002
4850000000	-1.189594e-001	9.129214e-002	3.874935e+000	-1.673354e+000	6.996818e-002	-2.044931e-002	-3.099069e-001	-6.144147e-002
4900000000	-1.167302e-001	9.300381e-002	3.788909e+000	-1.756395e+000	6.989795e-002	-2.166080e-002	-3.151270e-001	-5.121672e-002
4950000000	-1.140742e-001	9.517076e-002	3.702704e+000	-1.836779e+000	6.978332e-002	-2.287019e-002	-3.197304e-001	-4.034196e-002
5000000000	-1.126320e-001	9.725851e-002	3.613698e+000	-1.914660e+000	6.961542e-002	-2.406835e-002	-3.249718e-001	-2.922198e-002
5050000000	-1.104134e-001	9.875006e-002	3.523641e+000	-1.989827e+000	6.942000e-002	-2.527140e-002	-3.294693e-001	-1.837269e-002
5100000000	-1.081223e-001	1.010648e-001	3.431695e+000	-2.060867e+000	6.922946e-002	-2.648690e-002	-3.332179e-001	-6.752119e-003
5150000000	-1.065402e-001	1.033119e-001	3.339135e+000	-2.128448e+000	6.894753e-002	-2.770286e-002	-3.369333e-001	4.971661e-003
5200000000	-1.051892e-001	1.053221e-001	3.245232e+000	-2.193102e+000	6.862933e-002	-2.890001e-002	-3.402357e-001	1.683078e-002
5250000000	-1.033425e-001	1.074927e-001	3.150112e+000	-2.255061e+000	6.829580e-002	-3.008455e-002	-3.432137e-001	2.951300e-002
5300000000	-1.016920e-001	1.094369e-001	3.054935e+000	-2.313997e+000	6.795474e-002	-3.129022e-002	-3.461712e-001	4.222104e-002
5350000000	-1.000685e-001	1.113909e-001	2.957574e+000	-2.369472e+000	6.753904e-002	-3.244787e-002	-3.483262e-001	5.488092e-002
5400000000	-9.896355e-002	1.139177e-001	2.859878e+000	-2.420790e+000	6.708088e-002	-3.365252e-002	-3.502114e-001	6.788973e-002
5450000000	-9.827631e-002	1.159723e-001	2.760734e+000	-2.468611e+000	6.655418e-002	-3.476566e-002	-3.522384e-001	8.082123e-002
5500000000	-9.739485e-002	1.175441e-001	2.660924e+000	-2.514640e+000	6.603166e-002	-3.594564e-002	-3.529637e-001	9.367053e-002
5550000000	-9.638281e-002	1.201628e-001	2.561051e+000	-2.555349e+000	6.544557e-002	-3.708444e-002	-3.530496e-001	1.070133e-001
5600000000	-9.609772e-002	1.228331e-001	2.461766e+000	-2.591964e+000	6.486082e-002	-3.814046e-002	-3.537271e-001	1.200581e-001
5650000000	-9.559068e-002	1.250013e-001	2.361939e+000	-2.625994e+000	6.424626e-002	-3.925279e-002	-3.535889e-001	1.329465e-001
5700000000	-9.509234e-002	1.276732e-001	2.261622e+000	-2.656669e+000	6.352847e-002	-4.035441e-002	-3.529496e-001	1.465588e-001
5750000000	-9.540661e-002	1.303472e-001	2.161632e+000	-2.682861e+000	6.284708e-002	-4.133802e-002	-3.525872e-001	1.595645e-001
5800000000	-9.552416e-002	1.331944e-001	2.062368e+000	-2.705617e+000	6.212375e-002	-4.232532e-002	-3.516253e-001	1.715623e-001
5850000000	-9.545252e-002	1.362135e-001	1.963855e+000	-2.725051e+000	6.133575e-002	-4.331671e-002	-3.501252e-001	1.841276e-001
5900000000	-9.611655e-002	1.393927e-001	1.866313e+000	-2.741366e+000	6.056239e-002	-4.423375e-002	-3.487405e-001	1.969861e-001
5950000000	-9.680289e-002	1.425369e-001	1.769365e+000	-2.753550e+000	5.977138e-002	-4.514906e-002	-3.470604e-001	2.089225e-001
6000000000	-9.733043e-002	1.456279e-001	1.672766e+000	-2.763445e+000	5.890613e-002	-4.602896e-002	-3.450210e-001	2.209706e-001
! Noise Parameters
 600000000   0.16364  0.19198   12.5779  0.04107
 700000000   0.14284  0.20310   13.8813  0.03761
 800000000   0.19513  0.21111   20.8942  0.03935
 900000000   0.21721  0.18119   20.3294  0.03801
 1000000000   0.23277  0.16670   24.7093  0.03978
 1100000000   0.18351  0.16325   32.7883  0.04012
 1200000000   0.20723  0.13321   22.6964  0.04007
 1300000000   0.19711  0.13720   28.8893  0.04064
 1400000000   0.19219  0.12024   46.6190  0.03955
 1600000000  0.18220  0.09669   57.0344  0.03655
 1700000000   0.15331  0.10282   82.4906  0.03394
 1800000000   0.15289  0.11281   79.7973  0.03454
 1900000000   0.13542  0.12358   84.9391  0.03563
 2000000000   0.13948  0.08296  103.2000  0.03493
 2100000000   0.14487  0.09418  116.7491  0.03340
 2200000000   0.17335  0.11641  115.7463  0.03312
 2300000000   0.19440  0.10914  152.7675  0.03075
 2400000000   0.24165  0.11321  159.3422  0.03164
 2500000000   0.23802  0.10995  156.7371  0.03337
 2600000000   0.23763  0.12091  175.5093  0.03365
 2700000000   0.30009  0.13247  157.8494  0.03310
 2800000000   0.28662  0.16918  179.4215  0.03037
 2900000000   0.29192  0.16875 -175.5721  0.03150
 3100000000   0.32657  0.19741 -169.7633  0.03186
 3200000000   0.36609  0.18401 -170.3146  0.03673
 3300000000   0.36495  0.17941 -177.0052  0.03750
 3400000000   0.38398  0.19884 -163.5268  0.03552
 3600000000   0.40038  0.19366 -157.3194  0.04095
 3700000000   0.41675  0.27659 -157.0508  0.03129


