!Mini-Circuits Laboratory
!S-Parameters
!Model: PMA2-33LN+
!Run / Lot / Date Code: CE7590 / NA / 1539
!Fixture: TB-736+
!Network Analyzer: PNA-X N5244A - 423 4 ports;  Serial number: 76276
!Date: 6/16/2020 at 4:09:13 PM
!S/N: Unit# 2 (Unit2)
!Tested with: 
!
# Hz  S  dB  R  50
!Frequency    S11 dB        S11 Deg       S21 dB        S21 Deg       S12 dB        S12 Deg       S22 dB        S22 Deg       
10000000      -0.0949119    -36.5757900   -22.9700100   2.0927350     -74.1255500   -110.7292000  -0.3227803    -36.5244400   
15000000      -0.1825268    -53.2435200   -15.2486600   -0.1255292    -80.5319700   -99.7196600   -0.6277614    -52.8273000   
20000000      -0.3404476    -69.4945600   -9.6640340    -5.8480420    -75.5975800   -121.7956000  -1.0352400    -68.3927600   
25000000      -0.4808361    -83.9684000   -5.4850850    -11.6571800   -70.8946300   -136.0709000  -1.4446800    -82.3011000   
30000000      -0.5958299    -96.7323500   -2.1115690    -17.1038000   -67.1543000   -146.1329000  -1.8141950    -94.3068200   
35000000      -0.7147616    -108.4121000  0.6515464     -22.8152600   -64.3915000   -155.1815000  -2.1696320    -105.1490000  
40000000      -0.8218409    -119.1454000  2.9460310     -28.5549000   -61.3647300   -160.0565000  -2.5027060    -115.0093000  
45000000      -0.9433022    -129.0297000  4.8851380     -34.0087200   -58.9373600   -166.0997000  -2.7985430    -123.8545000  
50000000      -1.0041600    -138.0201000  6.5384790     -38.8664400   -58.2584000   -179.3458000  -3.0634830    -131.8270000  
55000000      -1.1214580    -146.0501000  8.0772230     -43.6480900   -55.4572200   -175.1147000  -3.3077370    -139.1278000  
60000000      -1.1958370    -153.6463000  9.4309340     -48.1173600   -53.7153900   -179.7842000  -3.5350120    -145.8258000  
65000000      -1.2845780    -160.7387000  10.6530500    -52.4750100   -52.2855900   177.4431000   -3.7462110    -152.0115000  
70000000      -1.3685540    -167.4493000  11.7601500    -56.6769900   -51.1093400   174.1183000   -3.9452410    -157.7549000  
75000000      -1.4405090    -173.7188000  12.7803800    -60.9044400   -49.9840600   171.0197000   -4.1346950    -163.1137000  
80000000      -1.5198820    -179.7326000  13.7035900    -64.9891100   -48.8701200   167.7994000   -4.3163520    -168.1553000  
85000000      -1.5951150    174.5406000   14.5494600    -68.9506700   -47.8286400   165.0947000   -4.4950030    -172.8974000  
90000000      -1.6698310    169.0213000   15.3370300    -72.8246700   -46.9209200   162.9722000   -4.6685600    -177.3847000  
95000000      -1.7564990    163.7655000   16.0644300    -76.5997500   -46.0147800   160.2097000   -4.8404550    178.3472000   
100000000     -1.8436360    158.6350000   16.7503100    -80.2768800   -45.1625500   158.0767000   -5.0116420    174.2783000   
105000000     -1.9237520    153.7097000   17.3877000    -83.9598500   -44.3909200   155.7509000   -5.1837010    170.3817000   
110000000     -2.0203970    148.8221000   17.9750100    -87.6155900   -43.6403300   153.4856000   -5.3556880    166.6462000   
115000000     -2.1028620    144.1309000   18.5316000    -91.2356800   -42.9509700   151.3377000   -5.5299220    163.0574000   
120000000     -2.2039440    139.5511000   19.0369700    -94.7873400   -42.2530700   149.3145000   -5.7064660    159.6026000   
125000000     -2.3067760    135.0148000   19.5083800    -98.3015100   -41.6168200   147.3525000   -5.8838580    156.2698000   
130000000     -2.4059840    130.5922000   19.9562800    -101.7150000  -41.0106800   145.3719000   -6.0657640    153.0511000   
135000000     -2.5254020    126.2260000   20.3688500    -105.1180000  -40.4304700   143.4030000   -6.2498440    149.9467000   
140000000     -2.6500930    121.9046000   20.7564400    -108.4962000  -39.8492600   141.5515000   -6.4371800    146.9394000   
145000000     -2.7621220    117.7257000   21.1208800    -111.7782000  -39.3310200   139.5754000   -6.6292430    144.0291000   
150000000     -2.8901260    113.5909000   21.4613000    -115.0304000  -38.8427400   137.8633000   -6.8294390    141.2079000   
155000000     -3.0174370    109.4663000   21.7683200    -118.3331000  -38.3493300   135.9628000   -7.0252820    138.4574000   
160000000     -3.1471190    105.4417000   22.0606900    -121.5210000  -37.8680100   134.2545000   -7.2310210    135.7870000   
165000000     -3.2893490    101.3891000   22.3282100    -124.6825000  -37.4497200   132.3639000   -7.4399410    133.1959000   
170000000     -3.4373130    97.4394100    22.5718500    -127.7963000  -36.9964000   130.6744000   -7.6533960    130.6726000   
175000000     -3.5799620    93.5534200    22.8002000    -130.8323000  -36.6006100   128.9733000   -7.8729600    128.2106000   
180000000     -3.7324130    89.7038900    23.0135600    -133.8065000  -36.2036100   127.2202000   -8.0974920    125.8344000   
185000000     -3.8948170    85.9174300    23.2116800    -136.7808000  -35.8257400   125.5746000   -8.3235000    123.5135000   
190000000     -4.0549980    82.1563000    23.3920800    -139.6984000  -35.4615800   123.9253000   -8.5560270    121.2498000   
195000000     -4.2232410    78.4163100    23.5548600    -142.5851000  -35.1243000   122.2719000   -8.7902540    119.0551000   
200000000     -4.3926330    74.7654700    23.7011700    -145.4186000  -34.7967700   120.6686000   -9.0302780    116.9003000   
205000000     -4.5617660    71.0780600    23.8359900    -148.1940000  -34.4668800   119.1429000   -9.2735890    114.8513000   
210000000     -4.7267930    67.4119300    23.9600600    -150.9660000  -34.1595200   117.5899000   -9.5182120    112.8640000   
215000000     -4.9033300    63.8395500    24.0722100    -153.6110000  -33.8644300   116.0110000   -9.7695290    110.9027000   
220000000     -5.0856730    60.2788400    24.1741700    -156.2686000  -33.5831200   114.5366000   -10.0211300   109.0362000   
225000000     -5.2736010    56.8463600    24.2603800    -158.8229000  -33.3161200   113.1457000   -10.2788100   107.1463000   
230000000     -5.4472330    53.2797900    24.3363800    -161.4065000  -33.0542600   111.6336000   -10.5313000   105.4230000   
235000000     -5.6235550    49.8670300    24.4113100    -163.9085000  -32.7981300   110.2208000   -10.7980600   103.7334000   
240000000     -5.8017550    46.4784100    24.4695100    -166.3976000  -32.5588200   108.8031000   -11.0567900   102.1162000   
245000000     -5.9932020    43.0720000    24.5210700    -168.7961000  -32.3256000   107.4511000   -11.3133900   100.4930000   
250000000     -6.1646700    39.7854000    24.5681400    -171.2012000  -32.0952100   106.1426000   -11.5772500   99.0222700    
255000000     -6.3578810    36.3669800    24.5936800    -173.4944000  -31.8832500   104.7994000   -11.8450300   97.4880400    
260000000     -6.5427530    33.1415400    24.6262400    -175.7956000  -31.6758300   103.4972000   -12.1185200   96.0758700    
265000000     -6.7306310    29.7975300    24.6479200    -177.9990000  -31.4758400   102.1989000   -12.3762500   94.7018100    
270000000     -6.9140240    26.5271800    24.6681200    179.8120000   -31.2820000   100.9733000   -12.6422800   93.4599500    
275000000     -7.1017530    23.4057600    24.6810700    177.6843000   -31.0837600   99.8102100    -12.9282600   92.2255800    
280000000     -7.2691220    20.2910400    24.6857100    175.5688000   -30.9039500   98.5899300    -13.2003500   90.9874600    
285000000     -7.4364860    17.0913000    24.6830100    173.4814000   -30.7247800   97.4129600    -13.4704700   89.8275900    
290000000     -7.6190990    13.9928500    24.6770000    171.4660000   -30.5521900   96.2620600    -13.7462400   88.7105200    
295000000     -7.7875090    10.9386600    24.6678900    169.4856000   -30.3776600   95.1452600    -14.0339400   87.7153300    
300000000     -7.9567590    7.8084200     24.6498400    167.5403000   -30.2225100   94.0563000    -14.2947900   86.6032700    
305000000     -8.1269970    4.7317400     24.6366700    165.6250000   -30.0607000   92.9576600    -14.5770900   85.6433000    
310000000     -8.2953320    1.8132070     24.6168300    163.7329000   -29.9059500   91.8767600    -14.8619200   84.8265000    
315000000     -8.4670890    -1.1812210    24.5941600    161.9168000   -29.7647300   90.8375500    -15.1249200   83.8847800    
320000000     -8.6241760    -4.1153720    24.5617600    160.0916000   -29.6170200   89.8288700    -15.4063900   82.9820100    
325000000     -8.7740980    -6.8922860    24.5383200    158.3147000   -29.4803000   88.8391300    -15.6694900   82.2486400    
330000000     -8.9304410    -9.7778550    24.5059600    156.5557000   -29.3416200   87.8442200    -15.9410900   81.5195900    
335000000     -9.0693200    -12.7368300   24.4662800    154.8627000   -29.2059500   86.9135300    -16.2374100   80.7148400    
340000000     -9.2019640    -15.5549000   24.4296700    153.1853000   -29.0753600   85.9343200    -16.4877500   80.0649900    
345000000     -9.3485560    -18.2990500   24.3920300    151.5392000   -28.9470900   85.0486700    -16.7839000   79.5489300    
350000000     -9.4842400    -21.2128000   24.3489300    149.9500000   -28.8280500   84.1308300    -17.0461300   78.6932500    
355000000     -9.6205620    -23.9470100   24.3073200    148.3138000   -28.6994400   83.2011900    -17.3168700   78.3907100    
360000000     -9.7678450    -26.6814000   24.2634700    146.7755000   -28.5830900   82.3150500    -17.5788700   77.8323400    
365000000     -9.8692400    -29.3807700   24.2152100    145.2384000   -28.4671400   81.4602700    -17.8483800   77.4485100    
370000000     -10.0031100   -31.9682500   24.1684000    143.6987000   -28.3517700   80.5967700    -18.1240200   77.1456800    
375000000     -10.0977600   -34.6807800   24.1169700    142.2087000   -28.2363700   79.7503700    -18.3985800   76.9970600    
380000000     -10.2115900   -37.4583900   24.0692800    140.7608000   -28.1250900   78.9119700    -18.6638100   76.5598200    
385000000     -10.3214700   -40.0837100   24.0169900    139.3285000   -28.0154000   78.0883000    -18.9153300   76.3513700    
390000000     -10.4397900   -42.5700000   23.9652500    137.9052000   -27.9121000   77.2885600    -19.1850800   76.0733600    
395000000     -10.5269500   -45.2023600   23.9093400    136.5157000   -27.8059300   76.5141000    -19.4424500   75.8543100    
400000000     -10.6151500   -47.6885000   23.8594100    135.1509000   -27.7019700   75.7330200    -19.7487200   75.9023500    
405000000     -10.7193600   -50.0153200   23.8043900    133.7970000   -27.6004300   74.9407800    -19.9589300   75.7675500    
410000000     -10.8037700   -52.5687200   23.7485600    132.4645000   -27.5049400   74.1645900    -20.2342600   75.8301200    
415000000     -10.8713500   -55.0267800   23.6924100    131.1561000   -27.4033800   73.4239300    -20.5155700   75.7353700    
420000000     -10.9459900   -57.4659600   23.6353100    129.8578000   -27.3078600   72.6642000    -20.7609600   75.7567700    
425000000     -11.0152100   -59.8753900   23.5777000    128.5835000   -27.2149200   71.9592100    -21.0000200   76.0668000    
430000000     -11.1199000   -62.1631700   23.5255200    127.3528000   -27.1230100   71.2089200    -21.2762400   76.0883200    
435000000     -11.1594400   -64.3674300   23.4627000    126.0744000   -27.0283300   70.5347700    -21.5419700   76.1925100    
440000000     -11.2362800   -66.6208600   23.4049900    124.8746000   -26.9374700   69.8105100    -21.8076800   76.2345700    
445000000     -11.2909100   -68.6034500   23.3426800    123.6598000   -26.8487100   69.1124900    -22.0203700   76.5593700    
450000000     -11.3674800   -71.1310300   23.2882400    122.4800000   -26.7648100   68.4688900    -22.2350100   76.4958300    
455000000     -11.4100800   -73.2370100   23.2268700    121.3216000   -26.6781900   67.7492300    -22.5142200   77.0659600    
460000000     -11.4484100   -75.4467500   23.1680500    120.1584000   -26.5902700   67.0670500    -22.7438600   76.9779800    
465000000     -11.4974300   -77.4305800   23.1103700    119.0124000   -26.5038200   66.3945700    -22.9961000   77.5453600    
470000000     -11.5683700   -79.6552200   23.0495300    117.8930000   -26.4216900   65.7502600    -23.2540600   78.0430200    
475000000     -11.6159700   -81.6661700   22.9915900    116.7842000   -26.3411800   65.0909500    -23.4467800   78.4907500    
480000000     -11.6511000   -83.6762500   22.9308000    115.6808000   -26.2607300   64.4615900    -23.6230200   79.0833900    
485000000     -11.6899800   -85.6344800   22.8687600    114.5869000   -26.1792700   63.8185000    -23.8574500   79.4083500    
490000000     -11.7270500   -87.5529600   22.8077600    113.5156000   -26.0976900   63.1636400    -24.0953600   80.5325800    
495000000     -11.7490800   -89.4697100   22.7492300    112.4418000   -26.0200600   62.5541300    -24.2818900   81.1396300    
500000000     -11.7765400   -91.4014900   22.6862800    111.3903000   -25.9457500   61.9151900    -24.4657500   81.8057700    
505000000     -11.8498300   -93.3544400   22.6310700    110.3608000   -25.8699000   61.2776800    -24.7075500   82.5058100    
510000000     -11.8557200   -95.2671400   22.5696900    109.3251000   -25.7923100   60.6845000    -24.8985300   83.2374600    
515000000     -11.8992900   -97.2293000   22.5100700    108.3208000   -25.7194800   60.0545700    -25.0694600   84.2400100    
520000000     -11.9392100   -98.8626500   22.4483900    107.3099000   -25.6449300   59.4708500    -25.2424400   84.9337500    
525000000     -11.9291400   -100.7860000  22.3868200    106.3268000   -25.5716200   58.8783800    -25.3842500   86.2032600    
530000000     -11.9284500   -102.3355000  22.3261300    105.3375000   -25.4973200   58.3098600    -25.5169100   86.4843900    
535000000     -11.9627700   -104.2161000  22.2660700    104.3678000   -25.4264200   57.7028600    -25.6743400   87.9511000    
540000000     -11.9838500   -105.7647000  22.2057000    103.3950000   -25.3541300   57.1257300    -25.8561200   88.5956000    
545000000     -11.9861800   -107.7614000  22.1434100    102.4537000   -25.2845300   56.5437800    -25.9323000   89.8167100    
550000000     -12.0298000   -109.3199000  22.0866100    101.5198000   -25.2172200   55.9732100    -26.0175800   90.9848600    
555000000     -12.0247000   -111.0574000  22.0275200    100.5809000   -25.1465200   55.3850400    -26.2108600   91.7370800    
560000000     -12.0725100   -112.7211000  21.9693500    99.6566600    -25.0808900   54.8077400    -26.3342600   92.8732500    
565000000     -12.0718500   -114.2893000  21.9091100    98.7356100    -25.0125300   54.2327600    -26.4619600   94.1723600    
570000000     -12.0969300   -115.7172000  21.8480900    97.8254900    -24.9463800   53.6973400    -26.4965900   95.3766600    
575000000     -12.0935200   -117.0894000  21.7886900    96.9235000    -24.8809400   53.1298800    -26.6570700   96.5845000    
580000000     -12.0814100   -118.6358000  21.7300900    96.0400900    -24.8151900   52.5849400    -26.7064100   97.4339400    
585000000     -12.1163800   -120.0460000  21.6709200    95.1490700    -24.7503900   52.0388400    -26.7601600   98.3435700    
590000000     -12.0990600   -121.6039000  21.6118600    94.2710200    -24.6855700   51.4989100    -26.8018600   99.7236300    
595000000     -12.1155300   -123.0525000  21.5519800    93.4065200    -24.6209600   50.9583400    -26.8795200   100.5016000   
600000000     -12.1122900   -124.7303000  21.4948100    92.5579600    -24.5590300   50.4135600    -26.9821900   101.5447000   
605000000     -12.1386300   -125.9650000  21.4358700    91.6947100    -24.4983600   49.8797100    -27.0184100   102.7935000   
610000000     -12.1328300   -127.3219000  21.3796700    90.8425900    -24.4334400   49.3356000    -27.1185500   103.8289000   
615000000     -12.1337200   -128.6536000  21.3220000    90.0017400    -24.3712900   48.8122700    -27.1263700   105.0198000   
620000000     -12.1335000   -129.8607000  21.2635500    89.1781100    -24.3094900   48.2867600    -27.0917200   105.3033000   
625000000     -12.1472100   -131.2733000  21.2080600    88.3605300    -24.2486800   47.7518100    -27.1043600   106.4305000   
630000000     -12.1611400   -132.5322000  21.1501500    87.5024300    -24.1899800   47.2434500    -27.0852100   107.9029000   
635000000     -12.1587300   -133.9767000  21.0912500    86.7049300    -24.1333600   46.7070600    -27.0927600   109.0465000   
640000000     -12.1638200   -135.1016000  21.0381300    85.9111300    -24.0721000   46.2173300    -27.0384700   108.9334000   
645000000     -12.1886600   -136.3787000  20.9820800    85.1147500    -24.0155200   45.6934300    -26.9905200   109.9441000   
650000000     -12.1918700   -137.7781000  20.9228300    84.3166900    -23.9563000   45.1781800    -26.9716600   110.9881000   
655000000     -12.1690800   -139.0303000  20.8660500    83.5307600    -23.8977500   44.6747100    -26.9968700   111.4730000   
660000000     -12.1750500   -140.1086000  20.8135600    82.7426000    -23.8402100   44.1760200    -26.9728900   112.5970000   
665000000     -12.1839100   -141.2671000  20.7560700    81.9696600    -23.7835400   43.6650800    -26.8936200   112.6039000   
670000000     -12.1600000   -142.5206000  20.7014500    81.2020300    -23.7236900   43.1520900    -26.9409000   113.6904000   
675000000     -12.1704900   -143.7734000  20.6474400    80.4195600    -23.6716900   42.6590700    -26.8379600   113.9635000   
680000000     -12.1746300   -145.0459000  20.5929100    79.6697400    -23.6176800   42.1622000    -26.7583600   115.1085000   
685000000     -12.1552700   -146.1982000  20.5367000    78.8908700    -23.5589100   41.6470100    -26.7519900   116.2071000   
690000000     -12.1926300   -147.3140000  20.4784100    78.1588700    -23.5045900   41.1593700    -26.6349500   116.5523000   
695000000     -12.1588100   -148.5507000  20.4254200    77.4044100    -23.4486800   40.6693300    -26.5565000   117.0332000   
700000000     -12.1880700   -149.5375000  20.3695200    76.6760100    -23.3947600   40.1835400    -26.5150800   117.5103000   
705000000     -12.1826900   -150.4584000  20.3203100    75.9299400    -23.3429100   39.7039800    -26.4694800   117.4718000   
710000000     -12.1728500   -151.7830000  20.2673500    75.2119200    -23.2896800   39.2219400    -26.3814300   117.8541000   
715000000     -12.1576100   -152.9193000  20.2101200    74.4771600    -23.2377500   38.7466900    -26.3150800   118.6300000   
720000000     -12.1669900   -153.6905000  20.1579100    73.7613000    -23.1851300   38.2493100    -26.2795700   118.6172000   
725000000     -12.1717400   -154.9423000  20.1071200    73.0336000    -23.1315900   37.7685400    -26.2604900   119.2127000   
730000000     -12.1665700   -155.9854000  20.0530300    72.3268400    -23.0815300   37.2838900    -26.1929800   119.4883000   
735000000     -12.1639100   -156.9826000  20.0018200    71.6216500    -23.0315200   36.8406900    -26.1330300   119.6049000   
740000000     -12.1838300   -157.9135000  19.9511800    70.9118900    -22.9816100   36.3335100    -26.0820400   120.0349000   
745000000     -12.1589500   -158.8727000  19.8969600    70.2247600    -22.9278300   35.8723100    -25.9995600   120.0007000   
750000000     -12.1627100   -160.1983000  19.8443000    69.5119300    -22.8771400   35.3897900    -25.9304900   120.9857000   
755000000     -12.1445200   -160.8332000  19.7930500    68.8193100    -22.8260800   34.9251300    -25.8460600   120.3746000   
760000000     -12.1543100   -161.9208000  19.7403400    68.1273800    -22.7785200   34.4324000    -25.7980100   121.0836000   
765000000     -12.1571000   -162.8549000  19.6909700    67.4522200    -22.7282600   33.9803700    -25.6932000   120.7915000   
770000000     -12.1532100   -163.8847000  19.6413900    66.7605000    -22.6786900   33.5160800    -25.6527000   120.7641000   
775000000     -12.1661900   -164.7249000  19.5899500    66.0825300    -22.6289200   33.0639400    -25.5959900   120.8262000   
