!Mini-Circuits Laboratory
!S-Parameters
!Model: PMA2-33LN+
!Run / Lot / Date Code: CE7590 / NA / 1539
!Fixture: TB-736+
!Network Analyzer: PNA-X N5244A - 423 4 ports;  Serial number: 76276
!Date: 6/16/2020 at 4:08:18 PM
!S/N: Unit# 1 (Unit1)
!Tested with: 
!
# Hz  S  dB  R  50
!Frequency    S11 dB        S11 Deg       S21 dB        S21 Deg       S12 dB        S12 Deg       S22 dB        S22 Deg       
10000000      -0.1125194    -35.6694500   -23.6467300   3.7567420     -76.4523200   41.1446900    -0.3139753    -36.0707600   
15000000      -0.1743895    -52.0776800   -15.6605900   1.2770090     -82.2032700   -85.9070400   -0.6112645    -52.2232200   
20000000      -0.3278845    -68.0538300   -9.9120250    -4.3982220    -76.9710800   -124.6446000  -1.0117090    -67.6591300   
25000000      -0.4732794    -82.3874100   -5.6122830    -10.5064700   -71.8364700   -131.3256000  -1.4109090    -81.4628900   
30000000      -0.5820059    -95.0701800   -2.2782250    -16.3739400   -66.9898000   -147.6043000  -1.7807620    -93.4195600   
35000000      -0.7050639    -106.7088000  0.4428779     -21.9431600   -64.2658400   -152.9627000  -2.1344560    -104.2225000  
40000000      -0.8182852    -117.4385000  2.7460170     -27.3959800   -61.2159800   -158.5286000  -2.4666230    -114.0598000  
45000000      -0.9285005    -127.3569000  4.7291630     -32.6430700   -59.0131500   -165.1499000  -2.7631810    -122.8888000  
50000000      -1.0015530    -136.4130000  6.4267790     -37.4743600   -57.9886700   -160.9141000  -3.0287440    -130.8453000  
55000000      -1.1154010    -144.5436000  8.0074550     -42.4004300   -55.3053400   -174.4640000  -3.2755070    -138.1478000  
60000000      -1.1949040    -152.1814000  9.3742120     -47.0776300   -53.7772800   -178.4515000  -3.5066210    -144.8389000  
65000000      -1.2847860    -159.3199000  10.5825800    -51.5433200   -52.3422000   178.1106000   -3.7196010    -151.0076000  
70000000      -1.3669570    -166.0691000  11.6827300    -55.7812300   -51.1447700   174.8802000   -3.9216630    -156.7409000  
75000000      -1.4436420    -172.4254000  12.7025200    -59.9195600   -49.9367700   171.6947000   -4.1108730    -162.0777000  
80000000      -1.5228910    -178.5128000  13.6356500    -63.9347500   -48.8046800   168.8613000   -4.2974750    -167.1202000  
85000000      -1.6005710    175.7048000   14.4992000    -67.8716600   -47.8600700   166.1936000   -4.4796660    -171.8541000  
90000000      -1.6790910    170.1503000   15.3048300    -71.8005900   -46.8616400   163.4342000   -4.6562940    -176.3258000  
95000000      -1.7636060    164.8014000   16.0404200    -75.6718600   -46.0163100   160.9430000   -4.8314620    179.4217000   
100000000     -1.8454790    159.6386000   16.7271600    -79.4350100   -45.1512900   158.7481000   -5.0062690    175.3687000   
105000000     -1.9330450    154.6266000   17.3564500    -83.1533100   -44.3653800   156.3283000   -5.1824100    171.4847000   
110000000     -2.0321810    149.6842000   17.9384600    -86.7853300   -43.6127600   154.0249000   -5.3586190    167.7657000   
115000000     -2.1153990    144.9412000   18.4974000    -90.3592400   -42.9190300   151.9802000   -5.5367920    164.1969000   
120000000     -2.2176050    140.2962000   19.0098500    -93.8771900   -42.2340700   149.7812000   -5.7171910    160.7595000   
125000000     -2.3206980    135.7344000   19.4934000    -97.3975400   -41.5932200   147.8318000   -5.9005890    157.4523000   
130000000     -2.4247110    131.2716000   19.9511900    -100.8428000  -40.9734000   145.7755000   -6.0857530    154.2520000   
135000000     -2.5392890    126.8604000   20.3677800    -104.3116000  -40.3919000   143.7662000   -6.2744850    151.1636000   
140000000     -2.6512810    122.5028000   20.7537500    -107.7282000  -39.8163500   141.8202000   -6.4667250    148.1717000   
145000000     -2.7743200    118.2716000   21.1156500    -111.0431000  -39.3178100   139.9713000   -6.6648390    145.2794000   
150000000     -2.9028730    114.0901000   21.4526000    -114.2902000  -38.8222200   137.9601000   -6.8687390    142.4667000   
155000000     -3.0369820    109.8944000   21.7608000    -117.5653000  -38.2989700   136.1978000   -7.0717520    139.7459000   
160000000     -3.1687300    105.8392000   22.0574200    -120.7379000  -37.8389800   134.4435000   -7.2837130    137.0982000   
165000000     -3.3061150    101.7699000   22.3311300    -123.9059000  -37.4133800   132.5555000   -7.4989000    134.5252000   
170000000     -3.4560600    97.7691400    22.5792600    -127.0363000  -36.9696500   130.8286000   -7.7200720    132.0289000   
175000000     -3.6035140    93.8805800    22.8095100    -130.1116000  -36.5616800   129.1031000   -7.9443040    129.5983000   
180000000     -3.7556590    89.9910600    23.0211000    -133.1181000  -36.1614800   127.3360000   -8.1808330    127.2546000   
185000000     -3.9239100    86.1547400    23.2138700    -136.1113000  -35.7961900   125.5384000   -8.4122790    125.0274000   
190000000     -4.0767080    82.4359400    23.3930300    -138.9816000  -35.4475500   123.9996000   -8.6423380    122.7908000   
195000000     -4.2369840    78.6246300    23.5585100    -141.8552000  -35.1050100   122.3485000   -8.8827380    120.6081000   
200000000     -4.4095430    74.8789200    23.7083000    -144.6778000  -34.7724100   120.7685000   -9.1300480    118.4853000   
205000000     -4.5789060    71.1871000    23.8485500    -147.4620000  -34.4536700   119.1895000   -9.3809870    116.4661000   
210000000     -4.7463180    67.4911300    23.9758700    -150.2491000  -34.1489000   117.6233000   -9.6327890    114.5112000   
215000000     -4.9176210    63.9037800    24.0889900    -152.9200000  -33.8581300   116.1123000   -9.8926680    112.5865000   
220000000     -5.0962670    60.2781700    24.1921400    -155.6017000  -33.5648200   114.6585000   -10.1559700   110.7355000   
225000000     -5.2877100    56.7782700    24.2748700    -158.1546000  -33.2999500   113.1581000   -10.4236000   108.9313000   
230000000     -5.4608060    53.1836100    24.3497400    -160.7314000  -33.0361200   111.7090000   -10.6848600   107.2539000   
235000000     -5.6382140    49.7417600    24.4266800    -163.2280000  -32.7851700   110.2443000   -10.9612300   105.6174000   
240000000     -5.8170900    46.2884300    24.4852900    -165.7122000  -32.5450900   108.8193000   -11.2305100   104.0436000   
245000000     -6.0140460    42.8468700    24.5380500    -168.1043000  -32.3168100   107.4497000   -11.4976400   102.4867000   
250000000     -6.1848450    39.4896200    24.5858000    -170.5168000  -32.1003900   106.0590000   -11.7686300   101.0535000   
255000000     -6.3734820    36.1504200    24.6169500    -172.8158000  -31.8775300   104.8132000   -12.0488500   99.5679500    
260000000     -6.5611740    32.9288900    24.6491400    -175.1338000  -31.6677200   103.5080000   -12.3330600   98.2310800    
265000000     -6.7319050    29.5242700    24.6710200    -177.3633000  -31.4654000   102.2100000   -12.6014800   96.9195300    
270000000     -6.9063970    26.2666400    24.6880100    -179.5583000  -31.2712500   100.9208000   -12.8772800   95.7498100    
275000000     -7.0954560    23.0310100    24.7009800    178.3255000   -31.0835900   99.7518800    -13.1742000   94.5889900    
280000000     -7.2798030    19.8572000    24.7075800    176.2170000   -30.8978800   98.5270800    -13.4567800   93.4254200    
285000000     -7.4441260    16.6321000    24.7071700    174.1411000   -30.7286300   97.3324500    -13.7365000   92.3398000    
290000000     -7.6276370    13.5560900    24.7024400    172.1192000   -30.5541300   96.2266500    -14.0242800   91.2995800    
295000000     -7.7931190    10.5021500    24.6949300    170.1211000   -30.3832600   95.1211200    -14.3242200   90.3954500    
300000000     -7.9659200    7.3345400     24.6744200    168.1737000   -30.2187000   94.0137400    -14.5979400   89.3739200    
305000000     -8.1322720    4.2730470     24.6615800    166.2490000   -30.0748500   92.8932000    -14.8935200   88.5035300    
310000000     -8.2863660    1.3043560     24.6419100    164.3618000   -29.9218800   91.8016500    -15.1908500   87.8333400    
315000000     -8.4587580    -1.7362810    24.6210000    162.5531000   -29.7742900   90.7715500    -15.4621900   86.9796000    
320000000     -8.5975200    -4.7440840    24.5904400    160.7342000   -29.6300000   89.7789800    -15.7584700   86.1606600    
325000000     -8.7624260    -7.6211940    24.5677000    158.9599000   -29.4941400   88.8227200    -16.0365600   85.5355200    
330000000     -8.9220230    -10.4786600   24.5356100    157.1841000   -29.3537400   87.8043100    -16.3244100   84.9357300    
335000000     -9.0521090    -13.4438700   24.4965100    155.4947000   -29.2150700   86.8190400    -16.6348200   84.2833100    
340000000     -9.1917090    -16.2469600   24.4583200    153.7995000   -29.0936200   85.8770800    -16.8983700   83.7800400    
345000000     -9.3215580    -19.0756700   24.4193600    152.1478000   -28.9622400   84.9560200    -17.2026700   83.4229400    
350000000     -9.4695440    -22.0165700   24.3799600    150.5606000   -28.8388400   84.0486800    -17.4760000   82.6336700    
355000000     -9.5727190    -24.7338400   24.3352400    148.9373000   -28.7190100   83.1322100    -17.7560700   82.5246600    
360000000     -9.7196400    -27.4976800   24.2914100    147.4018000   -28.6079400   82.2075900    -18.0130700   82.0910400    
365000000     -9.8123530    -30.1870700   24.2437300    145.8780000   -28.4910000   81.3636200    -18.2897000   81.7236800    
370000000     -9.9541030    -32.8416700   24.2004500    144.3355000   -28.3739900   80.5345400    -18.5834700   81.5100300    
375000000     -10.0408200   -35.4718700   24.1495100    142.8388000   -28.2605400   79.6987000    -18.8737900   81.4928100    
380000000     -10.1650900   -38.2086100   24.1022000    141.3964000   -28.1492700   78.8637400    -19.1560700   81.1960400    
385000000     -10.2693400   -40.7507400   24.0476400    139.9450000   -28.0447300   78.0504400    -19.4179500   81.1460400    
390000000     -10.3725000   -43.2647600   23.9993800    138.5405000   -27.9378700   77.2245300    -19.6972000   81.0689800    
395000000     -10.4445700   -45.8304800   23.9439900    137.1417000   -27.8325100   76.4568600    -19.9635300   81.0184300    
400000000     -10.5353000   -48.4106400   23.8916400    135.7725000   -27.7271200   75.6801200    -20.2756400   81.2956700    
405000000     -10.6368400   -50.8132900   23.8369900    134.4239000   -27.6293300   74.9151900    -20.4911300   81.3247900    
410000000     -10.7169900   -53.3646200   23.7819700    133.0935000   -27.5372000   74.1200100    -20.7665300   81.6071600    
415000000     -10.7970800   -55.7763300   23.7269200    131.7852000   -27.4336000   73.4025700    -21.0571500   81.7222200    
420000000     -10.8671200   -58.1810300   23.6700900    130.4896000   -27.3379700   72.6544000    -21.3027300   81.9724400    
425000000     -10.9385000   -60.5696800   23.6129100    129.2195000   -27.2462200   71.9324300    -21.5426300   82.4869300    
430000000     -11.0316200   -62.8337500   23.5591300    127.9735000   -27.1570800   71.1750900    -21.8345300   82.8085300    
435000000     -11.0583900   -65.0846100   23.4980000    126.7063000   -27.0606900   70.5249000    -22.1022000   83.1907300    
440000000     -11.1322200   -67.4914600   23.4410300    125.4875000   -26.9702000   69.7930800    -22.3781200   83.5675000    
445000000     -11.1788000   -69.4931600   23.3793000    124.2881000   -26.8812500   69.0957500    -22.5879600   84.2386900    
450000000     -11.2685100   -71.9862700   23.3235900    123.1034000   -26.8028200   68.4341100    -22.7984100   84.4583300    
455000000     -11.3109400   -74.1759400   23.2631300    121.9356000   -26.7096700   67.7176100    -23.0735700   85.4413900    
460000000     -11.3574800   -76.3163300   23.2030600    120.7768000   -26.6222300   67.0409600    -23.2964600   85.7567400    
465000000     -11.4138600   -78.2103600   23.1429100    119.6258000   -26.5399300   66.3892400    -23.5152500   86.7431500    
470000000     -11.4630800   -80.4550000   23.0839900    118.5177000   -26.4614700   65.7130400    -23.7356900   87.5247100    
475000000     -11.5118500   -82.4068500   23.0239600    117.4068000   -26.3803900   65.0820200    -23.8992000   88.2025700    
480000000     -11.5419200   -84.3816000   22.9632400    116.3244000   -26.2998000   64.4055900    -24.0377300   88.9540200    
485000000     -11.5755400   -86.4076600   22.9015400    115.2413000   -26.2208700   63.7784500    -24.2475500   89.4448900    
490000000     -11.6085900   -88.3344800   22.8409800    114.1800000   -26.1448000   63.1451000    -24.4355900   90.7557300    
495000000     -11.6199000   -90.1858200   22.7830200    113.1108000   -26.0695900   62.5424800    -24.5969400   91.2347000    
500000000     -11.6631600   -92.0657700   22.7231900    112.0581000   -25.9905400   61.9489600    -24.8140900   91.9492300    
505000000     -11.7249200   -94.0043900   22.6681300    111.0151000   -25.9160000   61.3375200    -25.0487400   93.1446100    
510000000     -11.7326700   -95.8652300   22.6089900    109.9815000   -25.8361900   60.7158500    -25.2341100   94.1987800    
515000000     -11.7699000   -97.7599300   22.5482400    108.9653000   -25.7634800   60.0879900    -25.3647500   95.5466500    
520000000     -11.7986600   -99.3730000   22.4875100    107.9529000   -25.6920200   59.5303800    -25.4958700   96.4511900    
525000000     -11.7880800   -101.3021000  22.4241200    106.9739000   -25.6149800   58.9334800    -25.5903100   97.9493000    
530000000     -11.7778000   -102.9788000  22.3634900    105.9942000   -25.5449200   58.3533200    -25.6892100   98.4727300    
535000000     -11.8187000   -104.7816000  22.3030800    105.0219000   -25.4716000   57.7557600    -25.7815800   99.9827300    
540000000     -11.8506800   -106.3710000  22.2441000    104.0518000   -25.4006300   57.1868900    -25.9246300   100.8362000   
545000000     -11.8583800   -108.2364000  22.1819600    103.1194000   -25.3317200   56.5960500    -25.9417400   102.0908000   
550000000     -11.8991200   -109.7536000  22.1253500    102.1794000   -25.2663300   56.0247300    -25.9919800   103.1505000   
555000000     -11.8983600   -111.4814000  22.0659100    101.2377000   -25.1940000   55.4583200    -26.1538800   104.1647000   
560000000     -11.9399400   -113.1270000  22.0078800    100.3223000   -25.1266600   54.8760600    -26.2191200   105.3838000   
565000000     -11.9303800   -114.7187000  21.9471600    99.4023400    -25.0617800   54.3108200    -26.3032000   106.7695000   
570000000     -11.9469100   -116.1367000  21.8856100    98.4990900    -24.9951500   53.7643100    -26.2894300   107.9767000   
575000000     -11.9475000   -117.5660000  21.8272700    97.5879600    -24.9309400   53.2205700    -26.3820700   109.3869000   
580000000     -11.9464700   -119.1109000  21.7687700    96.6992100    -24.8652300   52.6699900    -26.3844900   110.2783000   
585000000     -11.9852000   -120.5124000  21.7105900    95.8170700    -24.7992500   52.1310100    -26.3807100   111.1215000   
590000000     -11.9701900   -122.0270000  21.6518500    94.9423900    -24.7356000   51.5888500    -26.3483400   112.4367000   
595000000     -11.9934400   -123.4296000  21.5912200    94.0834700    -24.6717500   51.0550000    -26.3705800   113.1292000   
600000000     -11.9809700   -125.0579000  21.5355800    93.2343100    -24.6125300   50.4917100    -26.4083100   114.1054000   
605000000     -11.9934500   -126.3241000  21.4755800    92.3751400    -24.5516200   49.9869700    -26.3849700   115.0730000   
610000000     -11.9941900   -127.7383000  21.4195900    91.5312700    -24.4881900   49.4384000    -26.4428800   115.9482000   
615000000     -11.9865400   -129.0802000  21.3612400    90.6845200    -24.4264800   48.9301900    -26.4186700   116.8366000   
620000000     -12.0052000   -130.2859000  21.3043200    89.8738500    -24.3640700   48.4163200    -26.3769500   116.9124000   
625000000     -12.0211100   -131.7045000  21.2472500    89.0519200    -24.3071500   47.8841100    -26.3824100   117.8426000   
630000000     -12.0356900   -132.9007000  21.1905300    88.2039900    -24.2480000   47.3899700    -26.3431000   119.1642000   
635000000     -12.0390800   -134.3577000  21.1322000    87.4016800    -24.1857900   46.8664400    -26.3225200   120.3381000   
640000000     -12.0460700   -135.4089000  21.0792300    86.6053000    -24.1290000   46.3405200    -26.2651700   120.2266000   
645000000     -12.0587400   -136.7245000  21.0233800    85.8080100    -24.0706200   45.8482900    -26.1853000   121.0617000   
650000000     -12.0620800   -137.9927000  20.9622600    85.0090000    -24.0108900   45.3306500    -26.1327900   121.9579000   
655000000     -12.0291800   -139.3632000  20.9078800    84.2262600    -23.9519600   44.8218800    -26.1283400   122.3918000   
660000000     -12.0293100   -140.4529000  20.8568100    83.4414000    -23.8955000   44.3113100    -26.0718900   123.2770000   
665000000     -12.0514200   -141.6414000  20.7971200    82.6813600    -23.8388500   43.8281600    -25.9859400   123.0998000   
670000000     -12.0281400   -142.8479000  20.7431900    81.9111100    -23.7840200   43.3206100    -25.9974000   123.9281000   
675000000     -12.0517800   -144.0325000  20.6888400    81.1413500    -23.7269500   42.8442000    -25.8970600   123.9514000   
680000000     -12.0457000   -145.2139000  20.6333900    80.3914900    -23.6739500   42.3462600    -25.8036900   124.6919000   
685000000     -12.0400500   -146.3150000  20.5784700    79.6195700    -23.6173200   41.8382800    -25.7849000   125.4905000   
690000000     -12.0535500   -147.4497000  20.5219800    78.8988900    -23.5635400   41.3491100    -25.7016600   125.6111000   
695000000     -12.0225600   -148.6324000  20.4670400    78.1294000    -23.5063700   40.8645600    -25.6283700   125.9642000   
700000000     -12.0450400   -149.7204000  20.4137400    77.4106100    -23.4525700   40.3903800    -25.5838500   126.3413000   
705000000     -12.0389900   -150.6587000  20.3629400    76.6746400    -23.4018300   39.9159400    -25.5463200   126.2481000   
710000000     -12.0494200   -151.9344000  20.3096900    75.9530500    -23.3472300   39.4201200    -25.4576500   126.5487000   
715000000     -12.0376900   -153.0122000  20.2546700    75.2078700    -23.2950400   38.9358300    -25.3701700   127.1602000   
720000000     -12.0396700   -153.7485000  20.2018800    74.4993100    -23.2439300   38.4493900    -25.3240200   127.0920000   
725000000     -12.0478600   -155.0727000  20.1507100    73.7758700    -23.1908200   37.9675900    -25.2852900   127.5277000   
730000000     -12.0390100   -156.0817000  20.0986300    73.0600400    -23.1411400   37.4962300    -25.2101300   127.6542000   
735000000     -12.0344000   -157.0435000  20.0459200    72.3663400    -23.0905900   37.0378600    -25.1452100   127.6203000   
740000000     -12.0554200   -158.0081000  19.9962700    71.6713400    -23.0406300   36.5499700    -25.0841700   127.8120000   
745000000     -12.0312500   -159.0762000  19.9411300    70.9711200    -22.9877000   36.0908200    -25.0211400   127.6479000   
750000000     -12.0440600   -160.3592000  19.8904700    70.2580600    -22.9374600   35.6078000    -24.9508900   128.4335000   
755000000     -12.0356700   -160.9748000  19.8377400    69.5747200    -22.8886800   35.1593700    -24.8914600   127.8073000   
760000000     -12.0480500   -162.0927000  19.7868800    68.8957000    -22.8385800   34.6766400    -24.8466300   128.4369000   
765000000     -12.0499500   -162.9452000  19.7367600    68.2068700    -22.7887200   34.2231700    -24.7646800   128.1195000   
770000000     -12.0407100   -163.8304000  19.6869400    67.5231200    -22.7383000   33.7714900    -24.7287000   128.1362000   
775000000     -12.0320600   -164.8033000  19.6371200    66.8387500    -22.6886000   33.3094300    -24.6652200   128.1857000   
