# HZ S RI R 50
600000000 0.292193997549741 0.2359530741739088 0.4731958959718974 0.7609354683379541 0 0 0 0
600594648 0.29252981467203115 0.23491333265539185 0.4749933438501627 0.7615575795931586 0 0 0 0
601189296 0.29208991582120625 0.2344323542283028 0.4759386076109711 0.7599440745842987 0 0 0 0
601783944 0.29181133343980203 0.23217266087890326 0.47668120923721097 0.7594154613458333 0 0 0 0
602378592 0.29170837075929273 0.23153705760291662 0.4788358888415627 0.7596849454640243 0 0 0 0
602973240 0.29121833349743576 0.23035207870829766 0.47847787477891507 0.759528328328025 0 0 0 0
603567888 0.29075428422784655 0.2292740102951265 0.47923185018267306 0.7595245174435479 0 0 0 0
604162536 0.291278493148635 0.22833890352390632 0.4811161635335901 0.7585970790199394 0 0 0 0
604757184 0.2907135996739977 0.22734621835744914 0.481913215030599 0.7587307747125589 0 0 0 0
605351832 0.2907770122100659 0.2260654043403375 0.48374180551771856 0.7585440525562689 0 0 0 0
605946480 0.29003562766013796 0.22514191869187053 0.48457932307714713 0.7579576176642511 0 0 0 0
606541128 0.2911846298559842 0.22160111682838907 0.4888419376405471 0.7556273922778707 0 0 0 0
607135776 0.2902454075284947 0.22135999544516596 0.48746223405850414 0.757685248199042 0 0 0 0
607730424 0.290012455583065 0.21989155509246824 0.48950228101025983 0.7561373614653593 0 0 0 0
608325072 0.2896791091101787 0.2186393493166523 0.4919262913128124 0.7553175206931655 0 0 0 0
608919720 0.2900729703071933 0.2180375517881727 0.4925425064523587 0.7550004602982059 0 0 0 0
609514368 0.28988477957273384 0.21696230038498046 0.4934950804184132 0.7559473994859713 0 0 0 0
610109016 0.28902998060542523 0.21594536837392472 0.4938087312143215 0.7549983387921312 0 0 0 0
610703664 0.28835430538671475 0.21511279865587773 0.49502644410480556 0.7552261638241673 0 0 0 0
611298312 0.2887025064753501 0.2133259962759026 0.4964472977588437 0.754152861334799 0 0 0 0
611892960 0.2882388761088119 0.21250646312685806 0.4981701754712081 0.7538512196610642 0 0 0 0
612487608 0.28790400377122993 0.21195868858079975 0.4981508289271174 0.7539046036749213 0 0 0 0
613082256 0.28753039390674834 0.21077949295081438 0.49955416587539003 0.7541060319893365 0 0 0 0
613676904 0.2877960261501483 0.2097502412314358 0.5019002912495508 0.753031720904963 0 0 0 0
614271552 0.2872241004958157 0.20927974988923637 0.5020339505760214 0.7531303991171112 0 0 0 0
614866200 0.286961709961207 0.2075457760877961 0.5025896680869265 0.7537997095985798 0 0 0 0
615460848 0.28652631940714923 0.20648872688328768 0.5058269499645035 0.7516494173796957 0 0 0 0
616055496 0.2861102230167669 0.20475615724928461 0.5053705284572909 0.7519308024322457 0 0 0 0
616650144 0.2855106617713528 0.20413794826596326 0.507338177253644 0.7516394062126719 0 0 0 0
617244792 0.28502913220551834 0.20334665480011216 0.5079418723667147 0.7519576030699093 0 0 0 0
617839440 0.2849997210379627 0.20272038712668194 0.5088859021019232 0.751233413843919 0 0 0 0
618434088 0.28455510493189856 0.20181312956584246 0.5093534221192934 0.7508610646151297 0 0 0 0
619028736 0.28451535773466274 0.20003370172567597 0.5117319962918794 0.7501212583265641 0 0 0 0
619623384 0.28433653055995367 0.1996382276484222 0.5124578453874569 0.7503073990789183 0 0 0 0
620218032 0.2837858458973011 0.1985974441124975 0.5130463048693278 0.7502620420883114 0 0 0 0
620812680 0.28290032565496764 0.19846842627135802 0.5142778282802409 0.7498137440168826 0 0 0 0
621407328 0.28276804731860716 0.19692252776126185 0.5159284171048613 0.7491497039645307 0 0 0 0
622001976 0.28229199535335464 0.19577306779520323 0.516934387785597 0.7477161703873627 0 0 0 0
622596624 0.28274983310086677 0.1949275000822361 0.5171389592158246 0.7488356877080936 0 0 0 0
623191272 0.28212512663988476 0.1949601623613539 0.5184430057824806 0.7480740490913791 0 0 0 0
623785920 0.28148708323564 0.1942956563175527 0.5194282800806118 0.7479244197863598 0 0 0 0
624380568 0.2812990586542647 0.19261237521420255 0.5198137811003016 0.7487994645917763 0 0 0 0
624975216 0.28086694156948555 0.1922797351287928 0.5214938288505238 0.7471874654763466 0 0 0 0
625569864 0.28014079686096194 0.1918593829544713 0.5208699135400688 0.7476137052311478 0 0 0 0
626164512 0.2800613805664037 0.19115424193767844 0.5230570282520651 0.7464903151448126 0 0 0 0
626759160 0.27982396608980775 0.1902002856881064 0.5251733990609849 0.7469923608380189 0 0 0 0
627353808 0.2789364216249844 0.18940034427198563 0.5252431295576387 0.745331259362245 0 0 0 0
627948456 0.27875080459208984 0.1888841945619989 0.5260793441174468 0.745262658139362 0 0 0 0
628543104 0.278715495085173 0.1878235549250933 0.5273579588635906 0.7456403077688559 0 0 0 0
629137752 0.27835834585449476 0.18701191111210422 0.529406457798652 0.7443083048155684 0 0 0 0
629732400 0.2777400867677591 0.18576354024287253 0.5295446008906596 0.7429078020863045 0 0 0 0
630327048 0.2775029637279656 0.18575446989969044 0.5299198288057707 0.7444871913335409 0 0 0 0
630921696 0.27724372745534437 0.184877164422018 0.532830437887332 0.7440760729502444 0 0 0 0
631516344 0.27616455080409213 0.18404636680721653 0.5329030087347747 0.7434010978498247 0 0 0 0
632110992 0.27608402852139036 0.18395802765345054 0.5322896450687945 0.7427902118672468 0 0 0 0
632705640 0.27499894799783964 0.1835162268143346 0.5345196033202994 0.7431152411230225 0 0 0 0
633300288 0.274924782409623 0.1832652625564122 0.5344179605835995 0.7422175653141492 0 0 0 0
633894936 0.27466861337601517 0.18249738393260748 0.5348437767097307 0.7419323511163178 0 0 0 0
634489584 0.27417037101654845 0.18202136053504847 0.5358785969839279 0.7430182846065565 0 0 0 0
635084232 0.27424259140752605 0.18062008996496937 0.5382866870075438 0.742006595354124 0 0 0 0
635678880 0.2739392839845893 0.18020344939327237 0.5379550741519274 0.7413464459088478 0 0 0 0
636273528 0.2723212957773468 0.17958135612691206 0.5390902724881407 0.7424096430747452 0 0 0 0
636868176 0.27265828882272114 0.17851975718317745 0.5402075691723868 0.7405638051457905 0 0 0 0
637462824 0.2724209224631822 0.17743592031373964 0.5419555771846608 0.7400426495238661 0 0 0 0
638057472 0.27245859549502127 0.17696570422705027 0.5437412260557154 0.738815473815022 0 0 0 0
638652120 0.27173321703409264 0.17616710906808214 0.5441264299246049 0.7381686022295275 0 0 0 0
639246768 0.2712191676551102 0.17583327861879425 0.544968900793773 0.7385202874362862 0 0 0 0
639841416 0.27115819981131817 0.17469583548185408 0.5457945826347438 0.7379483376741497 0 0 0 0
640436064 0.27063569243367425 0.1735869707318176 0.548113172853281 0.7370129497407956 0 0 0 0
641030712 0.2702749725792543 0.17323394724930447 0.5488324125880768 0.7373140621421951 0 0 0 0
641625360 0.26974909887285436 0.17220591562756976 0.5488886901809057 0.7376291139094254 0 0 0 0
642220008 0.26940056717949606 0.17212383281707103 0.5499079264014054 0.7369185075959155 0 0 0 0
642814656 0.26942332660695123 0.17038764789346394 0.5519197917525629 0.7346966985101111 0 0 0 0
643409304 0.26893426347670596 0.16971530626940035 0.5502302419668611 0.7369604409967234 0 0 0 0
644003952 0.2685406823380694 0.16928579210753397 0.554257107283942 0.7345595939913429 0 0 0 0
644598600 0.2681516248523195 0.16847912248580738 0.5551435909800119 0.7347683431798332 0 0 0 0
645193248 0.2677636458228555 0.16738706646781212 0.5567711817378261 0.7335473108439792 0 0 0 0
645787896 0.26759576808675994 0.16656937145530812 0.556204822437244 0.7337018691022129 0 0 0 0
646382544 0.2666285012938594 0.16623645055103578 0.5568406367997975 0.7331678978410346 0 0 0 0
646977192 0.26633444467643713 0.16561489665287843 0.5576978646530116 0.732672357885645 0 0 0 0
647571840 0.26601826939858575 0.16525381810152737 0.5591935871206685 0.7322418932726397 0 0 0 0
648166488 0.2656736322047882 0.16424598673221627 0.5601926224773929 0.7311960538444199 0 0 0 0
648761136 0.2651393376763128 0.16348389738386018 0.561523348917577 0.7317800353913202 0 0 0 0
649355784 0.2649908817972705 0.16331937287533574 0.5634429612106558 0.7307774138277018 0 0 0 0
649950432 0.2645728744379067 0.1625071544338503 0.5634693268904706 0.7285174721500431 0 0 0 0
650545080 0.26464727723763615 0.16175100070432916 0.5645319575031995 0.7299127217841972 0 0 0 0
651139728 0.26393913891449033 0.1611198377957878 0.5664428358477288 0.7278007292838223 0 0 0 0
651734376 0.26322691956257904 0.16102103155726316 0.5654017445538875 0.7295359478455037 0 0 0 0
652329024 0.26339217685033534 0.15942898510468656 0.5680954236436837 0.7273478936420323 0 0 0 0
652923672 0.26285456768827986 0.1591325425459857 0.5675825513685963 0.7276363805279938 0 0 0 0
653518320 0.26217174317240677 0.1585468779970519 0.5689409929418877 0.726882668067048 0 0 0 0
654112968 0.26174384425706804 0.15783380428151164 0.5696285777688397 0.7260660696646224 0 0 0 0
654707616 0.26179939754822523 0.15737529739238906 0.5717034536065448 0.7261291260910779 0 0 0 0
655302264 0.2607844375112861 0.15720592406464995 0.5720991594946149 0.724715944564776 0 0 0 0
655896912 0.2607395462079598 0.1560446531138115 0.571127487694829 0.7267983966497722 0 0 0 0
656491560 0.26063459262727573 0.15592931888315822 0.5742525326745221 0.7240226047129923 0 0 0 0
657086208 0.25997444340958104 0.1553238633670437 0.5736820431015885 0.7242814916939917 0 0 0 0
657680856 0.2597646202993954 0.15420515929630527 0.5767070597389928 0.7225401084241891 0 0 0 0
658275504 0.2597483511726608 0.1543317069117439 0.5769935442282559 0.7227348722602186 0 0 0 0
658870152 0.2595020443574275 0.15409678336396357 0.5766119602611015 0.7228225421132214 0 0 0 0
659464800 0.25896301502729346 0.15279438334665435 0.578621850918879 0.7213953007588731 0 0 0 0
660059448 0.25772030244344096 0.14985036097111662 0.5799524853981384 0.7232628765978337 0 0 0 0
660654096 0.2583963538709259 0.1499699681352454 0.5815456983044026 0.7224021947841254 0 0 0 0
661248744 0.2572968390759671 0.14960399868990537 0.5812277069519823 0.7219005284616838 0 0 0 0
661843392 0.25697517344984716 0.14869388193776972 0.582933627675665 0.7193824971602105 0 0 0 0
662438040 0.25697473546698135 0.14878765741759276 0.5832435340344596 0.7204277440147953 0 0 0 0
663032688 0.25679405757466667 0.14801813674661132 0.5842559588696189 0.7196514826886464 0 0 0 0
663627336 0.2567885828863387 0.14803499585336988 0.5835287351462365 0.7198884538470587 0 0 0 0
664221984 0.2560379829230033 0.14729347644425275 0.5860440173402304 0.7194987318879067 0 0 0 0
664816632 0.25579093853695734 0.14697387621579355 0.5873093109113665 0.7179687382511788 0 0 0 0
665411280 0.2558005615559367 0.1466866700774287 0.5890065247987322 0.7184260479002559 0 0 0 0
666005928 0.25533381163955116 0.14651284092058958 0.5883769807285776 0.7172342852688882 0 0 0 0
666600576 0.25499051524788224 0.1465397288589416 0.5883883757561337 0.7167511365926704 0 0 0 0
667195224 0.25515269553399633 0.1461292988121968 0.5898374808189375 0.7166665762177157 0 0 0 0
667789872 0.25438672605628443 0.14559052820495805 0.5910357113685785 0.7167972990012923 0 0 0 0
668384520 0.25410102176086574 0.144937044368482 0.5921959733692135 0.7137130150712999 0 0 0 0
668979168 0.2534758876948569 0.14474683437082397 0.5926885931418787 0.7144590109683662 0 0 0 0
669573816 0.25345478099046936 0.1442629450934916 0.5945087466255906 0.7143890575506271 0 0 0 0
670168464 0.25302567247066476 0.143734748639105 0.5942155657337794 0.7131295541160847 0 0 0 0
670763112 0.25274370921271 0.1432205676151531 0.5954180623574862 0.712960447541809 0 0 0 0
671357760 0.2528762267805636 0.14331428502268684 0.5967790010345929 0.71237843920004 0 0 0 0
671952408 0.2517242300658093 0.1423731095150525 0.5968349845207876 0.7126238890442407 0 0 0 0
672547056 0.25183452653932936 0.14166498474705833 0.5976011476519705 0.7106987763550066 0 0 0 0
673141704 0.2509771639002804 0.1416526332113536 0.5986520741295777 0.7101995179677747 0 0 0 0
673736352 0.25109442337301446 0.14137557159209677 0.6010039106422275 0.7095316834884392 0 0 0 0
674331000 0.25066229474638235 0.14069874011778732 0.5999623372563971 0.7101471512033631 0 0 0 0
674925648 0.25069944004342054 0.14043924807196675 0.600328799762892 0.7093567017235564 0 0 0 0
675520296 0.24955066136810694 0.1401815824583002 0.6006386179892034 0.7087304037025748 0 0 0 0
676114944 0.2502168982593969 0.13988137061482495 0.6023757811285868 0.7077894927991706 0 0 0 0
676709592 0.24949137289678314 0.13952382286154597 0.6040281837579093 0.7070805028779545 0 0 0 0
677304240 0.24946937380755424 0.1396896378085231 0.6025382152251798 0.7086340600480043 0 0 0 0
677898888 0.2491275966783301 0.138681926638405 0.60642172176052 0.7057795590087211 0 0 0 0
678493536 0.24855848161172944 0.13840356583874674 0.6061966813335861 0.7062489674289766 0 0 0 0
679088184 0.2480407567704884 0.13809284002704608 0.6080123034557704 0.7049078410401832 0 0 0 0
679682832 0.24900273026140446 0.13767106297038942 0.6060770950573184 0.7061264433755492 0 0 0 0
680277480 0.24805971677864863 0.13737853045387888 0.6082621169691603 0.7050668931911133 0 0 0 0
680872128 0.247789108000697 0.13678429220224472 0.609165981757386 0.7033913701472608 0 0 0 0
681466776 0.24834970470895457 0.136257057961408 0.6099696029002647 0.703561286079926 0 0 0 0
682061424 0.2475201020586589 0.13627079772846756 0.6105877311599864 0.7039406674673008 0 0 0 0
682656072 0.2482359398142246 0.13608827975736246 0.6106991176509994 0.7033574101945249 0 0 0 0
683250720 0.24670970132935957 0.13518545913297347 0.6122893366539527 0.7011416336799139 0 0 0 0
683845368 0.24700007420988856 0.13462243917078243 0.6125247581105528 0.7001913692273625 0 0 0 0
684440016 0.24675939090019203 0.13454648708124092 0.6142722807864742 0.7009111220878262 0 0 0 0
685034664 0.24691474263579505 0.13430858783002755 0.6156461248562942 0.7001685412619761 0 0 0 0
685629312 0.24637320648497238 0.13381835621819876 0.6158511767748174 0.7003937191349615 0 0 0 0
686223960 0.2457863283619545 0.13412676635641713 0.6153224988784868 0.6995805618285198 0 0 0 0
686818608 0.2451002474865284 0.13353301888055805 0.6177159768792748 0.6978048916959008 0 0 0 0
687413256 0.24597702134961552 0.1328646755897599 0.6181739491053201 0.6982203654925919 0 0 0 0
688007904 0.24464185517329085 0.13259028331879383 0.6195862887779922 0.6956672711182343 0 0 0 0
688602552 0.2450262443058634 0.1321809885079218 0.6181939257829427 0.6974710544329794 0 0 0 0
689197200 0.24465093883124991 0.13169316167656697 0.6200163386820217 0.6959205948986644 0 0 0 0
689791848 0.2447458435705592 0.13230032228747335 0.6213501322970683 0.6947600643465858 0 0 0 0
690386496 0.24430451603722475 0.13179215994664986 0.6207487841252531 0.695145814648117 0 0 0 0
690981144 0.24396131550635805 0.13092804023618007 0.6225247651645021 0.6944331540879063 0 0 0 0
691575792 0.24322046053413404 0.13099786644625938 0.6223254515827921 0.6939944001544562 0 0 0 0
692170440 0.24367931284984784 0.1302719311092042 0.6237742276734028 0.693485273679254 0 0 0 0
692765088 0.24386644189520001 0.13012664399193674 0.624297426202571 0.6926682326672519 0 0 0 0
693359736 0.24343715473571834 0.13017659113259283 0.623663250110578 0.6926878835775038 0 0 0 0
693954384 0.24359473089378833 0.12991331080561752 0.6274192556394037 0.6906690094616798 0 0 0 0
694549032 0.24283365275457983 0.1292852265036942 0.6265102096875843 0.69076356995402 0 0 0 0
695143680 0.24298612989844046 0.1292798512017444 0.6276127106503852 0.6912713907429009 0 0 0 0
695738328 0.243200380830163 0.128417128634195 0.6291574973970199 0.6906043193943283 0 0 0 0
696332976 0.2426401238459956 0.12831684425371961 0.6281754056209942 0.6905536467536942 0 0 0 0
696927624 0.24227719204337392 0.1283964746059797 0.6296187853674003 0.6900306894595923 0 0 0 0
697522272 0.2422301105296789 0.1279465084497479 0.6295434645967566 0.6893624439316925 0 0 0 0
698116920 0.24203428461410148 0.12714328624292473 0.6304446807097728 0.6882144647304458 0 0 0 0
698711568 0.2424245248596056 0.12665092681074658 0.6327398887863054 0.6872273390657485 0 0 0 0
699306216 0.2413942522676242 0.12683594107241783 0.6324053725951365 0.6871491333587244 0 0 0 0
699900864 0.2421953706618732 0.12689582901381097 0.6339121348359149 0.6865275777205077 0 0 0 0
700495512 0.241612790668861 0.1265179598231369 0.6323085135254838 0.6870698556816726 0 0 0 0
701090160 0.2414591408197908 0.1252800234792601 0.6356195641401658 0.6851882498182309 0 0 0 0
701684808 0.2412059030113557 0.1257137028087052 0.6350696558486921 0.6843827308982058 0 0 0 0
702279456 0.24072906982054001 0.12534510757347994 0.6356361976218321 0.6840719649130182 0 0 0 0
702874104 0.24122840691454275 0.12484649617673838 0.6351278481609066 0.6848292789239363 0 0 0 0
703468752 0.24125461614180926 0.12363429012566286 0.6371815573321579 0.6827680889816051 0 0 0 0
704063400 0.24067438979623768 0.12434703079669314 0.6376414824999067 0.6827142067813174 0 0 0 0
704658048 0.24080793358440425 0.12408253252125287 0.6388821669103194 0.6816034453255927 0 0 0 0
705252696 0.24043205257444733 0.12318057273652543 0.6395424580894152 0.6804130517115216 0 0 0 0
705847344 0.24018866894655075 0.12358739737160714 0.6394403004420899 0.6813944106510404 0 0 0 0
706441992 0.24035833376183754 0.1229043831507799 0.6402359966567542 0.6800878146247402 0 0 0 0
707036640 0.24069135773360012 0.12244093832860976 0.6404339742527647 0.6808999910971986 0 0 0 0
707631288 0.24057843880763372 0.12248964855489546 0.6412873557738161 0.6794876273409539 0 0 0 0
708225936 0.23998988985695843 0.12228687014103613 0.6427799756370307 0.6800733957502902 0 0 0 0
708820584 0.24083068740220814 0.12080862642903578 0.6431445516980198 0.6780004230397207 0 0 0 0
709415232 0.2402426584672494 0.12106170353288871 0.6434612211614801 0.6781612650360569 0 0 0 0
710009880 0.23968818103068687 0.1213991932965875 0.6443189584695472 0.6766942882692344 0 0 0 0
710604528 0.24017311724372228 0.12092279705302683 0.643832977568502 0.6784482955786416 0 0 0 0
711199176 0.23963279239961954 0.1207879345139653 0.6448313278242727 0.6764803756328852 0 0 0 0
711793824 0.24060722614649135 0.11987625420618092 0.6459282277721373 0.6764325230501506 0 0 0 0
712388472 0.24025631913260917 0.11992661649019716 0.6481550827162909 0.6742704990324793 0 0 0 0
712983120 0.24011102906698228 0.11957827310480602 0.6471187687352443 0.6744351864675164 0 0 0 0
713577768 0.23974297940052552 0.1192388193521702 0.6484861506656527 0.674180103581621 0 0 0 0
714172416 0.2401659502775061 0.11892524992466087 0.649652374527945 0.6731358679708894 0 0 0 0
714767064 0.2394824975696791 0.11905296247630481 0.6480913046383432 0.6741295859352864 0 0 0 0
715361712 0.23974360862438449 0.11809728181419972 0.650537988633533 0.67266304389769 0 0 0 0
715956360 0.23959191698056045 0.11793007593712994 0.6506748728134014 0.6708753629182536 0 0 0 0
716551008 0.2393885752034137 0.11756084423939116 0.6506303235239372 0.6711120998806684 0 0 0 0
717145656 0.23971571912110073 0.11725530457812189 0.6516796389804408 0.6702322569009254 0 0 0 0
717740304 0.23991985875986901 0.11650798294023343 0.6512419746574355 0.6718904035616063 0 0 0 0
718334952 0.2397427506042626 0.11651208691030648 0.6521288141806141 0.6691598420937332 0 0 0 0
718929600 0.23970939267419852 0.11580110879736583 0.653465049545904 0.6694833152441464 0 0 0 0
719524248 0.24014129544356375 0.11522512977470964 0.6551650185424979 0.6688916655158305 0 0 0 0
720118896 0.23903312471959914 0.11519097257508093 0.6546045851721167 0.6675878039337514 0 0 0 0
720713544 0.23852050382217888 0.11599185043776014 0.6562519547572015 0.6685671074028858 0 0 0 0
721308192 0.23877737929975626 0.1154964132415885 0.6551818877589961 0.6678536763472112 0 0 0 0
721902840 0.23944848061026514 0.11486775242193346 0.6558601440038491 0.6686376012198856 0 0 0 0
722497488 0.23881564631982036 0.11456554227263377 0.6564424479864026 0.6680157619428148 0 0 0 0
723092136 0.23917036301365693 0.1140787396291939 0.6582987487971921 0.6664626734114598 0 0 0 0
723686784 0.23884825099135334 0.11345210125508662 0.6591849774944215 0.6665392659607672 0 0 0 0
724281432 0.23938335992895346 0.11327606607707506 0.6572585928059729 0.6665868764135762 0 0 0 0
