# HZ S RI R 50
600000000 -0.04717503294058705 -0.06663169906129451 0.9856266866764206 0.02955136221927374 0 0 0 0
600594648 -0.046517662934978964 -0.0665940918049393 0.9860885513667904 0.030528573604453504 0 0 0 0
601189296 -0.046316584971483096 -0.06636279752837912 0.9858536429787804 0.02927730691926027 0 0 0 0
601783944 -0.04624604778251784 -0.06619233878008526 0.9860063524936865 0.030179309899600448 0 0 0 0
602378592 -0.04628175334622271 -0.06619652476295872 0.985843660232675 0.029435020051123834 0 0 0 0
602973240 -0.0461703317304984 -0.06586034757337274 0.9862373565418785 0.029239080100392494 0 0 0 0
603567888 -0.046210503071261 -0.06586412825000726 0.9865789593768776 0.03007285281769568 0 0 0 0
604162536 -0.04613961002216849 -0.06537353604565224 0.9859025898461411 0.030521009742220658 0 0 0 0
604757184 -0.045953486354280294 -0.06536872219317755 0.986454750904972 0.0303381572997348 0 0 0 0
605351832 -0.04592315620129484 -0.06486971905324604 0.9863922468008243 0.02965810945713789 0 0 0 0
605946480 -0.04643528502844345 -0.06506493614244216 0.9864981294663443 0.02920325349245847 0 0 0 0
606541128 -0.04670907638925624 -0.063803511267749 0.9860907134029762 0.029435480831942862 0 0 0 0
607135776 -0.046259917173068967 -0.06347064407916862 0.9864161005165042 0.0305879965938008 0 0 0 0
607730424 -0.0466009916585478 -0.06310992058402524 0.9859729645222787 0.02753619025676896 0 0 0 0
608325072 -0.04629111633829969 -0.06292749273378127 0.9855673281897297 0.028358242148598098 0 0 0 0
608919720 -0.046414065881936924 -0.06245089734809221 0.9855081379081102 0.02951844136288448 0 0 0 0
609514368 -0.04636919205986558 -0.062429653875512935 0.9859225007856818 0.029714866013345727 0 0 0 0
610109016 -0.04666683372976076 -0.06219895470026944 0.9859542850836772 0.0294436310236863 0 0 0 0
610703664 -0.0464938991604082 -0.06198353613648176 0.9863504562518993 0.029336243222167345 0 0 0 0
611298312 -0.046607688303686286 -0.06165527477047412 0.9859471362788661 0.029787602833069013 0 0 0 0
611892960 -0.04698922684205329 -0.06168250383061525 0.9859171505087861 0.028753656049067662 0 0 0 0
612487608 -0.04693315481060851 -0.06109529643547007 0.9855075691319368 0.02937780740942793 0 0 0 0
613082256 -0.04671127557824771 -0.06082064395393415 0.9860537730435625 0.029127547876205435 0 0 0 0
613676904 -0.046660269955936966 -0.06070058437468172 0.9858573358846976 0.028949864182785803 0 0 0 0
614271552 -0.04656759355483757 -0.06025672847684076 0.9862586625894976 0.029123722814409822 0 0 0 0
614866200 -0.0470111654209206 -0.05973948748569237 0.9862823361952987 0.0299307748437095 0 0 0 0
615460848 -0.04729818984882587 -0.059302964887920986 0.9865098591129975 0.027726252402942644 0 0 0 0
616055496 -0.04714944363756048 -0.058949484230639 0.9859945239905363 0.02981134821646788 0 0 0 0
616650144 -0.04734530511337357 -0.05908735394816075 0.9865236060118382 0.02921412634578706 0 0 0 0
617244792 -0.04719802618513756 -0.059069118265439646 0.9860474131228149 0.028569284603816972 0 0 0 0
617839440 -0.047221315444975646 -0.05853172036943563 0.9857502077653335 0.02871286601302479 0 0 0 0
618434088 -0.04720358968556752 -0.05803931028876253 0.9858049756443955 0.028782438410424382 0 0 0 0
619028736 -0.047332407953243796 -0.058419064498095453 0.9863561205856036 0.028623432135879735 0 0 0 0
619623384 -0.04729443063939248 -0.05769667309211621 0.9867557930723929 0.028912594952418 0 0 0 0
620218032 -0.04755129585911496 -0.057759680082740926 0.9856062574213613 0.029083302047839453 0 0 0 0
620812680 -0.0472048569041548 -0.05732678951669143 0.9863325882716963 0.028533727733335457 0 0 0 0
621407328 -0.047111957492423404 -0.05728463527714551 0.9872252144229455 0.02928170604797952 0 0 0 0
622001976 -0.046984409456826526 -0.056493871533826 0.9848113449133236 0.028523182406910656 0 0 0 0
622596624 -0.04712528582535995 -0.05652056555160889 0.9860175345908907 0.028364318608872105 0 0 0 0
623191272 -0.047099463597820496 -0.056286907499312526 0.985924985490019 0.027653984003344453 0 0 0 0
623785920 -0.04681188501951 -0.055907217205284174 0.9855927347545775 0.02832602228842794 0 0 0 0
624380568 -0.0469349228406295 -0.05566270089304816 0.9871028084777257 0.02870460177060407 0 0 0 0
624975216 -0.04683545292450645 -0.0553723391048752 0.986004039326306 0.02804198143899755 0 0 0 0
625569864 -0.04693266222053135 -0.055238207578624667 0.9851812831699056 0.02792085812934594 0 0 0 0
626164512 -0.04703348980550365 -0.054869503056366044 0.9866822546049099 0.02711073374207598 0 0 0 0
626759160 -0.046788579414636336 -0.05430432103395228 0.9863177486318326 0.027772526766325516 0 0 0 0
627353808 -0.0466939884295743 -0.05436193476000398 0.9854693858763935 0.027568794521084752 0 0 0 0
627948456 -0.04686620550845579 -0.05408669397813582 0.9862996007658986 0.02860181844660461 0 0 0 0
628543104 -0.04686399276240488 -0.054002872677788236 0.9867159430806567 0.028937272295502248 0 0 0 0
629137752 -0.046654836848634855 -0.053323218905340204 0.9865735223354698 0.02725141898025144 0 0 0 0
629732400 -0.04661257934290318 -0.053345439360739884 0.9857566831296847 0.027475379029063052 0 0 0 0
630327048 -0.04645790086049816 -0.05269036107824647 0.9861741884720115 0.028252476542927136 0 0 0 0
630921696 -0.046605806954483756 -0.05240011231886127 0.9863974007577134 0.02690844203161421 0 0 0 0
631516344 -0.04671522273549191 -0.05270176207107251 0.9861309061072425 0.027740545650550646 0 0 0 0
632110992 -0.04622020699384843 -0.05222040324741863 0.9853732514316252 0.02788498350249042 0 0 0 0
632705640 -0.04649786437335006 -0.05194418366842804 0.9870308655316254 0.028758311686472648 0 0 0 0
633300288 -0.04658710268589155 -0.05179033052597413 0.9856139384609973 0.02652962908225436 0 0 0 0
633894936 -0.04611814094507277 -0.051772577650645024 0.9857535785426725 0.02867949430572681 0 0 0 0
634489584 -0.04644747738839363 -0.05172851038507315 0.9857283572765934 0.026146454855647237 0 0 0 0
635084232 -0.046190243274033316 -0.051370827949087684 0.9861310539843187 0.02755389925733035 0 0 0 0
635678880 -0.04586803466335142 -0.050974884425143314 0.986037513396697 0.02727710219496233 0 0 0 0
636273528 -0.046371562947116196 -0.05059048481598006 0.9876605448126367 0.02937159182626937 0 0 0 0
636868176 -0.04615305600267938 -0.05041625171203246 0.9867860094456548 0.02803535537886027 0 0 0 0
637462824 -0.04584225307734574 -0.050194087126484405 0.9872170806964033 0.028228361810844763 0 0 0 0
638057472 -0.04569087536020066 -0.04966082936890101 0.9857750163677883 0.026921282219922335 0 0 0 0
638652120 -0.045519708671472855 -0.04950078367522212 0.9865503092775925 0.027428186611821722 0 0 0 0
639246768 -0.045628070593919434 -0.049457061166323896 0.9864392184224328 0.027273910372167837 0 0 0 0
639841416 -0.045522258855317285 -0.04918157533758248 0.9857726140187465 0.026355589713869244 0 0 0 0
640436064 -0.04521161592806377 -0.04903572287857774 0.9865162636811677 0.027783521089328526 0 0 0 0
641030712 -0.0451475216371235 -0.04875391771495635 0.9860255536482682 0.026790705404091317 0 0 0 0
641625360 -0.04531416037688162 -0.0487631380235426 0.9871859485010159 0.028044793948273458 0 0 0 0
642220008 -0.044830939907473374 -0.048181285320967895 0.9854714668386231 0.027920671742847934 0 0 0 0
642814656 -0.04486259861766466 -0.04796878712584667 0.985372137253206 0.028520549495454822 0 0 0 0
643409304 -0.044548283288806216 -0.04783164355070663 0.9867497807138048 0.027368598333904908 0 0 0 0
644003952 -0.04470883085309864 -0.04725951471279072 0.9857275969321173 0.02774440565136387 0 0 0 0
644598600 -0.044751383117929346 -0.047216854025895746 0.9868817653083622 0.028032436713299656 0 0 0 0
645193248 -0.04446902338062777 -0.047396130939753124 0.986433584428797 0.025275496963724282 0 0 0 0
645787896 -0.04419993063008394 -0.04678342503454421 0.9853050285861676 0.026034144132108007 0 0 0 0
646382544 -0.04435416878908694 -0.046744561293999884 0.9863832868468656 0.027208076371190014 0 0 0 0
646977192 -0.04390173872624141 -0.046489273055308936 0.9859169746603246 0.027030386861251473 0 0 0 0
647571840 -0.043932363840982626 -0.046162616501629374 0.9857155581327744 0.02680051750835268 0 0 0 0
648166488 -0.0437834322244592 -0.04585184887467912 0.9857960470645646 0.027463775896317013 0 0 0 0
648761136 -0.04377445812869995 -0.04598716146673117 0.9861559651905015 0.02530859541747983 0 0 0 0
649355784 -0.04359844624670755 -0.04563587679380629 0.9868614149398206 0.026820563884641484 0 0 0 0
649950432 -0.04338312986413021 -0.0455038423144844 0.9850301211847664 0.025440229237879725 0 0 0 0
650545080 -0.04265905562554534 -0.04516845557489217 0.9859844552617811 0.0260288117961782 0 0 0 0
651139728 -0.042659239793344204 -0.044805848714923935 0.9858450744170706 0.025211726491248906 0 0 0 0
651734376 -0.042931128776030385 -0.04486813919575691 0.9860215543129255 0.027015337282940845 0 0 0 0
652329024 -0.042726596295573176 -0.044966004705313395 0.9857657614263561 0.026163807258021435 0 0 0 0
652923672 -0.0422822184009879 -0.044271072210975086 0.9854385693741015 0.027102362108271594 0 0 0 0
653518320 -0.04226880224201304 -0.044430796245726975 0.9860398062999605 0.026944498314508535 0 0 0 0
654112968 -0.041915172225296844 -0.04389776780170069 0.9856497601857728 0.02764226639688228 0 0 0 0
654707616 -0.04165510802544304 -0.04393999062335517 0.9857844573673413 0.02555977194109633 0 0 0 0
655302264 -0.041630686843866775 -0.043415540040842714 0.9856457350176447 0.025991396101327523 0 0 0 0
655896912 -0.041399336070595205 -0.043609175870543034 0.9859729901778382 0.028069450057045003 0 0 0 0
656491560 -0.04124711501239578 -0.04315597746136184 0.9856504748274856 0.02377412871090844 0 0 0 0
657086208 -0.0409372646454922 -0.04296324716062409 0.9854213879961982 0.027523017793039294 0 0 0 0
657680856 -0.041023318615328846 -0.04274323467308916 0.9859556845582556 0.025717058193177475 0 0 0 0
658275504 -0.04066472907322859 -0.042326537932317235 0.9859173305212162 0.02528943612268398 0 0 0 0
658870152 -0.04053900901750694 -0.0424200129515308 0.9859656552767372 0.026456921796350976 0 0 0 0
659464800 -0.040270998537372045 -0.04229451073851155 0.9850969898535273 0.02433657150028471 0 0 0 0
660059448 -0.03900075030831748 -0.04339181076581185 0.9856013936506823 0.02675369299662065 0 0 0 0
660654096 -0.03844427886573339 -0.042575956252770254 0.9865624107911113 0.027134815714511217 0 0 0 0
661248744 -0.03797017838362158 -0.04302876393842308 0.9858112385255308 0.026086869749428674 0 0 0 0
661843392 -0.03833101460558315 -0.042261854296218045 0.9848036913986026 0.02621874671355371 0 0 0 0
662438040 -0.03804750633153824 -0.04212180046928306 0.9860055266724661 0.02563939970655857 0 0 0 0
663032688 -0.038093339247558006 -0.04199435480290354 0.9849394781582366 0.025718206903677696 0 0 0 0
663627336 -0.038470485097821194 -0.04187889368722758 0.984347744678623 0.026218478402463063 0 0 0 0
664221984 -0.03825853142876861 -0.041691959854718096 0.9856623593878246 0.026544155816367238 0 0 0 0
664816632 -0.038146348619574 -0.041094965218843454 0.9846817691492706 0.026786338900708126 0 0 0 0
665411280 -0.037633588111737726 -0.04069887251543339 0.9858028142845379 0.02624447901015424 0 0 0 0
666005928 -0.037214113838030756 -0.040656161642246245 0.9846615975958823 0.02692912082948585 0 0 0 0
666600576 -0.037379519065477644 -0.040299068429854625 0.986024296901394 0.02521275517526752 0 0 0 0
667195224 -0.036889636019528764 -0.04000182626055607 0.9859574388325235 0.026673910551348427 0 0 0 0
667789872 -0.036812302166594 -0.03997063961918565 0.986139935018418 0.026955222642246215 0 0 0 0
668384520 -0.0363340802678641 -0.03991979893549005 0.9849216508381987 0.025151655039937465 0 0 0 0
668979168 -0.0360820528010576 -0.03965720281245262 0.9852967972521048 0.02653493861974346 0 0 0 0
669573816 -0.03571051425497627 -0.039779515629916724 0.9857205770071351 0.025792815441088274 0 0 0 0
670168464 -0.03578022896151915 -0.0393436518138237 0.9852970811371142 0.023978247444367634 0 0 0 0
670763112 -0.035036400368515255 -0.03928986578889495 0.9852777954154025 0.02605190913159853 0 0 0 0
671357760 -0.03468567892489767 -0.03945298644391016 0.9855156735970425 0.02468001124967592 0 0 0 0
671952408 -0.03489142034001006 -0.039354748630391366 0.9855095530538148 0.02582671673983248 0 0 0 0
672547056 -0.03465356823077322 -0.038896807607808996 0.9850723218406164 0.026064561634170036 0 0 0 0
673141704 -0.03475808061363005 -0.03889820118434415 0.9852825462391216 0.025722754660976274 0 0 0 0
673736352 -0.034049272063265995 -0.0387671437316091 0.9855433825151656 0.025580164132773135 0 0 0 0
674331000 -0.03378897385264658 -0.03894388678343322 0.9847756186964626 0.0266056518583304 0 0 0 0
674925648 -0.03374290773632402 -0.03896178255327281 0.9847472240972619 0.025221905159734156 0 0 0 0
675520296 -0.033217827961198154 -0.03867018611243002 0.9841836753435101 0.02621670947856209 0 0 0 0
676114944 -0.032776611058326716 -0.03859527396642699 0.9851566276248235 0.025103453716641994 0 0 0 0
676709592 -0.03291692754388749 -0.03832019401759196 0.9851212993704859 0.0240935761510389 0 0 0 0
677304240 -0.0325329480918243 -0.03824372630486846 0.9842235294989096 0.026014007239066043 0 0 0 0
677898888 -0.0322828313273721 -0.038276161169574496 0.9854867422805007 0.0238103852378441 0 0 0 0
678493536 -0.03204327775077924 -0.03817440668742938 0.9847676526227965 0.02356460152477507 0 0 0 0
679088184 -0.03201669452862298 -0.037847269277819756 0.9843450424437161 0.025848520037141394 0 0 0 0
679682832 -0.031315277335682526 -0.03825484456163346 0.9850843965631418 0.026919803643676816 0 0 0 0
680277480 -0.03101907358930803 -0.03786683742427689 0.985396795496825 0.026230677663998545 0 0 0 0
680872128 -0.030798451515427983 -0.03785218710343466 0.9852230118445024 0.02586699587293049 0 0 0 0
681466776 -0.030245595756659464 -0.037733413922723356 0.9848853012029152 0.02572966704531241 0 0 0 0
682061424 -0.030660149186922645 -0.03794697894933999 0.9846211590188481 0.024718536643648526 0 0 0 0
682656072 -0.02988436260869379 -0.03774623312457112 0.9841405265242258 0.02626861573439231 0 0 0 0
683250720 -0.029841732704160306 -0.03746041670096389 0.9850679319220289 0.024837754702727147 0 0 0 0
683845368 -0.029120275917361788 -0.03762721759214176 0.9843645284709871 0.02610504766400186 0 0 0 0
684440016 -0.028750883652457062 -0.03793833056662533 0.9852319408278771 0.02563339962547581 0 0 0 0
685034664 -0.0285051936297954 -0.03691545611067322 0.9852785274160939 0.026944309058822488 0 0 0 0
685629312 -0.028041129647466086 -0.03726054235793175 0.98577224886532 0.026244934159729363 0 0 0 0
686223960 -0.02785594056129552 -0.03748683306868596 0.9854199345252191 0.02392793159915379 0 0 0 0
686818608 -0.027498724532493215 -0.03711920847824674 0.9855801019773317 0.02378389692492215 0 0 0 0
687413256 -0.02746171381072054 -0.03723420251637989 0.9849019133151529 0.024919736081596016 0 0 0 0
688007904 -0.027041650052043252 -0.03724570870959658 0.9841671310652345 0.023994648103837196 0 0 0 0
688602552 -0.02709028843025036 -0.0371007984940289 0.985264035439905 0.02578741704402567 0 0 0 0
689197200 -0.02632642741889594 -0.03741573758997165 0.9856007691528551 0.024820998579963532 0 0 0 0
689791848 -0.026052197320293593 -0.03712252020485827 0.9838798122572051 0.024503259278133717 0 0 0 0
690386496 -0.025698914690286758 -0.03718768058673453 0.9856363877840725 0.025469839035912684 0 0 0 0
690981144 -0.025376323605828494 -0.037249736864603096 0.9854152178912104 0.024284021839934937 0 0 0 0
691575792 -0.025527131256524716 -0.03720917324214625 0.9851733311491232 0.024499016148579807 0 0 0 0
692170440 -0.025077846036125617 -0.037266448731014 0.9849410456591635 0.02398497130238523 0 0 0 0
692765088 -0.024731049095457012 -0.03723148041074922 0.9846682251127375 0.024633486464786487 0 0 0 0
693359736 -0.0244092110942953 -0.03704441856869846 0.98502866308639 0.02532204384220253 0 0 0 0
693954384 -0.024100380806846275 -0.036953648137942954 0.9849313186431017 0.022385242745038787 0 0 0 0
694549032 -0.02352038265913701 -0.03699838707145413 0.9844847528836702 0.02345000764157641 0 0 0 0
695143680 -0.02352469968067456 -0.03708933813580121 0.9856429756611469 0.024430383961869542 0 0 0 0
695738328 -0.023134081022418068 -0.03730902382306415 0.9852528131163408 0.02400702925846921 0 0 0 0
696332976 -0.022931699303347576 -0.03734442633168308 0.9852542492208761 0.024800801494912515 0 0 0 0
696927624 -0.022272633343226423 -0.0370991285169275 0.9855111677506193 0.02436796524394503 0 0 0 0
697522272 -0.02196219295891213 -0.037552095209168995 0.9851766130124048 0.024840704550596532 0 0 0 0
698116920 -0.021743831938940156 -0.03744874227522877 0.9850491153903994 0.02350753190896209 0 0 0 0
698711568 -0.021266326210061467 -0.037290474100553875 0.9852558245540489 0.024956803831999743 0 0 0 0
699306216 -0.02115957037226278 -0.03735951120975183 0.9846436845925409 0.02549463997993417 0 0 0 0
699900864 -0.020658130438765618 -0.03752600174106545 0.984370737343198 0.02326727845948316 0 0 0 0
700495512 -0.020407274241896308 -0.03767001042709476 0.9851321906448628 0.023965783293200416 0 0 0 0
701090160 -0.0206216862806633 -0.03776105259637268 0.9855281879928821 0.024040870278942868 0 0 0 0
701684808 -0.01986373978916534 -0.037578555668147176 0.9848820977943035 0.02456679644807994 0 0 0 0
702279456 -0.019953845940721467 -0.037936914501135545 0.9850847826564771 0.022489193636822676 0 0 0 0
702874104 -0.01933492474181453 -0.03796217061623677 0.9847020902393971 0.024953707758284975 0 0 0 0
703468752 -0.019039508732782356 -0.038160388175881986 0.9852933436125713 0.024319451872097914 0 0 0 0
704063400 -0.01858106584613463 -0.03792478768217659 0.98475368618142 0.024273365291549685 0 0 0 0
704658048 -0.018526076418692347 -0.038253185359230106 0.9853194641355912 0.023837582787798833 0 0 0 0
705252696 -0.01808516831601309 -0.03852912286116309 0.984083054125959 0.023832378797914507 0 0 0 0
705847344 -0.01808518116279205 -0.03849345649359501 0.9846469808239284 0.022799258268834877 0 0 0 0
706441992 -0.017687219629694682 -0.03867372927822958 0.9840606942520608 0.0228118170588759 0 0 0 0
707036640 -0.017462727565073246 -0.03828263596601781 0.9849578925583516 0.02482141350582023 0 0 0 0
707631288 -0.01726726066850666 -0.038544242259578095 0.9851626652850083 0.021811807620187914 0 0 0 0
708225936 -0.016978715151122103 -0.038830799941732316 0.9844884709804557 0.02362208691518009 0 0 0 0
708820584 -0.016594718674508326 -0.038944971076540214 0.9850923780774771 0.022240754136844655 0 0 0 0
709415232 -0.01631057623663802 -0.03872653420856272 0.985028014320568 0.02328830250632957 0 0 0 0
710009880 -0.01620837883364809 -0.039130837056534945 0.9838473383063997 0.02385796094788739 0 0 0 0
710604528 -0.015534186886898886 -0.03925759264122015 0.9850547320510633 0.02528490738758477 0 0 0 0
711199176 -0.015486986686044143 -0.039308100257868926 0.9848285432667152 0.023908002001270325 0 0 0 0
711793824 -0.015322513863738653 -0.03949623826323265 0.9850697590765789 0.022405507231232948 0 0 0 0
712388472 -0.014865277756786562 -0.03948548843843041 0.9849731847790579 0.02267090162339002 0 0 0 0
712983120 -0.014516372127127272 -0.03951314039359986 0.9840401016565796 0.02466803282321124 0 0 0 0
713577768 -0.014335246872444973 -0.03969998024596924 0.9846012257797713 0.02318456691271182 0 0 0 0
714172416 -0.014177348602739637 -0.03987454491539922 0.985147096711917 0.022073417154996295 0 0 0 0
714767064 -0.014093682082851004 -0.04016407929029468 0.9842822337503084 0.023889603133904126 0 0 0 0
715361712 -0.013550060679775332 -0.04031817055275548 0.9853078579031246 0.02512690913339216 0 0 0 0
715956360 -0.013460933430022819 -0.04043165895883735 0.9831020880489482 0.023376581279297818 0 0 0 0
716551008 -0.013069909144248725 -0.04080485521950803 0.9838697199467569 0.022207726715272103 0 0 0 0
717145656 -0.012927703560124541 -0.0408103237577899 0.9851846542942894 0.02307442249749397 0 0 0 0
717740304 -0.012636495804770737 -0.041186578242386744 0.9841856943809991 0.023449477247625278 0 0 0 0
718334952 -0.012408645292473578 -0.0412642171394487 0.9836015609044085 0.02290503599607135 0 0 0 0
