# HZ S RI R 50
600000000 -0.13474057118479343 -0.3932827276708316 0.5211292380901633 0.7391617419296749 0 0 0 0
600594648 -0.13459032986499717 -0.39237491473876446 0.5224848268235529 0.7379641567554441 0 0 0 0
601189296 -0.1349389879779927 -0.3918601416185555 0.5230666058555907 0.7373719254802401 0 0 0 0
601783944 -0.13616955024421587 -0.3915399674017543 0.5238377679569662 0.736936598059593 0 0 0 0
602378592 -0.13527267616456576 -0.391389216701159 0.5236138015516565 0.7380947848347332 0 0 0 0
602973240 -0.13589616044128555 -0.39067673084931703 0.5253830451396052 0.7362943564267269 0 0 0 0
603567888 -0.1360485022922431 -0.3901746328112922 0.5260900438861679 0.7364723586150997 0 0 0 0
604162536 -0.13649542674627174 -0.38981459516133354 0.5278988295862747 0.7345761882799309 0 0 0 0
604757184 -0.13667739232325712 -0.38975177390780086 0.527914314709185 0.7356373800626924 0 0 0 0
605351832 -0.13669511236267082 -0.38783549918776594 0.5283900965722935 0.7344790392533171 0 0 0 0
605946480 -0.1372470264290229 -0.38804856917540925 0.5298718630658728 0.7335982354276148 0 0 0 0
606541128 -0.13803114827852153 -0.3881212505668139 0.5302830092446341 0.7343998780905887 0 0 0 0
607135776 -0.13764370415792784 -0.3877891883108555 0.5311105993869608 0.7337480483570592 0 0 0 0
607730424 -0.1386564373319023 -0.386158756950561 0.5320580412174644 0.732055688627733 0 0 0 0
608325072 -0.1379783799079676 -0.3859561668717305 0.5323966160338612 0.7331397547494234 0 0 0 0
608919720 -0.13816551540433267 -0.38508860051222493 0.5342604298133216 0.7313723655657931 0 0 0 0
609514368 -0.13946440469150143 -0.38487445873194065 0.5343193010080751 0.7309725115907727 0 0 0 0
610109016 -0.1390875581153186 -0.3836255997018553 0.5351166658133061 0.7310195293248385 0 0 0 0
610703664 -0.13907763163344336 -0.3832095811117177 0.535142734414175 0.7310064244805716 0 0 0 0
611298312 -0.13882162665486775 -0.3827929376808835 0.5370141177487849 0.7308141222522324 0 0 0 0
611892960 -0.13899840397060026 -0.3818400124960939 0.5376761961957104 0.729498498039443 0 0 0 0
612487608 -0.14065065895525306 -0.38150229813159375 0.5387491157809856 0.7284509633459271 0 0 0 0
613082256 -0.1400035164854701 -0.3810622922891444 0.5394278349683282 0.7292377975816436 0 0 0 0
613676904 -0.14033558858117817 -0.38022888459869464 0.5404324541703883 0.7287567580644391 0 0 0 0
614271552 -0.1420206985667347 -0.3802460331294712 0.5414292025983377 0.7281422355263769 0 0 0 0
614866200 -0.14198732177969328 -0.37989747257890216 0.5410962902034487 0.7281795454927767 0 0 0 0
615460848 -0.14255193664293786 -0.3785535567378014 0.5442806982330741 0.7267239522531096 0 0 0 0
616055496 -0.1427878313024151 -0.37759500061000856 0.5435566411421713 0.7273851016305015 0 0 0 0
616650144 -0.14298282449442565 -0.3775203812115289 0.544820299499275 0.7260743948673314 0 0 0 0
617244792 -0.14214001396990453 -0.3762207241374779 0.5440900857937978 0.7261387935617284 0 0 0 0
617839440 -0.1426917693577886 -0.3763410668943703 0.5449505378617587 0.7257277580399377 0 0 0 0
618434088 -0.14372759896793527 -0.37554454581697705 0.5474522401157471 0.7241185724010797 0 0 0 0
619028736 -0.14376356917819955 -0.375055376608102 0.5468276510772583 0.724264605060217 0 0 0 0
619623384 -0.14420745314931208 -0.3743651178141956 0.5482281377948099 0.7242947121392647 0 0 0 0
620218032 -0.14432833629559164 -0.3738363603317329 0.5503373182395712 0.7233680362761032 0 0 0 0
620812680 -0.1450727041439899 -0.37371782768677747 0.5491233271729501 0.7239039560497079 0 0 0 0
621407328 -0.14500250824874522 -0.37234759114474464 0.5504411869369652 0.7233081127713129 0 0 0 0
622001976 -0.14506335074770138 -0.37245010161116193 0.5503278240697955 0.722424425355379 0 0 0 0
622596624 -0.14600844060316626 -0.3711153621889417 0.5510679451598626 0.7219685755286822 0 0 0 0
623191272 -0.14572352176463216 -0.3702202297935022 0.5528744385871274 0.7227385031506175 0 0 0 0
623785920 -0.14552900164659488 -0.3700758120666617 0.5536701391093726 0.7211102314577191 0 0 0 0
624380568 -0.14573633475730186 -0.36965153030516146 0.5537650027834281 0.722266464555957 0 0 0 0
624975216 -0.14629467476453314 -0.3693409851782056 0.5552405503416693 0.7202171302529069 0 0 0 0
625569864 -0.14642061026342137 -0.36820616161497394 0.5555044710915915 0.7202831072410152 0 0 0 0
626164512 -0.1460182636270297 -0.36787999746391703 0.5558758814047033 0.7197040634047176 0 0 0 0
626759160 -0.14684851797648088 -0.36716080940336243 0.5566608891417797 0.7201585037791821 0 0 0 0
627353808 -0.14693518459898966 -0.36646076194325317 0.5577780428024284 0.7194035416591853 0 0 0 0
627948456 -0.14735962032086225 -0.3657888317572209 0.5593876666926483 0.7184491175302181 0 0 0 0
628543104 -0.14741601624455772 -0.3652556299212915 0.5594770697147593 0.7181787269786607 0 0 0 0
629137752 -0.14760957925196871 -0.3649563683289242 0.5603786791213783 0.7182370701644769 0 0 0 0
629732400 -0.14845319808019913 -0.3637158070661985 0.5602372862607846 0.7168685160673827 0 0 0 0
630327048 -0.14822940906805787 -0.363222035846241 0.560963643840922 0.7181410870389606 0 0 0 0
630921696 -0.1486632268284745 -0.3630117523887082 0.5634489994767644 0.7159758722023585 0 0 0 0
631516344 -0.1489887975135215 -0.36177758002940835 0.5635601340508821 0.717155514640312 0 0 0 0
632110992 -0.14915109557395087 -0.36148096364818055 0.5646542034283526 0.7159334444863376 0 0 0 0
632705640 -0.1492313515480131 -0.36125745366627465 0.5631977941662708 0.7155334669886929 0 0 0 0
633300288 -0.14958532565611707 -0.3606005834820925 0.5660279769124471 0.7154201849802306 0 0 0 0
633894936 -0.1497801109175382 -0.3596821555882223 0.5668783600899536 0.7150967361588186 0 0 0 0
634489584 -0.1501375631808926 -0.35951551510832525 0.5662065663251087 0.7145255880765626 0 0 0 0
635084232 -0.1507406696180605 -0.35813844834212927 0.5680683088499183 0.7128485997244524 0 0 0 0
635678880 -0.150686998519233 -0.3582798033922509 0.5695387221007008 0.7129845121063176 0 0 0 0
636273528 -0.15050904296769552 -0.3570129557358412 0.5688456186332551 0.7135647611579301 0 0 0 0
636868176 -0.1507510960817029 -0.3568695495089508 0.5689683845494411 0.7126460503763605 0 0 0 0
637462824 -0.15117025632111564 -0.356359614078149 0.5699109391081741 0.712926842370776 0 0 0 0
638057472 -0.15110227920088998 -0.3549539419122008 0.5714722687711852 0.7133291454455217 0 0 0 0
638652120 -0.1519011483010588 -0.35468716024123964 0.5715549133209878 0.7110861862389596 0 0 0 0
639246768 -0.15224796245077388 -0.35393211266320057 0.5733998646620191 0.7105138162148154 0 0 0 0
639841416 -0.15183789838847078 -0.35313413512991526 0.5737739280959085 0.7104680848739864 0 0 0 0
640436064 -0.15218382160252825 -0.35222522122797084 0.5731339490325448 0.7109503883835379 0 0 0 0
641030712 -0.15221349858717306 -0.35230332312972246 0.5744122016545304 0.71012028296677 0 0 0 0
641625360 -0.15287860075521295 -0.3514960441408479 0.5758393302888911 0.7093623059700283 0 0 0 0
642220008 -0.15323320433016446 -0.3507593057717927 0.5757212611692216 0.7091364628194458 0 0 0 0
642814656 -0.15257013414231918 -0.35039947667226845 0.5768127691914118 0.7090282672525393 0 0 0 0
643409304 -0.15393191485796384 -0.34940099995667123 0.5772049577500509 0.7090867679225196 0 0 0 0
644003952 -0.15383546134522955 -0.3492400967001791 0.5783049857686083 0.7088597552877114 0 0 0 0
644598600 -0.1544802885272973 -0.34782273785608114 0.5796503243460087 0.7071466622766714 0 0 0 0
645193248 -0.1540827272610269 -0.34741869332936326 0.5796306880348742 0.7083768664071183 0 0 0 0
645787896 -0.15393592437029993 -0.34696847566138694 0.578747939677504 0.7079555191316277 0 0 0 0
646382544 -0.15509702622389787 -0.3459550024793553 0.5817327553890037 0.7063751582722243 0 0 0 0
646977192 -0.1552904452477069 -0.34567879550523234 0.5815541900285509 0.7064317407650638 0 0 0 0
647571840 -0.15514580532311922 -0.34498992825395963 0.5818684026131866 0.7060310398680384 0 0 0 0
648166488 -0.15522750651934636 -0.34390718028852935 0.5835800028975001 0.705370839994152 0 0 0 0
648761136 -0.1560284000388456 -0.34315576382125285 0.5847556952072573 0.7049817770850385 0 0 0 0
649355784 -0.15574181493006206 -0.34325473675073565 0.5852251009113165 0.7042946462684361 0 0 0 0
649950432 -0.15566511813181444 -0.34262389218477096 0.5855668177631976 0.7048314846490153 0 0 0 0
650545080 -0.15612125426718182 -0.3417313597941539 0.5849315359484212 0.7055420180982475 0 0 0 0
651139728 -0.15638856697971396 -0.34092804777431424 0.5864250593326226 0.7037420320385046 0 0 0 0
651734376 -0.15645654410838536 -0.34037169623996916 0.5871002935886608 0.7040956448131814 0 0 0 0
652329024 -0.1565954050608501 -0.3394034702687667 0.5878228782175341 0.7033551181251331 0 0 0 0
652923672 -0.15769163996221222 -0.3384031896859523 0.5882317535243048 0.7030997750212319 0 0 0 0
653518320 -0.1575620291051952 -0.33834890116245797 0.5896338951038297 0.7030331855828124 0 0 0 0
654112968 -0.1581870882396858 -0.33773561767913846 0.5900013695391065 0.7027458402603114 0 0 0 0
654707616 -0.15824722702764918 -0.33685047806617824 0.5923140299259664 0.7005100448071291 0 0 0 0
655302264 -0.15757392159628067 -0.3359689202318117 0.5908360812245348 0.7018815089828465 0 0 0 0
655896912 -0.1586727977414399 -0.3356573603470407 0.5927714140113612 0.7017869030476804 0 0 0 0
656491560 -0.15784058563954384 -0.33383113699923644 0.592769725051381 0.7012538469707873 0 0 0 0
657086208 -0.15893061605413425 -0.33422453763558113 0.5948048215073934 0.6997968013833241 0 0 0 0
657680856 -0.15860777122920147 -0.33324824955198995 0.5950730371422025 0.699745611040891 0 0 0 0
658275504 -0.1588079230956163 -0.331943215432743 0.5971967956800291 0.6991698113189039 0 0 0 0
658870152 -0.15944935660698312 -0.3317856169071231 0.5958308244410949 0.6999789923806571 0 0 0 0
659464800 -0.1586930107579298 -0.33100501430254997 0.5965280515990024 0.6999840954352045 0 0 0 0
660059448 -0.1605406970893811 -0.3330740644175429 0.5966720279493597 0.6985303299907067 0 0 0 0
660654096 -0.1598821779936829 -0.3309378665965658 0.5976973476487242 0.6982974344383777 0 0 0 0
661248744 -0.1594301246344267 -0.3305547522310379 0.5992273302579255 0.6968226291085443 0 0 0 0
661843392 -0.15872730303494287 -0.3293184453479899 0.5999004916005064 0.6970014250250477 0 0 0 0
662438040 -0.15936484116840902 -0.32826321554280175 0.5991107315261787 0.6966006135665259 0 0 0 0
663032688 -0.15962839965188377 -0.3274611023890378 0.6015914147974168 0.6955338872770521 0 0 0 0
663627336 -0.15954564154921339 -0.3271350471937874 0.602648489003495 0.6945582269419958 0 0 0 0
664221984 -0.16003419378268025 -0.3261640234721052 0.6031697949032523 0.695763914763062 0 0 0 0
664816632 -0.15924290614281925 -0.32510399606330614 0.6020783894597848 0.6958496802465314 0 0 0 0
665411280 -0.15897897450200674 -0.32427751866006 0.6025181118175387 0.6953173589616289 0 0 0 0
666005928 -0.15991198074361287 -0.3241682876998787 0.604364046689365 0.6940719795881448 0 0 0 0
666600576 -0.15968832644354294 -0.32265406558108706 0.6052194179196443 0.6940837097155909 0 0 0 0
667195224 -0.15954619364793876 -0.322328557017893 0.6049946335559571 0.694682009473177 0 0 0 0
667789872 -0.16038181260352452 -0.32123884463547386 0.6059092271814762 0.6936032222588073 0 0 0 0
668384520 -0.16061975943014545 -0.3203731970509069 0.6074737442746617 0.6928682531657235 0 0 0 0
668979168 -0.1595411496255538 -0.3200533471064851 0.6063781792943257 0.6942526566057097 0 0 0 0
669573816 -0.16021369837762706 -0.3191760501502788 0.608309629584694 0.6926905806454413 0 0 0 0
670168464 -0.16051328845053256 -0.31766895120903416 0.6087081691573509 0.6914996377429057 0 0 0 0
670763112 -0.160825573008273 -0.31766954601447134 0.6095029945062316 0.6921329274540002 0 0 0 0
671357760 -0.16107570937771307 -0.3170799485738197 0.6111275958294832 0.6913983346286615 0 0 0 0
671952408 -0.16109640976472236 -0.31651285499998 0.6123033845293645 0.6903306063000811 0 0 0 0
672547056 -0.16116198599222695 -0.31559610317756964 0.6111311110788525 0.6906085202683432 0 0 0 0
673141704 -0.16197187368433083 -0.31472780454056015 0.6122331543885857 0.689487262695463 0 0 0 0
673736352 -0.16143464984176298 -0.31466576673270497 0.6125830041076484 0.690659702404952 0 0 0 0
674331000 -0.16103329637622754 -0.3135705584071114 0.6145126185721358 0.6907128048053509 0 0 0 0
674925648 -0.1615212062449136 -0.3125369428741341 0.6147070530906785 0.6892270732760374 0 0 0 0
675520296 -0.16106680302385543 -0.3128155172594457 0.6158019473740326 0.689775453463524 0 0 0 0
676114944 -0.16121127680800362 -0.31136288778164956 0.6158530232662193 0.6902988419671825 0 0 0 0
676709592 -0.16153652252013642 -0.31067542088498745 0.6164313296275395 0.6892933069292208 0 0 0 0
677304240 -0.16176301009166633 -0.3093976674095923 0.617190908439752 0.6888120995202313 0 0 0 0
677898888 -0.16175339005671716 -0.3088018541886075 0.6181294256058145 0.68854334658036 0 0 0 0
678493536 -0.16172566588040216 -0.3083905202403612 0.6189716055711421 0.6878346463495492 0 0 0 0
679088184 -0.1619192552084893 -0.30777613683956384 0.6201603316047875 0.6868873299200543 0 0 0 0
679682832 -0.16204430751274565 -0.30645594398110254 0.6206860547950627 0.6863304043862745 0 0 0 0
680277480 -0.16166200024010685 -0.3061475747887507 0.6221245006606061 0.6868781998214771 0 0 0 0
680872128 -0.162452508650443 -0.3055769544163012 0.6219703459193167 0.68744911122602 0 0 0 0
681466776 -0.16260958697877093 -0.30486646160086256 0.622462633726879 0.6850165420118989 0 0 0 0
682061424 -0.16256681314467641 -0.3043321614384773 0.6224311156921307 0.6869765505456576 0 0 0 0
682656072 -0.1623706662834739 -0.3031204007191708 0.6239509342876821 0.6854560764649461 0 0 0 0
683250720 -0.16240029251458088 -0.30246756677152375 0.6243347614893711 0.6854479976578298 0 0 0 0
683845368 -0.16183779473311097 -0.30199417024048564 0.6257659887271855 0.6839560723719325 0 0 0 0
684440016 -0.16347731959106937 -0.3013600105146009 0.6263934503440917 0.6839601112831788 0 0 0 0
685034664 -0.16337168560146081 -0.30027516674903526 0.6269482440199925 0.6843382043986401 0 0 0 0
685629312 -0.16147914400402696 -0.29992426847137127 0.627341114923054 0.6846031493693792 0 0 0 0
686223960 -0.16304238257561668 -0.2991710019594781 0.6295088126443489 0.682125364583435 0 0 0 0
686818608 -0.16161498901477575 -0.29852383454281 0.6292272105270447 0.6833201607495505 0 0 0 0
687413256 -0.16320908628400257 -0.297694090051347 0.6285817760629226 0.6835473597244031 0 0 0 0
688007904 -0.16255878236438545 -0.2976153122462087 0.6306601858741387 0.6827303721224608 0 0 0 0
688602552 -0.1621753455572381 -0.296272331451636 0.6306765811574429 0.6826021849805725 0 0 0 0
689197200 -0.1627822165588728 -0.29560623617427795 0.6321979715746927 0.6818173220483355 0 0 0 0
689791848 -0.16272130228083898 -0.29536288375503034 0.6337508591346213 0.6800085552394232 0 0 0 0
690386496 -0.16187413014597823 -0.2941426442485031 0.6331961480021892 0.6805441988653625 0 0 0 0
690981144 -0.16161167711522464 -0.29376631193177405 0.6336761933933517 0.6804479467413941 0 0 0 0
691575792 -0.16178153130448625 -0.2933770140729294 0.6338506699409403 0.6805995908374894 0 0 0 0
692170440 -0.16246054334459095 -0.2921948581538797 0.6365911558730297 0.6789198089056211 0 0 0 0
692765088 -0.16196795041405165 -0.29176521816073364 0.6361008538974131 0.679214116538531 0 0 0 0
693359736 -0.1619706583316438 -0.29154189584771545 0.6368064851508485 0.6791679491140119 0 0 0 0
693954384 -0.16211791065329875 -0.29011741856555345 0.6382467949304308 0.6781107194463787 0 0 0 0
694549032 -0.16233091697202837 -0.2894922873821875 0.638047715008299 0.6787554484944517 0 0 0 0
695143680 -0.16230987068272695 -0.2895348996688892 0.6401277401696034 0.6768486210312729 0 0 0 0
695738328 -0.16165346167294312 -0.2885935771305587 0.6399021491704293 0.6771635877932427 0 0 0 0
696332976 -0.1619086938783795 -0.2876694696862671 0.6402807398434401 0.6774195980684398 0 0 0 0
696927624 -0.16146618841185537 -0.2873965893598914 0.640858711800019 0.6767637259116994 0 0 0 0
697522272 -0.16214928773025905 -0.2866134104004502 0.6419683249347774 0.6763977497130134 0 0 0 0
698116920 -0.16215579008979353 -0.28585744986773326 0.6433549100946402 0.6755637064097367 0 0 0 0
698711568 -0.1621011043178696 -0.2850592713275454 0.643750064165385 0.6751838491724305 0 0 0 0
699306216 -0.16223193744746844 -0.28465873854873075 0.6446323860983599 0.6745978532316602 0 0 0 0
699900864 -0.162138083700203 -0.28405655278276387 0.6455693858697242 0.6752255321295645 0 0 0 0
700495512 -0.16202858505658188 -0.28342804493201373 0.6454764852726715 0.6749614446138836 0 0 0 0
701090160 -0.1611945398467582 -0.282864738924385 0.646137631500957 0.6739125964962612 0 0 0 0
701684808 -0.1618121608189079 -0.28236999481668734 0.6475913484062203 0.6735254900399847 0 0 0 0
702279456 -0.16145423111533846 -0.2814027073883262 0.6487729650157864 0.6731272572025185 0 0 0 0
702874104 -0.1614102403229153 -0.2808637363901845 0.6488031490144094 0.6737244914939834 0 0 0 0
703468752 -0.1614238168020551 -0.28009851194135077 0.649632364886287 0.6710178951882251 0 0 0 0
704063400 -0.16133931605405022 -0.2799374993721749 0.6506305302508393 0.6710050330287222 0 0 0 0
704658048 -0.16115876646650032 -0.27927007299713885 0.6509574756648737 0.6714722088473692 0 0 0 0
705252696 -0.16040325296904304 -0.2785536914044977 0.6526992186506959 0.6708888430187329 0 0 0 0
705847344 -0.16104407600506315 -0.27801569777932345 0.6530394867482023 0.6705631131748179 0 0 0 0
706441992 -0.1612058224374299 -0.2772653359319071 0.653070042257374 0.669807628551264 0 0 0 0
707036640 -0.1605113347675578 -0.2763350239641137 0.6543909573035678 0.6697650274759059 0 0 0 0
707631288 -0.16069496621813018 -0.27576129189156134 0.6554869991689202 0.668664735822603 0 0 0 0
708225936 -0.16016322392951507 -0.2753536558853094 0.6553423745288371 0.6689394057224354 0 0 0 0
708820584 -0.16036177645056132 -0.2752902086890476 0.6562551022337529 0.6675577118828746 0 0 0 0
709415232 -0.16000838613834045 -0.27424147150466904 0.6552002359812934 0.6689235231229493 0 0 0 0
710009880 -0.1598819694379079 -0.273888909644147 0.6569927304806883 0.667486749502499 0 0 0 0
710604528 -0.15950590817318439 -0.27341285018857503 0.659609171712165 0.6670229176867035 0 0 0 0
711199176 -0.16044639786494322 -0.27243698064961286 0.6595868405117638 0.6671648868083293 0 0 0 0
711793824 -0.15900807654467208 -0.27215468964230477 0.6593392758858804 0.665815323611861 0 0 0 0
712388472 -0.15951257888978365 -0.27154640594979174 0.6596924081908457 0.6661249875975541 0 0 0 0
712983120 -0.15861667123895926 -0.2711801635031587 0.6611871943686155 0.6643682686657595 0 0 0 0
713577768 -0.15905821765625738 -0.27073350296747495 0.6625505253578504 0.663696647777657 0 0 0 0
714172416 -0.15791206951677259 -0.27034674043627954 0.6622710324433458 0.6640701152716729 0 0 0 0
714767064 -0.15868346872090228 -0.2694503216932426 0.6631769731986893 0.6643104994822193 0 0 0 0
715361712 -0.15906731792964507 -0.2687978813401911 0.6650887894240518 0.6634284000644076 0 0 0 0
715956360 -0.15800242106131782 -0.2684978859737356 0.6626961629622463 0.6631411576828596 0 0 0 0
716551008 -0.1588593138426446 -0.2680626761969749 0.6654686590710326 0.6634052755010248 0 0 0 0
717145656 -0.15829022598049422 -0.26793284135454093 0.6677875593198583 0.661383333800811 0 0 0 0
717740304 -0.15778146431370024 -0.2667545106769695 0.6674539666776603 0.6608101934182535 0 0 0 0
718334952 -0.15724082512201906 -0.2662237064860006 0.6672986586523915 0.6616492779540697 0 0 0 0
718929600 -0.1568828320166837 -0.26611741525566607 0.6687196256234086 0.6617568643189099 0 0 0 0
719524248 -0.15706744907413345 -0.2656563861750979 0.6702759748743342 0.6587182573144814 0 0 0 0
720118896 -0.15615202299989928 -0.26476539525146864 0.6696931861012251 0.6595687406618924 0 0 0 0
720713544 -0.1557769304416631 -0.26455327698099984 0.6703128192456437 0.6601736785046373 0 0 0 0
