!Stimulus Real(S11) Imag(S11) Real(S21) Imag(S21) Real(S12) Imag(S12) Real(S22) Imag(S22)
# HZ S RI R 50
600000000 -0.04323434591963682 -0.0652878924166762 0.9961778686401318 0.02980239091203512 0.9937465199594101 0.046888156819353946 -0.04164217471001189 -0.06080882549410193
600594648 -0.043583382974404845 -0.06505940336602205 0.9956012322029238 0.028505866572153173 0.9944671785689098 0.045309526339472855 -0.04154586095498725 -0.05976651773648312
601189296 -0.04339739240852275 -0.06497388298373624 0.9952369959758774 0.02867267665275478 0.9940225893611286 0.045758452654488246 -0.04145842847346262 -0.05975462507980829
601783944 -0.04341962159952037 -0.06539937756374431 0.9946962376537644 0.029295337812750392 0.9937953616090617 0.04532673337911297 -0.041470359804743756 -0.05999539255156416
602378592 -0.04307335789020086 -0.06534988990926824 0.995782785685612 0.02999888465869657 0.9937230327317128 0.047281148172760745 -0.041249123422546184 -0.05978740125575994
602973240 -0.043476429684149616 -0.06533270901568818 0.9957494365603689 0.02950762086571965 0.9943461700583924 0.04661885083967212 -0.041575473822972046 -0.05932384674366202
603567888 -0.04290757656094359 -0.06496088916760819 0.9952817033003329 0.029328472392492234 0.9945360392523293 0.04584296315094084 -0.04090707915265548 -0.05925381045353392
604162536 -0.043363088992491805 -0.06454458088473349 0.9954037132111466 0.027960712418759023 0.994268566374225 0.04506014680328626 -0.0414995662612313 -0.05934416811469001
604757184 -0.04336771209305146 -0.06465293217536612 0.9955416290643427 0.02939605618046669 0.9944812089657443 0.048280171220004844 -0.04130524608017545 -0.0591069464034461
605351832 -0.04327636512232078 -0.06396028309257835 0.9951917730070811 0.028916869110310554 0.9943252838042791 0.04634310650081268 -0.04160873762690612 -0.058343428655863186
605946480 -0.0433991528162567 -0.0639484842760477 0.9951176588003714 0.028268962115984054 0.9938468489690626 0.04545335670985862 -0.04166425406046741 -0.05833491748267668
606541128 -0.043785494035988186 -0.0632275641816975 0.9954031565834259 0.030050378330352116 0.9936827064995118 0.04665464809818298 -0.04144153917696425 -0.05766800887830758
607135776 -0.04365607369284631 -0.06343446012019983 0.9952905551125462 0.031211812198395566 0.9937865705715723 0.04732005993916075 -0.04149786324559496 -0.05774838783705866
607730424 -0.043621101824716464 -0.06267710130081769 0.9950543161079136 0.02843184686997769 0.9935029379489507 0.04438568372454535 -0.04168574907360897 -0.05673668809563069
608325072 -0.04383077086607748 -0.06287172648392302 0.9956936522930192 0.02987835840274881 0.9941593332434735 0.04675881632358508 -0.041925133313025074 -0.05659442248341273
608919720 -0.04371397639926605 -0.06249792537049226 0.9949013690835622 0.028366295826093273 0.9937952465793981 0.04516000558382018 -0.04203737303605401 -0.05635111382655058
609514368 -0.04422869532404445 -0.06196671154393645 0.9948788452593538 0.02908013674096141 0.9938395598240435 0.04586953577995637 -0.042307656948649526 -0.0559124812625114
610109016 -0.044118045801352375 -0.06205629178858406 0.995795993126852 0.02830066097481676 0.9946925533950021 0.04549922664510616 -0.04234929607347621 -0.056090857724314644
610703664 -0.04391546717094295 -0.061426825306686125 0.9953763891718364 0.03043723865431466 0.9941355264834929 0.047071271110681365 -0.042079653406358115 -0.055427997771509724
611298312 -0.0437996156553584 -0.06163861485713785 0.9955557532126061 0.02850699276893435 0.9944415714815736 0.04617501641621692 -0.0421968496593941 -0.05505880544301145
611892960 -0.04385134285906785 -0.06071365411462295 0.9949741449121606 0.027379732742511848 0.9939249199658432 0.04558434181350365 -0.04205314709808553 -0.054635027480143164
612487608 -0.04443043815483766 -0.060982543930850376 0.9953131320178418 0.0280722163639033 0.993638098822062 0.044130858340881284 -0.04281831452863225 -0.054208824892420994
613082256 -0.0441073790812532 -0.060229473979783975 0.9957838756322752 0.027666435200781915 0.9944578659019472 0.045511277850376924 -0.042295089642651065 -0.053842488816631465
613676904 -0.0443363500737144 -0.06008080011096786 0.9952384639214044 0.029250518639363378 0.99426702876316 0.045858021536641536 -0.042792097282550866 -0.053709576762475
614271552 -0.045057877576633903 -0.060427750004470634 0.9956685925073369 0.029104920421699407 0.9946073925335209 0.04636753199735957 -0.04329914112417376 -0.05359256654605752
614866200 -0.04492565831644113 -0.05994817787249571 0.9948050383279524 0.03025956008031524 0.9941595894472743 0.05124003804921739 -0.042109183006841404 -0.05312655857378981
615460848 -0.04486055455055311 -0.05937315308037399 0.9957658689742087 0.02940220009205336 0.9951049066173057 0.0497676115051458 -0.042466039167120884 -0.052458167357166685
616055496 -0.04489219640811851 -0.05901260460385057 0.9970825195924469 0.0294360123468294 0.9954006037483235 0.05077171349790586 -0.04267607094843971 -0.05156361343269141
616650144 -0.04500226900508645 -0.0589077118422467 0.9957396615795675 0.029132512048160874 0.994215525411451 0.0512274140255918 -0.04219315694732502 -0.05176653962592868
617244792 -0.044656685703422745 -0.05809854870741374 0.994949673446167 0.030351641569885124 0.9943720383512478 0.05097317365665922 -0.04218410317652465 -0.051163057521648306
617839440 -0.045071325554377074 -0.05813956601670817 0.9952817634590584 0.02964278873041574 0.9947622363678122 0.05270034162009253 -0.04241788422194335 -0.05106801137824225
618434088 -0.04523370899485583 -0.05794638504823277 0.9950138927498529 0.027295771875932337 0.9944697128448311 0.049961310676157646 -0.04251205172696457 -0.05081131784607229
619028736 -0.04530002349205034 -0.05745881524588236 0.9945664397366405 0.02899372239104645 0.9941423409759017 0.05159703798824497 -0.042484613834684284 -0.05020802828149631
619623384 -0.045213258144247356 -0.057020385056361 0.9954143630230502 0.02818476441852368 0.9944580838678235 0.050133399740378 -0.0428040131813453 -0.04981868675415101
620218032 -0.04523449777857872 -0.05696976731397821 0.996016280457596 0.027327679006179537 0.9955439498365805 0.04991262211598084 -0.042616881532349445 -0.049858920315901244
620812680 -0.04537767533166103 -0.05677052030423526 0.995650710771645 0.029130958983102702 0.994262678698201 0.05143206522304364 -0.042834411794677486 -0.04946203610107349
621407328 -0.045268504028721825 -0.056296990441279324 0.9962104683330634 0.02687902200994072 0.9948384635121702 0.05117314912094541 -0.0427341555772244 -0.04865070804984146
622001976 -0.04530502678333041 -0.05632900425062291 0.9944999918792052 0.02753177375655739 0.9930424261236865 0.05144826564462733 -0.04284041217294656 -0.04892298824614505
622596624 -0.04510098597782956 -0.05576337304545066 0.9951591775570893 0.029690202525341058 0.9943336610239523 0.05123165591890929 -0.04283775003795907 -0.04802730255374023
623191272 -0.045532465424184695 -0.05562347869847031 0.9959229190594141 0.029078294119600216 0.9952512541688154 0.05071422168332855 -0.042980203576484605 -0.04818497322522906
623785920 -0.045130478376752735 -0.055026438478133585 0.9950930837081435 0.02731003043974348 0.9944579083322443 0.04873136353469217 -0.043254791576894935 -0.04773793626109512
624380568 -0.04526371931540854 -0.0548861250473307 0.9964815922144713 0.028959751511545187 0.994929779159065 0.05026451430973758 -0.04336847693351281 -0.04729433033926929
624975216 -0.04546653800853374 -0.054604838148022056 0.9953840219349388 0.02619832677238455 0.9940196013757088 0.04850780477099523 -0.04318766889839602 -0.04719425091241693
625569864 -0.04540746811591162 -0.054523691103219474 0.9959657247869947 0.02838889028390152 0.9953811509981775 0.04886526262393206 -0.04355692616569602 -0.04657533802269795
626164512 -0.044869636318834456 -0.05411496927372178 0.9957405711073624 0.028113050057617946 0.9940463488685863 0.05072222121813082 -0.04326432902833799 -0.04642365229467634
626759160 -0.04532584142901234 -0.05358450539304165 0.9963766298942798 0.027725404380862937 0.9947377044912752 0.04955503655224989 -0.043280596171992425 -0.04574248863992386
627353808 -0.04528529803651986 -0.053532729577915265 0.9947637349964027 0.02810472055235645 0.9942975173684756 0.049196020635715015 -0.04358510050564357 -0.04520944025418773
627948456 -0.04553576308826926 -0.053072236281129774 0.9961730380366423 0.026550787727220432 0.9948030921679859 0.04956097476173055 -0.04358627950705797 -0.04507455262564748
628543104 -0.04504807847713162 -0.05242175827510991 0.9952115429008804 0.028079133079628095 0.9939171819306637 0.0490533173161221 -0.04350310134810605 -0.04465419475116527
629137752 -0.04539078461455271 -0.05260175945661742 0.9959207651647384 0.02854802877721729 0.9944455641810025 0.04949175070852177 -0.04346093885210983 -0.04438813790365616
629732400 -0.04559935918185206 -0.05194544010194551 0.9947757150038008 0.028245344840243363 0.9948070870213628 0.04934735295443495 -0.04375875365693674 -0.04384062178502502
630327048 -0.04566125650899704 -0.051832017756402775 0.9957357034436941 0.026170947359935727 0.9952780214749443 0.04852781146025487 -0.043908678410399506 -0.04361777427736527
630921696 -0.045782419448484615 -0.051529670822160166 0.9952988727054888 0.025850340357629554 0.9954557557354841 0.04795309577935954 -0.04404776407561599 -0.043458900826150365
631516344 -0.045718342443758477 -0.05116488144866216 0.9964532451452133 0.026725182170000392 0.9950677381570966 0.04893463449570006 -0.04406079332626423 -0.04298100972345667
632110992 -0.045609325923078106 -0.050822294579413826 0.995288128085964 0.027595914649403395 0.9949216532446612 0.04975724765223861 -0.044141733834531766 -0.04264764467199598
632705640 -0.04542756831284616 -0.05082704431360183 0.994162945972014 0.028238447585618637 0.9943506673550226 0.048524015779435554 -0.044010870671106386 -0.042722879862598435
633300288 -0.04587471407657491 -0.050555931644247036 0.9963098856041188 0.026064708853662508 0.9954906378128326 0.047950124836958825 -0.04422774016443338 -0.04227828467845237
633894936 -0.04574173818989765 -0.04998794573793497 0.9955912715598753 0.02734673219421559 0.9955218339688938 0.048226066718438335 -0.04439730332240437 -0.041835579246548106
634489584 -0.045887864424544435 -0.050352889895120226 0.995264701292792 0.027841364332703386 0.9944275406732624 0.04876025990773557 -0.044423743676797946 -0.041738001405894086
635084232 -0.04550828126227915 -0.0494745010789211 0.994968049947079 0.026709586921272316 0.9939421309126412 0.04922973437822367 -0.04439333760416148 -0.04087828102444428
635678880 -0.045686114043120334 -0.04931865742929531 0.9958131852021831 0.024679099602243435 0.995514563592348 0.046929735858212335 -0.04430396420434603 -0.04117304794983894
636273528 -0.04518798776124897 -0.04876542186601695 0.995484881790413 0.027187198232507252 0.9943053725118294 0.04916839467527792 -0.04419666780445768 -0.040563952064827755
636868176 -0.04577104023203692 -0.048607443505518606 0.9943884474520248 0.02695860310349991 0.9942191078967171 0.05007954953502805 -0.044234400224601476 -0.040403940880442996
637462824 -0.04539985733482087 -0.04833217608890695 0.9956030906691606 0.02752312806734448 0.9944543149976822 0.04975111854622303 -0.04449338046470105 -0.03997360919038866
638057472 -0.04566113231046347 -0.0482198999556639 0.9954712926079536 0.026729695211633875 0.9945138608001293 0.04820278181905157 -0.044273983995308054 -0.039780429410949135
638652120 -0.04558028454583919 -0.04799366815706357 0.9954621608081554 0.026921480960823578 0.9942017456769545 0.04965016104210421 -0.044375084222138816 -0.039387361689295894
639246768 -0.04571805697606171 -0.04750105193230609 0.9958353163964234 0.0257575071424832 0.9950528661708447 0.04671364999412609 -0.04430642129262232 -0.038925793980325196
639841416 -0.04529412949748731 -0.0473198587707979 0.9949820787664431 0.026316342548121704 0.994987034970927 0.048470290450322064 -0.044217837615404106 -0.038657291042579825
640436064 -0.04525218904454385 -0.046959441611862135 0.9945673263933928 0.027389603278646688 0.9936935656473466 0.049423952467416814 -0.044057168629338714 -0.03861502270814732
641030712 -0.045180877971954976 -0.04694108632348223 0.9947408866609854 0.025627548187717713 0.9942495629082524 0.047433476180946815 -0.044236977091702684 -0.03836523554955733
641625360 -0.0451108808114388 -0.046632970187706846 0.995516387406096 0.025821752583071914 0.9944155152785945 0.048438338414439626 -0.044255273780146515 -0.037823675855350014
642220008 -0.04527760451868218 -0.046200898677864255 0.9956614308739747 0.02600368146174994 0.9937490940976289 0.04892098661159819 -0.044144061088426986 -0.037620894526363295
642814656 -0.04488093441778084 -0.04604553885455439 0.9946022347423982 0.027229834079950162 0.9953510666106499 0.04874209582110118 -0.04410155469330303 -0.03722827583186683
643409304 -0.044779969466737866 -0.04600049681688856 0.9947564913713989 0.026426457050238508 0.9942763415179532 0.0499146345498654 -0.04424338692925368 -0.03743384820254582
644003952 -0.045314776346329695 -0.045849021862383044 0.9949002019500657 0.02589424082310335 0.9942193128913913 0.04955918412054121 -0.04424820348673775 -0.036920705935012635
644598600 -0.04489119585771942 -0.04516622452390084 0.9953247569340227 0.025740244622601154 0.9945299640507645 0.0483989495102742 -0.04403486898541609 -0.036286389158335514
645193248 -0.044986256195562686 -0.04495394088825248 0.9956070736210583 0.025084965702046005 0.995152084138315 0.04774433629457447 -0.044166836058054486 -0.03612547738606444
645787896 -0.04440011415381036 -0.044853812612216874 0.9951125761981222 0.0264989121767574 0.9943673844501498 0.04944233593173057 -0.04367025251978584 -0.035930013820094454
646382544 -0.04491134225869387 -0.0446223726930083 0.9946069671423003 0.025809909049488773 0.9943159291922997 0.04793632872269108 -0.04407716955096659 -0.035765206966803624
646977192 -0.04491299075970133 -0.04437612986295032 0.9953119601645511 0.024633311920840357 0.9945075779835437 0.04740221169551702 -0.044016992295554676 -0.03519616790957403
647571840 -0.04464310993570791 -0.044412808778252835 0.9954200202526167 0.025640268520940493 0.9943275601806703 0.04826369758403279 -0.04414639290077387 -0.03519350054546385
648166488 -0.04463132743708832 -0.04438536726089631 0.9953332651739595 0.024991907159962117 0.994280336348969 0.04613259502766477 -0.044373931880625175 -0.03475105912128666
648761136 -0.04449064734990173 -0.043837348034891 0.9959389399338565 0.02405389804601409 0.9941315522072133 0.045327992197308334 -0.04472081672321433 -0.034566942543750784
649355784 -0.04452057832181476 -0.043896870550598995 0.9952842832946132 0.024202216033343837 0.994124034014801 0.044548763573721485 -0.04452592806103482 -0.034360532810159224
649950432 -0.04399769112477463 -0.04346299200493229 0.9955384983865482 0.02575950767632571 0.9941430173970787 0.04372985791856073 -0.04445953624967007 -0.034165097134935665
650545080 -0.044097488898707564 -0.043207240208417645 0.9953264383293894 0.0257670626469055 0.9947877288332564 0.04303388916957888 -0.044531687976847166 -0.03385473962354066
651139728 -0.04415319756984172 -0.04311111899218959 0.9948119607804203 0.025861700847852307 0.9944608610097735 0.04297707846850378 -0.044596992767275946 -0.03370197874923709
651734376 -0.04357091593532601 -0.04278524077596627 0.9955253027016713 0.025210980334846804 0.9944073030465787 0.042952579843299046 -0.04423861446230234 -0.03304915138097342
652329024 -0.04375962422136659 -0.0426232523809727 0.9957505798772982 0.02627478980994263 0.9946125942269003 0.04211934513781864 -0.044433976660852824 -0.03314942346798566
652923672 -0.04367288878269681 -0.04195458493262311 0.9948691323304187 0.0253261740663226 0.9940483977902047 0.04336743002992651 -0.04450836937678045 -0.03264792546719148
653518320 -0.043587479027512206 -0.04232797093103084 0.9951795110537535 0.0247152774245964 0.994446023951257 0.0427068384934896 -0.0443608271094595 -0.03295967592128469
654112968 -0.043487626008262656 -0.042032625208443725 0.9952940678874949 0.025991153585767677 0.9940938427718381 0.043091346992763596 -0.044289480902112856 -0.03226002431214864
654707616 -0.04360463793690704 -0.04203118894336889 0.9952316789844082 0.023075257712180244 0.9937748798958913 0.04129138342758392 -0.04418575549517111 -0.032190469880671584
655302264 -0.043249834369520714 -0.04148832514493408 0.9948246209740373 0.022681821671549175 0.993595132677366 0.041229695961089184 -0.04407998818748848 -0.03187271150567612
655896912 -0.04327269044811651 -0.041627870890680096 0.9954896078513504 0.024585022309375034 0.9945285004897734 0.04189942024429261 -0.044326355810277454 -0.031824609733267964
656491560 -0.0431004054104756 -0.041210796376241664 0.9957394130433465 0.02489004962665183 0.994696386981793 0.04315494101133982 -0.04358417839893474 -0.03153991445283976
657086208 -0.04298852716354237 -0.041355755593747615 0.9953561562809227 0.02446824358721255 0.9947158330343167 0.04260094735020734 -0.04405749682421581 -0.0317635795992392
657680856 -0.04275008441928501 -0.04065493148244942 0.9942566180491494 0.02448565231904419 0.994060206069835 0.04239255007787136 -0.04345892625114832 -0.030974248504043247
658275504 -0.04278020804938485 -0.04083006885754114 0.9956811733333935 0.022628741934093016 0.9949595506237534 0.04109177355317362 -0.043787129698385406 -0.031008780977387764
658870152 -0.04282776472352428 -0.04052987253268999 0.9946281137691974 0.023883571008154268 0.994072980134356 0.04315471484600425 -0.04373339838834701 -0.030915405596979355
659464800 -0.04221934037891673 -0.040457421161767086 0.9954006687031602 0.02356561163250693 0.9942209215948831 0.044056535254164385 -0.04351263548986097 -0.030277943159211645
660059448 -0.04135991197721061 -0.04315594523108912 0.9944579930359758 0.021487339396761555 0.9945736224469337 0.03936480929082407 -0.04252681566086751 -0.033002207588704695
660654096 -0.040812634763095074 -0.04185554444083349 0.99435675667224 0.021292287331549177 0.9949558484577172 0.040173952961083594 -0.042393253585486075 -0.03177683839906766
661248744 -0.04064434091038098 -0.04170945345132778 0.994772516382094 0.019864858419263515 0.9950424847539063 0.03979640460382946 -0.04236149215076959 -0.03163478900636534
661843392 -0.04064378139272178 -0.04104084836684187 0.9952211673374249 0.020405350212478315 0.9955243929771279 0.039996421240661474 -0.04229766561439303 -0.03131282847085139
662438040 -0.04062150847033498 -0.04080311991821986 0.9938617705392103 0.022172662791314714 0.9936560844611413 0.04038267857260056 -0.042448469760352076 -0.030922011779166748
663032688 -0.04088575768644686 -0.0404031863240556 0.9935612465699092 0.019881215167767877 0.9941798179332245 0.04026696231042577 -0.04294676303841606 -0.03080213545525077
663627336 -0.040975771170986094 -0.04031253576506333 0.9943613425460449 0.02018129238445586 0.994632930353295 0.039913235233314685 -0.043212559315193334 -0.030723031480569155
664221984 -0.04119915917539109 -0.040137763083084005 0.9950248352363111 0.019958236009011844 0.9944931571023298 0.041135573574098507 -0.04342576419421356 -0.030344821228638706
664816632 -0.04097683400113375 -0.0396544288360018 0.9937462674919314 0.02083998178226799 0.9948166829084076 0.04038831820298021 -0.04302907461901233 -0.029945574386818705
665411280 -0.04064628382123149 -0.039549022838854093 0.994818573131609 0.021264682333666702 0.994777510788649 0.040517927292968735 -0.04291776734283417 -0.029693530925504176
666005928 -0.04053321242452483 -0.03983275289678249 0.993545164200724 0.01998104121010085 0.9930800698255169 0.0398344428289504 -0.04276110460096085 -0.029974734019161807
666600576 -0.04030712754132136 -0.03898456503215025 0.9947018004076105 0.020320807441654078 0.994115211557271 0.039256957337310085 -0.04245892175368252 -0.029020274932308535
667195224 -0.040017700969544205 -0.03877551049823574 0.994653981341196 0.021093722732443698 0.9949383231128871 0.040804903508249446 -0.042345160922652815 -0.028477952470226692
