# HZ S RI R 50
600000000 -0.04323434591963682 -0.0652878924166762 0.9961778686401318 0.02980239091203512 0 0 0 0
600594648 -0.043583382974404845 -0.06505940336602205 0.9956012322029238 0.028505866572153173 0 0 0 0
601189296 -0.04339739240852275 -0.06497388298373624 0.9952369959758774 0.02867267665275478 0 0 0 0
601783944 -0.04341962159952037 -0.06539937756374431 0.9946962376537644 0.029295337812750392 0 0 0 0
602378592 -0.04307335789020086 -0.06534988990926824 0.995782785685612 0.02999888465869657 0 0 0 0
602973240 -0.043476429684149616 -0.06533270901568818 0.9957494365603689 0.02950762086571965 0 0 0 0
603567888 -0.04290757656094359 -0.06496088916760819 0.9952817033003329 0.029328472392492234 0 0 0 0
604162536 -0.043363088992491805 -0.06454458088473349 0.9954037132111466 0.027960712418759023 0 0 0 0
604757184 -0.04336771209305146 -0.06465293217536612 0.9955416290643427 0.02939605618046669 0 0 0 0
605351832 -0.04327636512232078 -0.06396028309257835 0.9951917730070811 0.028916869110310554 0 0 0 0
605946480 -0.0433991528162567 -0.0639484842760477 0.9951176588003714 0.028268962115984054 0 0 0 0
606541128 -0.043785494035988186 -0.0632275641816975 0.9954031565834259 0.030050378330352116 0 0 0 0
607135776 -0.04365607369284631 -0.06343446012019983 0.9952905551125462 0.031211812198395566 0 0 0 0
607730424 -0.043621101824716464 -0.06267710130081769 0.9950543161079136 0.02843184686997769 0 0 0 0
608325072 -0.04383077086607748 -0.06287172648392302 0.9956936522930192 0.02987835840274881 0 0 0 0
608919720 -0.04371397639926605 -0.06249792537049226 0.9949013690835622 0.028366295826093273 0 0 0 0
609514368 -0.04422869532404445 -0.06196671154393645 0.9948788452593538 0.02908013674096141 0 0 0 0
610109016 -0.044118045801352375 -0.06205629178858406 0.995795993126852 0.02830066097481676 0 0 0 0
610703664 -0.04391546717094295 -0.061426825306686125 0.9953763891718364 0.03043723865431466 0 0 0 0
611298312 -0.0437996156553584 -0.06163861485713785 0.9955557532126061 0.02850699276893435 0 0 0 0
611892960 -0.04385134285906785 -0.06071365411462295 0.9949741449121606 0.027379732742511848 0 0 0 0
612487608 -0.04443043815483766 -0.060982543930850376 0.9953131320178418 0.0280722163639033 0 0 0 0
613082256 -0.0441073790812532 -0.060229473979783975 0.9957838756322752 0.027666435200781915 0 0 0 0
613676904 -0.0443363500737144 -0.06008080011096786 0.9952384639214044 0.029250518639363378 0 0 0 0
614271552 -0.045057877576633903 -0.060427750004470634 0.9956685925073369 0.029104920421699407 0 0 0 0
614866200 -0.04492565831644113 -0.05994817787249571 0.9948050383279524 0.03025956008031524 0 0 0 0
615460848 -0.04486055455055311 -0.05937315308037399 0.9957658689742087 0.02940220009205336 0 0 0 0
616055496 -0.04489219640811851 -0.05901260460385057 0.9970825195924469 0.0294360123468294 0 0 0 0
616650144 -0.04500226900508645 -0.0589077118422467 0.9957396615795675 0.029132512048160874 0 0 0 0
617244792 -0.044656685703422745 -0.05809854870741374 0.994949673446167 0.030351641569885124 0 0 0 0
617839440 -0.045071325554377074 -0.05813956601670817 0.9952817634590584 0.02964278873041574 0 0 0 0
618434088 -0.04523370899485583 -0.05794638504823277 0.9950138927498529 0.027295771875932337 0 0 0 0
619028736 -0.04530002349205034 -0.05745881524588236 0.9945664397366405 0.02899372239104645 0 0 0 0
619623384 -0.045213258144247356 -0.057020385056361 0.9954143630230502 0.02818476441852368 0 0 0 0
620218032 -0.04523449777857872 -0.05696976731397821 0.996016280457596 0.027327679006179537 0 0 0 0
620812680 -0.04537767533166103 -0.05677052030423526 0.995650710771645 0.029130958983102702 0 0 0 0
621407328 -0.045268504028721825 -0.056296990441279324 0.9962104683330634 0.02687902200994072 0 0 0 0
622001976 -0.04530502678333041 -0.05632900425062291 0.9944999918792052 0.02753177375655739 0 0 0 0
622596624 -0.04510098597782956 -0.05576337304545066 0.9951591775570893 0.029690202525341058 0 0 0 0
623191272 -0.045532465424184695 -0.05562347869847031 0.9959229190594141 0.029078294119600216 0 0 0 0
623785920 -0.045130478376752735 -0.055026438478133585 0.9950930837081435 0.02731003043974348 0 0 0 0
624380568 -0.04526371931540854 -0.0548861250473307 0.9964815922144713 0.028959751511545187 0 0 0 0
624975216 -0.04546653800853374 -0.054604838148022056 0.9953840219349388 0.02619832677238455 0 0 0 0
625569864 -0.04540746811591162 -0.054523691103219474 0.9959657247869947 0.02838889028390152 0 0 0 0
626164512 -0.044869636318834456 -0.05411496927372178 0.9957405711073624 0.028113050057617946 0 0 0 0
626759160 -0.04532584142901234 -0.05358450539304165 0.9963766298942798 0.027725404380862937 0 0 0 0
627353808 -0.04528529803651986 -0.053532729577915265 0.9947637349964027 0.02810472055235645 0 0 0 0
627948456 -0.04553576308826926 -0.053072236281129774 0.9961730380366423 0.026550787727220432 0 0 0 0
628543104 -0.04504807847713162 -0.05242175827510991 0.9952115429008804 0.028079133079628095 0 0 0 0
629137752 -0.04539078461455271 -0.05260175945661742 0.9959207651647384 0.02854802877721729 0 0 0 0
629732400 -0.04559935918185206 -0.05194544010194551 0.9947757150038008 0.028245344840243363 0 0 0 0
630327048 -0.04566125650899704 -0.051832017756402775 0.9957357034436941 0.026170947359935727 0 0 0 0
630921696 -0.045782419448484615 -0.051529670822160166 0.9952988727054888 0.025850340357629554 0 0 0 0
631516344 -0.045718342443758477 -0.05116488144866216 0.9964532451452133 0.026725182170000392 0 0 0 0
632110992 -0.045609325923078106 -0.050822294579413826 0.995288128085964 0.027595914649403395 0 0 0 0
632705640 -0.04542756831284616 -0.05082704431360183 0.994162945972014 0.028238447585618637 0 0 0 0
633300288 -0.04587471407657491 -0.050555931644247036 0.9963098856041188 0.026064708853662508 0 0 0 0
633894936 -0.04574173818989765 -0.04998794573793497 0.9955912715598753 0.02734673219421559 0 0 0 0
634489584 -0.045887864424544435 -0.050352889895120226 0.995264701292792 0.027841364332703386 0 0 0 0
635084232 -0.04550828126227915 -0.0494745010789211 0.994968049947079 0.026709586921272316 0 0 0 0
635678880 -0.045686114043120334 -0.04931865742929531 0.9958131852021831 0.024679099602243435 0 0 0 0
636273528 -0.04518798776124897 -0.04876542186601695 0.995484881790413 0.027187198232507252 0 0 0 0
636868176 -0.04577104023203692 -0.048607443505518606 0.9943884474520248 0.02695860310349991 0 0 0 0
637462824 -0.04539985733482087 -0.04833217608890695 0.9956030906691606 0.02752312806734448 0 0 0 0
638057472 -0.04566113231046347 -0.0482198999556639 0.9954712926079536 0.026729695211633875 0 0 0 0
638652120 -0.04558028454583919 -0.04799366815706357 0.9954621608081554 0.026921480960823578 0 0 0 0
639246768 -0.04571805697606171 -0.04750105193230609 0.9958353163964234 0.0257575071424832 0 0 0 0
639841416 -0.04529412949748731 -0.0473198587707979 0.9949820787664431 0.026316342548121704 0 0 0 0
640436064 -0.04525218904454385 -0.046959441611862135 0.9945673263933928 0.027389603278646688 0 0 0 0
641030712 -0.045180877971954976 -0.04694108632348223 0.9947408866609854 0.025627548187717713 0 0 0 0
641625360 -0.0451108808114388 -0.046632970187706846 0.995516387406096 0.025821752583071914 0 0 0 0
642220008 -0.04527760451868218 -0.046200898677864255 0.9956614308739747 0.02600368146174994 0 0 0 0
642814656 -0.04488093441778084 -0.04604553885455439 0.9946022347423982 0.027229834079950162 0 0 0 0
643409304 -0.044779969466737866 -0.04600049681688856 0.9947564913713989 0.026426457050238508 0 0 0 0
644003952 -0.045314776346329695 -0.045849021862383044 0.9949002019500657 0.02589424082310335 0 0 0 0
644598600 -0.04489119585771942 -0.04516622452390084 0.9953247569340227 0.025740244622601154 0 0 0 0
645193248 -0.044986256195562686 -0.04495394088825248 0.9956070736210583 0.025084965702046005 0 0 0 0
645787896 -0.04440011415381036 -0.044853812612216874 0.9951125761981222 0.0264989121767574 0 0 0 0
646382544 -0.04491134225869387 -0.0446223726930083 0.9946069671423003 0.025809909049488773 0 0 0 0
646977192 -0.04491299075970133 -0.04437612986295032 0.9953119601645511 0.024633311920840357 0 0 0 0
647571840 -0.04464310993570791 -0.044412808778252835 0.9954200202526167 0.025640268520940493 0 0 0 0
648166488 -0.04463132743708832 -0.04438536726089631 0.9953332651739595 0.024991907159962117 0 0 0 0
648761136 -0.04449064734990173 -0.043837348034891 0.9959389399338565 0.02405389804601409 0 0 0 0
649355784 -0.04452057832181476 -0.043896870550598995 0.9952842832946132 0.024202216033343837 0 0 0 0
649950432 -0.04399769112477463 -0.04346299200493229 0.9955384983865482 0.02575950767632571 0 0 0 0
650545080 -0.044097488898707564 -0.043207240208417645 0.9953264383293894 0.0257670626469055 0 0 0 0
651139728 -0.04415319756984172 -0.04311111899218959 0.9948119607804203 0.025861700847852307 0 0 0 0
651734376 -0.04357091593532601 -0.04278524077596627 0.9955253027016713 0.025210980334846804 0 0 0 0
652329024 -0.04375962422136659 -0.0426232523809727 0.9957505798772982 0.02627478980994263 0 0 0 0
652923672 -0.04367288878269681 -0.04195458493262311 0.9948691323304187 0.0253261740663226 0 0 0 0
653518320 -0.043587479027512206 -0.04232797093103084 0.9951795110537535 0.0247152774245964 0 0 0 0
654112968 -0.043487626008262656 -0.042032625208443725 0.9952940678874949 0.025991153585767677 0 0 0 0
654707616 -0.04360463793690704 -0.04203118894336889 0.9952316789844082 0.023075257712180244 0 0 0 0
655302264 -0.043249834369520714 -0.04148832514493408 0.9948246209740373 0.022681821671549175 0 0 0 0
655896912 -0.04327269044811651 -0.041627870890680096 0.9954896078513504 0.024585022309375034 0 0 0 0
656491560 -0.0431004054104756 -0.041210796376241664 0.9957394130433465 0.02489004962665183 0 0 0 0
657086208 -0.04298852716354237 -0.041355755593747615 0.9953561562809227 0.02446824358721255 0 0 0 0
657680856 -0.04275008441928501 -0.04065493148244942 0.9942566180491494 0.02448565231904419 0 0 0 0
658275504 -0.04278020804938485 -0.04083006885754114 0.9956811733333935 0.022628741934093016 0 0 0 0
658870152 -0.04282776472352428 -0.04052987253268999 0.9946281137691974 0.023883571008154268 0 0 0 0
659464800 -0.04221934037891673 -0.040457421161767086 0.9954006687031602 0.02356561163250693 0 0 0 0
660059448 -0.04135991197721061 -0.04315594523108912 0.9944579930359758 0.021487339396761555 0 0 0 0
660654096 -0.040812634763095074 -0.04185554444083349 0.99435675667224 0.021292287331549177 0 0 0 0
661248744 -0.04064434091038098 -0.04170945345132778 0.994772516382094 0.019864858419263515 0 0 0 0
661843392 -0.04064378139272178 -0.04104084836684187 0.9952211673374249 0.020405350212478315 0 0 0 0
662438040 -0.04062150847033498 -0.04080311991821986 0.9938617705392103 0.022172662791314714 0 0 0 0
663032688 -0.04088575768644686 -0.0404031863240556 0.9935612465699092 0.019881215167767877 0 0 0 0
663627336 -0.040975771170986094 -0.04031253576506333 0.9943613425460449 0.02018129238445586 0 0 0 0
664221984 -0.04119915917539109 -0.040137763083084005 0.9950248352363111 0.019958236009011844 0 0 0 0
664816632 -0.04097683400113375 -0.0396544288360018 0.9937462674919314 0.02083998178226799 0 0 0 0
665411280 -0.04064628382123149 -0.039549022838854093 0.994818573131609 0.021264682333666702 0 0 0 0
666005928 -0.04053321242452483 -0.03983275289678249 0.993545164200724 0.01998104121010085 0 0 0 0
666600576 -0.04030712754132136 -0.03898456503215025 0.9947018004076105 0.020320807441654078 0 0 0 0
667195224 -0.040017700969544205 -0.03877551049823574 0.994653981341196 0.021093722732443698 0 0 0 0
667789872 -0.03973692042298687 -0.0384699344193563 0.9945875482943988 0.020346767773136556 0 0 0 0
668384520 -0.03953234117072797 -0.0382471833698854 0.9944153770688712 0.02017598551819884 0 0 0 0
668979168 -0.039521612760591456 -0.03811749301291477 0.9948667350737511 0.021680324227374197 0 0 0 0
669573816 -0.03929682504103585 -0.03820701798788602 0.9942741256329318 0.02052157654284206 0 0 0 0
670168464 -0.03921809221649244 -0.03776992528757297 0.9950406588368351 0.0207074447204377 0 0 0 0
670763112 -0.0391119021053511 -0.0381414002178279 0.9944255347101136 0.020776644835179162 0 0 0 0
671357760 -0.03896314024862769 -0.03816516753116071 0.9955541838987051 0.01835640547521945 0 0 0 0
671952408 -0.038921223691808934 -0.03772869181695676 0.9952188157842808 0.01935725135311003 0 0 0 0
672547056 -0.03849316165443525 -0.03789838220860076 0.9947116363820111 0.021487888270449795 0 0 0 0
673141704 -0.03870007745519894 -0.037480148028188116 0.9943622719605939 0.021435210299719475 0 0 0 0
673736352 -0.038256570139274186 -0.03750395124586003 0.9947477400608365 0.018626099028049112 0 0 0 0
674331000 -0.03792295153932437 -0.03722325704024488 0.9949749250783567 0.021114476762239813 0 0 0 0
674925648 -0.038003219521770104 -0.03723575417988451 0.9942837756797274 0.020321186837047554 0 0 0 0
675520296 -0.0377520654854052 -0.037510398798683633 0.9941849015691653 0.019126092923521125 0 0 0 0
676114944 -0.037446683127084955 -0.03711597272240628 0.994612095916265 0.02186527400312848 0 0 0 0
676709592 -0.03733416612817845 -0.03715212501157929 0.9944729443125805 0.018718094686809787 0 0 0 0
677304240 -0.03769372796124306 -0.03671044001382981 0.9940129494921262 0.01962200977283883 0 0 0 0
677898888 -0.03696018384221103 -0.03671077269299025 0.9945081037708837 0.019499522945480536 0 0 0 0
678493536 -0.037416591523737615 -0.03675738006368126 0.993706386866323 0.019446268491042244 0 0 0 0
679088184 -0.03673953494827944 -0.03681687088155053 0.9947727942494672 0.018597635734877983 0 0 0 0
679682832 -0.03629337277480413 -0.036571816371390516 0.9941883267443234 0.01899338363570998 0 0 0 0
680277480 -0.036693180635372816 -0.03673054095073786 0.9950046185770208 0.019172205659669816 0 0 0 0
680872128 -0.03678266561779558 -0.03638142000807165 0.9943688743953203 0.0202707302674762 0 0 0 0
681466776 -0.036231737690107374 -0.03650166508783714 0.9939176064193782 0.01958151513101069 0 0 0 0
682061424 -0.035936287186092486 -0.03666082625775126 0.9940087196664691 0.02014325722658736 0 0 0 0
682656072 -0.03580745047762728 -0.03635200174238978 0.9943321925623796 0.018623674887390314 0 0 0 0
683250720 -0.03581820512232445 -0.03634572942479662 0.9945360327036054 0.019603839379372812 0 0 0 0
683845368 -0.035333640071557725 -0.036491305064449135 0.9943792249710406 0.018510673117578095 0 0 0 0
684440016 -0.03536171051174349 -0.03616052218351269 0.9947742982497679 0.020176059808254838 0 0 0 0
685034664 -0.03520256071967427 -0.036398612423376414 0.995791940676831 0.019686002207237374 0 0 0 0
685629312 -0.034889893893772346 -0.03640365699926481 0.9947475475177854 0.020221741977645362 0 0 0 0
686223960 -0.034985327419601066 -0.036241963424109166 0.9942619696485298 0.019033785392016146 0 0 0 0
686818608 -0.03430689328409039 -0.036550396248825265 0.9949220795353941 0.019062651483212942 0 0 0 0
687413256 -0.03431596577048262 -0.03618649438697884 0.9945720062331633 0.019223632339872048 0 0 0 0
688007904 -0.03404514630112109 -0.036270398962138524 0.9939431292972937 0.01852252775182286 0 0 0 0
688602552 -0.0343966041995517 -0.036398417291762374 0.994235666633355 0.018497532144848755 0 0 0 0
689197200 -0.033866759226835776 -0.03628483829694696 0.9943961711597311 0.019112114613068904 0 0 0 0
689791848 -0.03362531859086967 -0.03649810146061783 0.9939947121799398 0.017511427329980383 0 0 0 0
690386496 -0.03358960533548019 -0.035902006327399115 0.9936633303311454 0.018718500289452007 0 0 0 0
690981144 -0.03333213238759187 -0.036030209386104246 0.9938893108693165 0.01935520221645407 0 0 0 0
691575792 -0.03289673352188625 -0.03620947343918783 0.9935853953196854 0.01865678544917588 0 0 0 0
692170440 -0.03302254869540452 -0.036005821221317416 0.9945333130022204 0.017807315139398927 0 0 0 0
692765088 -0.03243097457372314 -0.036212455458393945 0.9944575034925565 0.019562468200682994 0 0 0 0
693359736 -0.032565398168355734 -0.03621242306653078 0.9940202205836239 0.01759532263375334 0 0 0 0
693954384 -0.0322196724817879 -0.036174911301190736 0.9937394134226284 0.01828532155919098 0 0 0 0
694549032 -0.03222111676931583 -0.03625314719318822 0.9941993168192742 0.019033862293053982 0 0 0 0
695143680 -0.03223312340230945 -0.03650792377791432 0.9936865374153923 0.01735242979507976 0 0 0 0
695738328 -0.03175415209865107 -0.036446232219072575 0.9936313938761077 0.01935816155233751 0 0 0 0
696332976 -0.03178931268850872 -0.03656465933752589 0.993745210769985 0.018260124996472053 0 0 0 0
696927624 -0.031444739744647086 -0.036448959338435324 0.9932928779801848 0.015945979734129548 0 0 0 0
697522272 -0.03139015480432644 -0.03670236528128339 0.9941346164663086 0.017428327779322763 0 0 0 0
698116920 -0.03104310817593655 -0.036607054466305605 0.9939824011101381 0.017801975637995883 0 0 0 0
698711568 -0.03091610625921083 -0.03693151837291997 0.9933982856414624 0.0168104539017825 0 0 0 0
699306216 -0.03088062863859286 -0.03683282361491293 0.9942456969038824 0.018335482637872828 0 0 0 0
699900864 -0.030943448229722316 -0.03702008270988636 0.9947803055636699 0.017833271157002496 0 0 0 0
700495512 -0.030480097299572316 -0.03709308416377574 0.993590269227283 0.019048315521678634 0 0 0 0
701090160 -0.030183310125975863 -0.03681751087242765 0.9939470952482937 0.0170542555716786 0 0 0 0
701684808 -0.030506663592884647 -0.03701553999512041 0.9940526297113872 0.01611332745162518 0 0 0 0
702279456 -0.030439581383447354 -0.03709195349312757 0.9944267753105307 0.017046184272785852 0 0 0 0
702874104 -0.030092816415101364 -0.037479045258788854 0.9943068055516849 0.018305782667231638 0 0 0 0
703468752 -0.02942473628560279 -0.037181880098976446 0.993465607205846 0.017868361657900705 0 0 0 0
704063400 -0.029488477653525025 -0.037584143973429116 0.9930480620998627 0.01764398684391254 0 0 0 0
704658048 -0.029495403697617443 -0.037726469305017205 0.9934007550347361 0.017732715627477753 0 0 0 0
705252696 -0.029464777326921952 -0.03771191918170772 0.9943003308945568 0.016907722366403637 0 0 0 0
705847344 -0.029251470513047585 -0.03789742852503091 0.9934575756905389 0.017122725257715722 0 0 0 0
706441992 -0.029292715359563588 -0.038196276233685426 0.9921002920737305 0.017539405736484256 0 0 0 0
707036640 -0.02894292249393854 -0.03806586194093189 0.9937633819716096 0.018073602540780668 0 0 0 0
707631288 -0.028784512784765875 -0.03805062413135844 0.9930698822924323 0.014579220845844404 0 0 0 0
708225936 -0.028627699539399015 -0.038516603366895004 0.9943790518300275 0.01717336873960621 0 0 0 0
708820584 -0.028703764384810995 -0.03874781216772159 0.9924047425655648 0.016094344842951722 0 0 0 0
709415232 -0.028717169191541023 -0.03876553940894366 0.9924223598011597 0.016708092148460633 0 0 0 0
710009880 -0.02860908842808996 -0.03881261398650254 0.9935823459749683 0.015684078606111373 0 0 0 0
710604528 -0.02824872627657277 -0.03922414644205559 0.9942923844032867 0.016715125769944068 0 0 0 0
711199176 -0.028340423528264498 -0.03902679028625828 0.9936517991023768 0.01631322658051927 0 0 0 0
711793824 -0.028401989535835 -0.03929557915000764 0.993206518838247 0.01745909855336078 0 0 0 0
712388472 -0.027808375941971664 -0.03948678499796105 0.9936560108417203 0.017407903082158147 0 0 0 0
712983120 -0.027866821709957915 -0.039569426390730154 0.9921748840443856 0.0150726195722874 0 0 0 0
713577768 -0.027635856037749113 -0.03974653065779025 0.9924073907136611 0.01636895080743556 0 0 0 0
714172416 -0.027733783569488964 -0.04009449682714799 0.9935422146793353 0.016082412834402184 0 0 0 0
714767064 -0.027610578901881774 -0.03996969358832889 0.9921448337273373 0.01713664452718816 0 0 0 0
715361712 -0.027805655636414964 -0.04039796689661649 0.994077471434428 0.015980587540957186 0 0 0 0
715956360 -0.02766044906415326 -0.04066529874733457 0.992015996888885 0.01686655332960809 0 0 0 0
716551008 -0.027314614844157346 -0.040693816323968866 0.9935162343470568 0.01707021109821704 0 0 0 0
717145656 -0.027169847409885615 -0.04122622168530507 0.9930134374332176 0.015297442848296657 0 0 0 0
