!Stim Real(S11) Imag(S11) Real(S21) Imag(S21) Real(S12) Imag(S12) Real(S22) Imag(S22)
# HZ S RI R 50
600000000 0.3089425782235673 0.2345130768258531 0.4780088276642601 0.7656479643651792 0.5211292380901633 0.7391617419296749 -0.13474057118479343 -0.3932827276708316
600594648 0.3090265588644084 0.23388431510818114 0.48016309890624276 0.7647971000383235 0.5224848268235529 0.7379641567554441 -0.13459032986499717 -0.39237491473876446
601189296 0.30873314876281593 0.2331668256511343 0.4811609759328631 0.7648954012014437 0.5230666058555907 0.7373719254802401 -0.1349389879779927 -0.3918601416185555
601783944 0.3079338404803516 0.23151495822203608 0.48051965181815987 0.7649881531220466 0.5238377679569662 0.736936598059593 -0.13616955024421587 -0.3915399674017543
602378592 0.3081111666310217 0.23086766805260675 0.48255025124923223 0.7654990670733989 0.5236138015516565 0.7380947848347332 -0.13527267616456576 -0.391389216701159
602973240 0.30730192386797234 0.22974085086224943 0.4839369570253039 0.7658357427839011 0.5253830451396052 0.7362943564267269 -0.13589616044128555 -0.39067673084931703
603567888 0.3071354097528167 0.2290446210170559 0.4857785912507693 0.7645500957200163 0.5260900438861679 0.7364723586150997 -0.1360485022922431 -0.3901746328112922
604162536 0.3070952991299032 0.22745222640708776 0.4870773122446556 0.7637052532998185 0.5278988295862747 0.7345761882799309 -0.13649542674627174 -0.38981459516133354
604757184 0.30659406661477745 0.227292528021955 0.4856155370639464 0.76421043273226 0.527914314709185 0.7356373800626924 -0.13667739232325712 -0.38975177390780086
605351832 0.3063767159687596 0.22568582058466613 0.48914897688191594 0.7631663263646008 0.5283900965722935 0.7344790392533171 -0.13669511236267082 -0.38783549918776594
605946480 0.30656470282753967 0.22420171152751053 0.4904645546969884 0.7630617313517354 0.5298718630658728 0.7335982354276148 -0.1372470264290229 -0.38804856917540925
606541128 0.3058696886580988 0.22374581224932602 0.49042152659830657 0.764014033712541 0.5302830092446341 0.7343998780905887 -0.13803114827852153 -0.3881212505668139
607135776 0.30562578077151437 0.22275718756931365 0.49197076008517676 0.7631704587565017 0.5311105993869608 0.7337480483570592 -0.13764370415792784 -0.3877891883108555
607730424 0.30535567824211246 0.2222813687971997 0.4923017501003343 0.7617402395713808 0.5320580412174644 0.732055688627733 -0.1386564373319023 -0.386158756950561
608325072 0.3048582637800538 0.22159901901336204 0.4934269022128376 0.7637796583078402 0.5323966160338612 0.7331397547494234 -0.1379783799079676 -0.3859561668717305
608919720 0.30466544124580935 0.21998189548217795 0.49482929905744183 0.7621813410814163 0.5342604298133216 0.7313723655657931 -0.13816551540433267 -0.38508860051222493
609514368 0.3047826592521807 0.21935880413510395 0.49584820761707854 0.7623044541388442 0.5343193010080751 0.7309725115907727 -0.13946440469150143 -0.38487445873194065
610109016 0.3040881708905906 0.21791351219150823 0.49913869250383697 0.7612362815267796 0.5351166658133061 0.7310195293248385 -0.1390875581153186 -0.3836255997018553
610703664 0.3041928531480061 0.21774638791942705 0.49810392549550025 0.7620382614779289 0.535142734414175 0.7310064244805716 -0.13907763163344336 -0.3832095811117177
611298312 0.30370891546588347 0.2164539812847356 0.5002084402247245 0.7612645368624538 0.5370141177487849 0.7308141222522324 -0.13882162665486775 -0.3827929376808835
611892960 0.30372387224500574 0.21586056992984515 0.5018188609835246 0.7605803452253335 0.5376761961957104 0.729498498039443 -0.13899840397060026 -0.3818400124960939
612487608 0.3025305038173763 0.2148084188707395 0.5017797747920282 0.7606641584007733 0.5387491157809856 0.7284509633459271 -0.14065065895525306 -0.38150229813159375
613082256 0.3020964243932448 0.21384785287811464 0.5031711897398583 0.7599676733072649 0.5394278349683282 0.7292377975816436 -0.1400035164854701 -0.3810622922891444
613676904 0.3023109979223997 0.21277688674096354 0.5043065437866849 0.7602762368720306 0.5404324541703883 0.7287567580644391 -0.14033558858117817 -0.38022888459869464
614271552 0.3013600532286355 0.21107820413682174 0.5055046320825578 0.7596091978412636 0.5414292025983377 0.7281422355263769 -0.1420206985667347 -0.3802460331294712
614866200 0.3019000801262929 0.21034364020712726 0.5065805327864954 0.7595364456123602 0.5410962902034487 0.7281795454927767 -0.14198732177969328 -0.37989747257890216
615460848 0.3008554044290787 0.21031843641644424 0.5081138759104025 0.759549806136453 0.5442806982330741 0.7267239522531096 -0.14255193664293786 -0.3785535567378014
616055496 0.29986645807399853 0.20931537454740812 0.5087054443169602 0.7593696679128524 0.5435566411421713 0.7273851016305015 -0.1427878313024151 -0.37759500061000856
616650144 0.30022987880672364 0.20809276749265543 0.5097693768128875 0.7589351690769676 0.544820299499275 0.7260743948673314 -0.14298282449442565 -0.3775203812115289
617244792 0.2998608323525005 0.20760131307215032 0.5112082822839333 0.7586149108526201 0.5440900857937978 0.7261387935617284 -0.14214001396990453 -0.3762207241374779
617839440 0.29919568853798817 0.2068779049294116 0.5118022712176014 0.7586201489095682 0.5449505378617587 0.7257277580399377 -0.1426917693577886 -0.3763410668943703
618434088 0.29872115143310346 0.20613481253789384 0.513096818291549 0.7573654754995403 0.5474522401157471 0.7241185724010797 -0.14372759896793527 -0.37554454581697705
619028736 0.29850716478973754 0.20513503852871667 0.5131071693373641 0.7578426429256 0.5468276510772583 0.724264605060217 -0.14376356917819955 -0.375055376608102
619623384 0.29829272656177874 0.20423820528178538 0.5156753403712103 0.7569271021386477 0.5482281377948099 0.7242947121392647 -0.14420745314931208 -0.3743651178141956
620218032 0.29847343394983933 0.20308837487252157 0.5176179900627351 0.756510634266919 0.5503373182395712 0.7233680362761032 -0.14432833629559164 -0.3738363603317329
620812680 0.2976436657343862 0.20239104905027389 0.5172199395897049 0.756666357419663 0.5491233271729501 0.7239039560497079 -0.1450727041439899 -0.37371782768677747
621407328 0.2973189443514092 0.20186657671195427 0.5194326093778793 0.7574000708078785 0.5504411869369652 0.7233081127713129 -0.14500250824874522 -0.37234759114474464
622001976 0.2969384350732306 0.20092123737617212 0.5189672199112061 0.7554541182394725 0.5503278240697955 0.722424425355379 -0.14506335074770138 -0.37245010161116193
622596624 0.2971261878095134 0.20007119834128584 0.5202463046526861 0.7558601516067153 0.5510679451598626 0.7219685755286822 -0.14600844060316626 -0.3711153621889417
623191272 0.29627325777593755 0.19903987960116004 0.522685513714605 0.75647174229247 0.5528744385871274 0.7227385031506175 -0.14572352176463216 -0.3702202297935022
623785920 0.2960067253126639 0.19802729728094076 0.5238003232384439 0.7543725376685829 0.5536701391093726 0.7211102314577191 -0.14552900164659488 -0.3700758120666617
624380568 0.29533769856619535 0.19781403895171043 0.5245956937780458 0.7551032740026151 0.5537650027834281 0.722266464555957 -0.14573633475730186 -0.36965153030516146
624975216 0.2949082865923727 0.19675985373250318 0.5240007206571934 0.7544483316848752 0.5552405503416693 0.7202171302529069 -0.14629467476453314 -0.3693409851782056
625569864 0.2952622588667622 0.1953455524254044 0.5262558289034998 0.7548207317088488 0.5555044710915915 0.7202831072410152 -0.14642061026342137 -0.36820616161497394
626164512 0.29503402233219733 0.19516817891045934 0.5269320631258391 0.7535388433055468 0.5558758814047033 0.7197040634047176 -0.1460182636270297 -0.36787999746391703
626759160 0.29396603339927135 0.19483511434750506 0.5286070258798478 0.7532424904589674 0.5566608891417797 0.7201585037791821 -0.14684851797648088 -0.36716080940336243
627353808 0.29394016970386283 0.19289891634387574 0.5299448062356428 0.753566716543689 0.5577780428024284 0.7194035416591853 -0.14693518459898966 -0.36646076194325317
627948456 0.29329685735248806 0.1927099525320529 0.5316081525253421 0.7529888197654863 0.5593876666926483 0.7184491175302181 -0.14735962032086225 -0.3657888317572209
628543104 0.29321465306777167 0.1922260742180624 0.5320179417417248 0.7525638709757364 0.5594770697147593 0.7181787269786607 -0.14741601624455772 -0.3652556299212915
629137752 0.29295039030522835 0.190945213439985 0.5324373168677751 0.7520878378499533 0.5603786791213783 0.7182370701644769 -0.14760957925196871 -0.3649563683289242
629732400 0.2924989558136176 0.19026316909926663 0.5345890092755257 0.7521553860854773 0.5602372862607846 0.7168685160673827 -0.14845319808019913 -0.3637158070661985
630327048 0.29184844477062843 0.19042518237771905 0.5348184112605393 0.7513165515336567 0.560963643840922 0.7181410870389606 -0.14822940906805787 -0.363222035846241
630921696 0.2915889374651518 0.18882778214764945 0.5372582885853139 0.7500240764589252 0.5634489994767644 0.7159758722023585 -0.1486632268284745 -0.3630117523887082
631516344 0.2912484908888251 0.18834599701804614 0.5377174386356284 0.7507440646941633 0.5635601340508821 0.717155514640312 -0.1489887975135215 -0.36177758002940835
632110992 0.29067865858553255 0.1876512665646137 0.5389505360092676 0.7508014215349306 0.5646542034283526 0.7159334444863376 -0.14915109557395087 -0.36148096364818055
632705640 0.29064563741940275 0.1865254746423039 0.5389909094940031 0.7485220940510532 0.5631977941662708 0.7155334669886929 -0.1492313515480131 -0.36125745366627465
633300288 0.29027669226783953 0.1859839969048544 0.5422746372796792 0.7492460309334007 0.5660279769124471 0.7154201849802306 -0.14958532565611707 -0.3606005834820925
633894936 0.28974745932915064 0.18449733625973977 0.5428183383711845 0.7481938715157246 0.5668783600899536 0.7150967361588186 -0.1497801109175382 -0.3596821555882223
634489584 0.28891187619654946 0.18400619314616373 0.5430217995753787 0.7481342116437512 0.5662065663251087 0.7145255880765626 -0.1501375631808926 -0.35951551510832525
635084232 0.28872255154229526 0.18367309200182397 0.5440093459167148 0.7471342180799747 0.5680683088499183 0.7128485997244524 -0.1507406696180605 -0.35813844834212927
635678880 0.2889027091902999 0.182564187193741 0.5470965287126542 0.7463509395241793 0.5695387221007008 0.7129845121063176 -0.150686998519233 -0.3582798033922509
636273528 0.28804493794137553 0.1829166288726527 0.545803321412958 0.7467262259289401 0.5688456186332551 0.7135647611579301 -0.15050904296769552 -0.3570129557358412
636868176 0.2875485888105389 0.18195166015194444 0.5454855954477587 0.7459452803196922 0.5689683845494411 0.7126460503763605 -0.1507510960817029 -0.3568695495089508
637462824 0.28756723369120357 0.1809716933101964 0.5472356034053745 0.7464389115076998 0.5699109391081741 0.712926842370776 -0.15117025632111564 -0.356359614078149
638057472 0.2868882996301858 0.18052062411217085 0.5480514243246041 0.745788261876392 0.5714722687711852 0.7133291454455217 -0.15110227920088998 -0.3549539419122008
638652120 0.2868541092486832 0.1792322861091773 0.5508343290667483 0.7451403795151557 0.5715549133209878 0.7110861862389596 -0.1519011483010588 -0.35468716024123964
639246768 0.28691732547371146 0.17870316937559688 0.5527859042469635 0.7450356966863139 0.5733998646620191 0.7105138162148154 -0.15224796245077388 -0.35393211266320057
639841416 0.2856511529188615 0.17904004421030584 0.5530238627963717 0.7436660910364022 0.5737739280959085 0.7104680848739864 -0.15183789838847078 -0.35313413512991526
640436064 0.2846801874479409 0.1786648988770275 0.550523458476708 0.7445317195398894 0.5731339490325448 0.7109503883835379 -0.15218382160252825 -0.35222522122797084
641030712 0.2846702150941819 0.17661426526516 0.5555644809338165 0.7419239575698137 0.5744122016545304 0.71012028296677 -0.15221349858717306 -0.35230332312972246
641625360 0.284848444572251 0.17610722939650014 0.556404614020544 0.7425814952128275 0.5758393302888911 0.7093623059700283 -0.15287860075521295 -0.3514960441408479
642220008 0.2839530698880976 0.17563608677924175 0.5555663917012441 0.7420536685230568 0.5757212611692216 0.7091364628194458 -0.15323320433016446 -0.3507593057717927
642814656 0.28338614357838043 0.17572401268441074 0.5563529303957965 0.7428019244025512 0.5768127691914118 0.7090282672525393 -0.15257013414231918 -0.35039947667226845
643409304 0.28308027683170106 0.17357138843980965 0.55840148043796 0.7408164832062395 0.5772049577500509 0.7090867679225196 -0.15393191485796384 -0.34940099995667123
644003952 0.28287286904317765 0.17368866561090612 0.5594637025232796 0.7409739999019112 0.5783049857686083 0.7088597552877114 -0.15383546134522955 -0.3492400967001791
644598600 0.2825146559215811 0.1727053549306317 0.561104715636017 0.7395133328662484 0.5796503243460087 0.7071466622766714 -0.1544802885272973 -0.34782273785608114
645193248 0.2821352731841799 0.17234500356580526 0.5624149235393696 0.739964139461492 0.5796306880348742 0.7083768664071183 -0.1540827272610269 -0.34741869332936326
645787896 0.28195635948040426 0.17137641996854985 0.5619286933842222 0.7398317247359061 0.578747939677504 0.7079555191316277 -0.15393592437029993 -0.34696847566138694
646382544 0.28123700827984593 0.1715174836491397 0.5639857943501477 0.7391422100494435 0.5817327553890037 0.7063751582722243 -0.15509702622389787 -0.3459550024793553
646977192 0.28101721947167685 0.1703581024093291 0.5648115317300865 0.738875517721635 0.5815541900285509 0.7064317407650638 -0.1552904452477069 -0.34567879550523234
647571840 0.2801991194286891 0.16960797219640616 0.5656797110271042 0.7388932055624343 0.5818684026131866 0.7060310398680384 -0.15514580532311922 -0.34498992825395963
648166488 0.27990621401489885 0.1692113089280798 0.567013747174105 0.7381967042938941 0.5835800028975001 0.705370839994152 -0.15522750651934636 -0.34390718028852935
648761136 0.27960131227778806 0.16845415176335315 0.5687896271309197 0.7368465031357253 0.5847556952072573 0.7049817770850385 -0.1560284000388456 -0.34315576382125285
649355784 0.27934347575865154 0.16827163120924357 0.568995175748307 0.7365180698626322 0.5852251009113165 0.7042946462684361 -0.15574181493006206 -0.34325473675073565
649950432 0.2789252166345446 0.16671630245411295 0.5695462550840438 0.7362249696051304 0.5855668177631976 0.7048314846490153 -0.15566511813181444 -0.34262389218477096
650545080 0.2781192668103515 0.16695297983451604 0.5705885780042751 0.7363250503431186 0.5849315359484212 0.7055420180982475 -0.15612125426718182 -0.3417313597941539
651139728 0.27807431814285277 0.16598706207403738 0.5723382414078785 0.7348671017352527 0.5864250593326226 0.7037420320385046 -0.15638856697971396 -0.34092804777431424
651734376 0.2774459076892661 0.16623443068433671 0.5723317090754396 0.7356993121751946 0.5871002935886608 0.7040956448131814 -0.15645654410838536 -0.34037169623996916
652329024 0.2770701809973032 0.16560393845115592 0.5735175083694043 0.7346581024483554 0.5878228782175341 0.7033551181251331 -0.1565954050608501 -0.3394034702687667
652923672 0.2768643494078625 0.16436396933258746 0.5742531040964988 0.7342373232276134 0.5882317535243048 0.7030997750212319 -0.15769163996221222 -0.3384031896859523
653518320 0.2764519599999355 0.16429563555595159 0.5751266756117744 0.7337207778813616 0.5896338951038297 0.7030331855828124 -0.1575620291051952 -0.33834890116245797
654112968 0.275435520895054 0.16323877934416983 0.5759995033521944 0.7340845274946137 0.5900013695391065 0.7027458402603114 -0.1581870882396858 -0.33773561767913846
654707616 0.27532701920319763 0.16235724376639504 0.5789327935147122 0.7312233880399875 0.5923140299259664 0.7005100448071291 -0.15824722702764918 -0.33685047806617824
655302264 0.27502953433537525 0.16229800124845734 0.5783342519209758 0.7315619948191535 0.5908360812245348 0.7018815089828465 -0.15757392159628067 -0.3359689202318117
655896912 0.274860506135148 0.16144948547167454 0.5800403297926255 0.731189899171443 0.5927714140113612 0.7017869030476804 -0.1586727977414399 -0.3356573603470407
656491560 0.27454680863893677 0.1620823268027728 0.5800255618333213 0.7321840601238542 0.592769725051381 0.7012538469707873 -0.15784058563954384 -0.33383113699923644
657086208 0.27351255674819097 0.1606642190043884 0.5814778206666983 0.7302089941598969 0.5948048215073934 0.6997968013833241 -0.15893061605413425 -0.33422453763558113
657680856 0.2731172211446729 0.1604150010376014 0.5819591311947658 0.7292587299667168 0.5950730371422025 0.699745611040891 -0.15860777122920147 -0.33324824955198995
658275504 0.2726959893103196 0.15931909201542696 0.5861431200040097 0.7290867425464199 0.5971967956800291 0.6991698113189039 -0.1588079230956163 -0.331943215432743
658870152 0.2725033392923861 0.15913632505568195 0.5842913075807642 0.729021383640349 0.5958308244410949 0.6999789923806571 -0.15944935660698312 -0.3317856169071231
659464800 0.27230597275561175 0.15868322315954783 0.5868926929302519 0.7278883312039611 0.5965280515990024 0.6999840954352045 -0.1586930107579298 -0.33100501430254997
660059448 0.27018424196912383 0.15414198239085966 0.5870374599830004 0.7260105450635012 0.5966720279493597 0.6985303299907067 -0.1605406970893811 -0.3330740644175429
660654096 0.2706520809767124 0.15589723539012668 0.5893345032114353 0.7251666542371027 0.5976973476487242 0.6982974344383777 -0.1598821779936829 -0.3309378665965658
661248744 0.2701054915801575 0.15464070416873094 0.5913731021488479 0.7236417047157948 0.5992273302579255 0.6968226291085443 -0.1594301246344267 -0.3305547522310379
661843392 0.2696296947850595 0.15488474768010957 0.5912821577106282 0.7245953350215649 0.5999004916005064 0.6970014250250477 -0.15872730303494287 -0.3293184453479899
662438040 0.26960907604704043 0.15374049203689633 0.5911000149858506 0.7235710444074197 0.5991107315261787 0.6966006135665259 -0.15936484116840902 -0.32826321554280175
663032688 0.26903772271827825 0.1537221813312154 0.5930107862685637 0.7224315536036268 0.6015914147974168 0.6955338872770521 -0.15962839965188377 -0.3274611023890378
663627336 0.269161762093899 0.1536527951002891 0.594122009269316 0.7219714820087788 0.602648489003495 0.6945582269419958 -0.15954564154921339 -0.3271350471937874
664221984 0.26871691387694285 0.1524093828096656 0.595772816061845 0.7213572344514823 0.6031697949032523 0.695763914763062 -0.16003419378268025 -0.3261640234721052
664816632 0.26880535450629417 0.15275971411771755 0.5942822306750999 0.7218730745293357 0.6020783894597848 0.6958496802465314 -0.15924290614281925 -0.32510399606330614
665411280 0.26836742037886024 0.152583079754914 0.5959525245710008 0.7211275104769128 0.6025181118175387 0.6953173589616289 -0.15897897450200674 -0.32427751866006
666005928 0.2680945517088704 0.1515317042793256 0.5974013528947931 0.7192876283703427 0.604364046689365 0.6940719795881448 -0.15991198074361287 -0.3241682876998787
666600576 0.2682673960948514 0.1513063861983607 0.5983867099819591 0.719696555902062 0.6052194179196443 0.6940837097155909 -0.15968832644354294 -0.32265406558108706
667195224 0.26805355607558234 0.15108889206107515 0.5989695147938413 0.7192883648967611 0.6049946335559571 0.694682009473177 -0.15954619364793876 -0.322328557017893
667789872 0.2676949551854998 0.15029738997083114 0.6004407499866171 0.7174095337431532 0.6059092271814762 0.6936032222588073 -0.16038181260352452 -0.32123884463547386
668384520 0.26717083550113435 0.1502793003840145 0.6013214257639397 0.7181571382942055 0.6074737442746617 0.6928682531657235 -0.16061975943014545 -0.3203731970509069
668979168 0.26660768475561625 0.1499437509178954 0.6021527373952699 0.7187934261314171 0.6063781792943257 0.6942526566057097 -0.1595411496255538 -0.3200533471064851
669573816 0.2666662651910035 0.14977544835034226 0.6037309436346097 0.717021153326496 0.608309629584694 0.6926905806454413 -0.16021369837762706 -0.3191760501502788
670168464 0.2660909107392879 0.1489003133897208 0.6043023827519339 0.716271271895431 0.6087081691573509 0.6914996377429057 -0.16051328845053256 -0.31766895120903416
670763112 0.2657345410157084 0.14905625802230835 0.6039076908351219 0.7163380453360182 0.6095029945062316 0.6921329274540002 -0.160825573008273 -0.31766954601447134
