# HZ S RI R 50
600000000 -0.0765823912698523 -0.5234542984480702 0.2532430929939986 0.8129320488010394 0 0 0 0
600594648 -0.07627184866296692 -0.5207260093217854 0.24938194647841389 0.8165941230871017 0 0 0 0
601189296 -0.07813594067231122 -0.5197613707043092 0.24985986848840544 0.813348008345307 0 0 0 0
601783944 -0.07874739802579506 -0.5197646653795392 0.2521306604028974 0.8146228348338251 0 0 0 0
602378592 -0.07620132416399292 -0.5141636544158618 0.2521706299235686 0.8138878553531517 0 0 0 0
602973240 -0.07977082228751584 -0.5191424839918095 0.25567241322905654 0.8129542810322906 0 0 0 0
603567888 -0.07658027115874874 -0.516336684090588 0.2539760720263874 0.815526096433951 0 0 0 0
604162536 -0.08292377916008313 -0.5111923257852723 0.25429009953540777 0.812597294649138 0 0 0 0
604757184 -0.08306039098128967 -0.5114984673743143 0.2562484682234916 0.8135190886852591 0 0 0 0
605351832 -0.07964666056971843 -0.5098221234577456 0.2568009505226199 0.8125033776998709 0 0 0 0
605946480 -0.08450897271375166 -0.5095135586265593 0.2571102139287557 0.8132190975479562 0 0 0 0
606541128 -0.08706087533403556 -0.5100266988845213 0.2578379951367803 0.8125736057824832 0 0 0 0
607135776 -0.08895315176614069 -0.5125807238285525 0.2597828012141265 0.8147760238796797 0 0 0 0
607730424 -0.08813907582517269 -0.5084633885558499 0.2592568347052174 0.8150845664214262 0 0 0 0
608325072 -0.09153763186613423 -0.5089625231356923 0.2631628150135131 0.812679496475083 0 0 0 0
608919720 -0.09215679866272894 -0.5102851504778416 0.26296254933151014 0.813699565757593 0 0 0 0
609514368 -0.08721430065518347 -0.5075458843538451 0.26441243641180445 0.813625124788868 0 0 0 0
610109016 -0.09409006114718528 -0.5053644773619267 0.26522641994308294 0.8142398801290776 0 0 0 0
610703664 -0.09300374890398266 -0.5020113040052895 0.2646594374718445 0.8117455862759265 0 0 0 0
611298312 -0.09664806153572937 -0.5049624170909218 0.2676420598262247 0.8133063024487984 0 0 0 0
611892960 -0.09707154294744832 -0.5046660227364982 0.26774817737654355 0.8121312277163875 0 0 0 0
612487608 -0.0987935747936827 -0.5025482523129208 0.26948723441522937 0.812300752120766 0 0 0 0
613082256 -0.09924432167757911 -0.49823911774487983 0.2701909229234066 0.8131743694059013 0 0 0 0
613676904 -0.09553615121180656 -0.5030221161516913 0.26920372774607465 0.813452691258421 0 0 0 0
614271552 -0.1027796598429592 -0.5024511825634647 0.27451344140378303 0.8129792130432458 0 0 0 0
614866200 -0.10091633580607631 -0.5017536819653586 0.2728709850444466 0.8105328139047709 0 0 0 0
615460848 -0.1032107036549236 -0.4959000540592735 0.2738967141065787 0.812546765709978 0 0 0 0
616055496 -0.10392853641358327 -0.4986177951612187 0.2736942181823118 0.8126989962546901 0 0 0 0
616650144 -0.10184593382951931 -0.49848010723422115 0.2778128646756351 0.8120776344976803 0 0 0 0
617244792 -0.1027841303590775 -0.49606180101360126 0.276443125279387 0.8134117230984172 0 0 0 0
617839440 -0.10501107776905791 -0.49148600017236166 0.27861085758055243 0.8121107083873844 0 0 0 0
618434088 -0.1071698885284432 -0.4932733470078687 0.28018657915515804 0.8110559058519007 0 0 0 0
619028736 -0.10945487601261795 -0.49302137099507864 0.28164246375382773 0.8112720673397518 0 0 0 0
619623384 -0.11052340385286245 -0.492764224396575 0.2817769257980305 0.8126784316382535 0 0 0 0
620218032 -0.1079566052398824 -0.4894667227210575 0.2823220570147412 0.8107833194908208 0 0 0 0
620812680 -0.10976427494348655 -0.4922566995527892 0.28303502275412545 0.8105582848198175 0 0 0 0
621407328 -0.11451862820713207 -0.4935512852606361 0.28549558294822736 0.8102317527756353 0 0 0 0
622001976 -0.11052868161816398 -0.48984627856682295 0.28540094441120484 0.8099000976404391 0 0 0 0
622596624 -0.11475048724364138 -0.4863592926356618 0.2868204674993604 0.809184977765324 0 0 0 0
623191272 -0.11465113050852474 -0.4866056733061586 0.28586706188941635 0.809385907751019 0 0 0 0
623785920 -0.11788121695564355 -0.48902863096499055 0.28674845997187665 0.8108839861363181 0 0 0 0
624380568 -0.12119388292850417 -0.4881472803260033 0.29139106289162764 0.8088223553324065 0 0 0 0
624975216 -0.11738979323077359 -0.48531778504816975 0.2891452629922343 0.8095998230037388 0 0 0 0
625569864 -0.11472752689293524 -0.4848481167665975 0.2904691909063657 0.8088003526064583 0 0 0 0
626164512 -0.11690882004064795 -0.4846957249242121 0.291421551241483 0.8095486159076274 0 0 0 0
626759160 -0.12214237653559158 -0.48210967997158344 0.29432595349893886 0.8070097427071097 0 0 0 0
627353808 -0.1210138257539144 -0.4821601235394362 0.29625983890100216 0.8086279791122706 0 0 0 0
627948456 -0.11946574826395744 -0.4825278908674595 0.2945490598628028 0.8077625238828618 0 0 0 0
628543104 -0.12269171011804975 -0.4832034967071668 0.2960089827464683 0.8095336981429125 0 0 0 0
629137752 -0.12214663279410244 -0.48197041981206107 0.29902222383539995 0.8077413317741285 0 0 0 0
629732400 -0.1236704320481833 -0.47828013666149083 0.3002400872676639 0.8056600772116234 0 0 0 0
630327048 -0.125883382223538 -0.48042904394211805 0.301255639032534 0.8083656514027012 0 0 0 0
630921696 -0.1265013562287976 -0.480711241560964 0.3034505951401247 0.8075466871868219 0 0 0 0
631516344 -0.1255785505601658 -0.47891229108004957 0.3003028878999813 0.8077470947601579 0 0 0 0
632110992 -0.12994419664697032 -0.4814729304867681 0.30409739624154947 0.80614284616927 0 0 0 0
632705640 -0.12769834261835528 -0.48018033003431043 0.3024920394551592 0.8093281987306296 0 0 0 0
633300288 -0.12866918042838213 -0.4777749327862949 0.3058877921866587 0.8054116579020528 0 0 0 0
633894936 -0.12789020786263305 -0.476887359197463 0.3060514467631397 0.8058079466566493 0 0 0 0
634489584 -0.13227090083883863 -0.4765908653764965 0.30727287831359684 0.8043495538410023 0 0 0 0
635084232 -0.13443493360135275 -0.4763877381585839 0.31071250847913323 0.8043368275441073 0 0 0 0
635678880 -0.13192248584604196 -0.47895527854388786 0.31127478520681645 0.8062552961713192 0 0 0 0
636273528 -0.13988771676761474 -0.47649729333359603 0.31343080036382515 0.8046574334958374 0 0 0 0
636868176 -0.13427903197810148 -0.47509805425527685 0.312364399976868 0.8039637803966174 0 0 0 0
637462824 -0.13492108898862207 -0.475744314804245 0.31148760537216186 0.8045988487618324 0 0 0 0
638057472 -0.13550971435784298 -0.47687565792505276 0.31329647023465845 0.8042843463370162 0 0 0 0
638652120 -0.13585019363524312 -0.47580099005941595 0.3160224764781474 0.8038847140077837 0 0 0 0
639246768 -0.13674030128377393 -0.4717756893153328 0.3169204198629936 0.8013419958336465 0 0 0 0
639841416 -0.1401831349446351 -0.4747364174379073 0.31854703314016597 0.8037172811846762 0 0 0 0
640436064 -0.13810444338879438 -0.472741807712023 0.3178053047026168 0.8018270348741823 0 0 0 0
641030712 -0.13703438199584828 -0.4679233174196147 0.31939568286415215 0.8026077758739277 0 0 0 0
641625360 -0.13909416066004496 -0.47214990745970314 0.3191283973733879 0.801823036720028 0 0 0 0
642220008 -0.13818867703189708 -0.46892462025186893 0.32087080445340566 0.8013518785476265 0 0 0 0
642814656 -0.14592487527660178 -0.4690760561186053 0.32243425647611035 0.8000386630202381 0 0 0 0
643409304 -0.14322765238352392 -0.47376149121776506 0.3252212777243425 0.8017544355951688 0 0 0 0
644003952 -0.1423826004043641 -0.46902089326489077 0.32570364647657285 0.8009474798505066 0 0 0 0
644598600 -0.14622197355931482 -0.4693203474167336 0.3261410983510783 0.8015610413719695 0 0 0 0
645193248 -0.14135920054032375 -0.4692871573347858 0.3269624552998691 0.800303578411684 0 0 0 0
645787896 -0.1492138699895273 -0.4669834206871216 0.3300016538278848 0.7993778101891047 0 0 0 0
646382544 -0.1468793257672747 -0.4700849655742445 0.33045131833767316 0.7998830255149451 0 0 0 0
646977192 -0.1486470518173395 -0.4660856887113688 0.33026347334280587 0.8000145704439594 0 0 0 0
647571840 -0.14815935919746728 -0.4690262283706092 0.33169918374009333 0.800182891272327 0 0 0 0
648166488 -0.15218484744868677 -0.46591065659370745 0.33336615621866217 0.7977430782889864 0 0 0 0
648761136 -0.14777199522411416 -0.46432849619406086 0.3352224830566927 0.7980041473902588 0 0 0 0
649355784 -0.1541796345201797 -0.4633126007726755 0.3366829655261404 0.7981553376746614 0 0 0 0
649950432 -0.14946276666044406 -0.4641988055374647 0.3354824584872009 0.7984507425692703 0 0 0 0
650545080 -0.14914806766431582 -0.4626826210439463 0.3370216519816721 0.7975998971102928 0 0 0 0
651139728 -0.1509136874793558 -0.4630247959919467 0.33841354919478067 0.796790423324631 0 0 0 0
651734376 -0.1515711269193768 -0.4670639758561236 0.33948248108999407 0.7981753488863322 0 0 0 0
652329024 -0.15166656201979065 -0.46702462256108235 0.3413396894081274 0.7977245259448287 0 0 0 0
652923672 -0.1530588129238549 -0.4645018494234545 0.3430655427137205 0.7968892411027697 0 0 0 0
653518320 -0.15586783809382296 -0.46108560875910876 0.34259757864766593 0.7953225100488908 0 0 0 0
654112968 -0.15306599858010256 -0.4621841902645781 0.34354050180054996 0.795164109054904 0 0 0 0
654707616 -0.15198762560098225 -0.46350412457029144 0.3435034161489227 0.7953592149747214 0 0 0 0
655302264 -0.1529767891477331 -0.46093786154977 0.34903822763186837 0.7930335499485461 0 0 0 0
655896912 -0.15724006747632518 -0.4621302127097098 0.34911363490049757 0.7962479508355067 0 0 0 0
656491560 -0.1565630921937272 -0.4628686120687858 0.346996416146113 0.7946557918801732 0 0 0 0
657086208 -0.1561722726573072 -0.4607112175821205 0.35064539287361335 0.7946328050848855 0 0 0 0
657680856 -0.15695978153896198 -0.46266363212307826 0.35098604367393743 0.7938809790911002 0 0 0 0
658275504 -0.15760129398253553 -0.4580294931894937 0.34989149372888484 0.7915226841153201 0 0 0 0
658870152 -0.1597105509854145 -0.46110517501579895 0.35218929187490133 0.7921613038474942 0 0 0 0
659464800 -0.15990905544846154 -0.46160521862295795 0.3537689166581518 0.7925979797349655 0 0 0 0
660059448 -0.1516780610063559 -0.4715224505358994 0.3518051272618654 0.8010032866946237 0 0 0 0
660654096 -0.1490819757454078 -0.4657231180163569 0.35125833988134947 0.8006297171702152 0 0 0 0
661248744 -0.1559943245328107 -0.4691477665937899 0.35637558430198996 0.7990365830685097 0 0 0 0
661843392 -0.15251376384838147 -0.466595890871599 0.35587205771447417 0.7999906380072489 0 0 0 0
662438040 -0.1566876830808843 -0.4581835180050686 0.3557431632744089 0.7951647986206943 0 0 0 0
663032688 -0.15855728161085905 -0.4567949785625404 0.35743194764391156 0.7954970682200341 0 0 0 0
663627336 -0.15424541922011734 -0.4521698498201 0.357463323154452 0.7936239735668451 0 0 0 0
664221984 -0.1613271582731564 -0.4506363623550398 0.360188522157342 0.7893881471862075 0 0 0 0
664816632 -0.1647072993788415 -0.45110669283072274 0.36063788435799204 0.7908019496103813 0 0 0 0
665411280 -0.15661204154784653 -0.4497720998748426 0.36073647249305907 0.7904882715327352 0 0 0 0
666005928 -0.15998287292792931 -0.4498258443890577 0.36161288735208197 0.7900703303469595 0 0 0 0
666600576 -0.16125637314321842 -0.44875507611713383 0.3652713923536685 0.788663572738085 0 0 0 0
667195224 -0.16074168250878765 -0.4522009257166261 0.3645031440286774 0.7894616136760944 0 0 0 0
667789872 -0.16401374892034332 -0.4512271956548196 0.3658645007041259 0.790318614506275 0 0 0 0
668384520 -0.16152309875310875 -0.4439165978566991 0.36569754142646815 0.7876734081307893 0 0 0 0
668979168 -0.16131085601951325 -0.44663236521473126 0.3706722536674226 0.7871919967772594 0 0 0 0
669573816 -0.16255292840445984 -0.4460131728039926 0.369798045432332 0.7890134590801134 0 0 0 0
670168464 -0.16210977538323557 -0.44494540054064446 0.3688163619063112 0.787121733312912 0 0 0 0
670763112 -0.1664325096093265 -0.4483869998623601 0.37209484696022893 0.7881833423409722 0 0 0 0
671357760 -0.1650013044089118 -0.44662609317406576 0.37202277129411576 0.7891180082167648 0 0 0 0
671952408 -0.16533575428252067 -0.4484954217199609 0.37449545846978094 0.7877789045404199 0 0 0 0
672547056 -0.16501484330735905 -0.44455458115450924 0.37348200593991243 0.7863838301533214 0 0 0 0
673141704 -0.1633571307881788 -0.4456368859067904 0.3763763865879083 0.788428684424862 0 0 0 0
673736352 -0.165861622713535 -0.44514287525725615 0.3766081600551522 0.7848520718061945 0 0 0 0
674331000 -0.16308541600136356 -0.44961628211125626 0.3795490101423793 0.7870332504876988 0 0 0 0
674925648 -0.16662195117031256 -0.4467270525236143 0.3799146709161553 0.7878484309214819 0 0 0 0
675520296 -0.16554104517769608 -0.4431165747114891 0.38167937605075 0.7859514698270312 0 0 0 0
676114944 -0.16694226978767013 -0.44754991843750197 0.38234446011745865 0.7868782733747953 0 0 0 0
676709592 -0.16777034139339644 -0.44361799777821154 0.38142375492478714 0.7860917625809086 0 0 0 0
677304240 -0.16431307123253244 -0.4454297351087269 0.3828450339932301 0.7861357777933321 0 0 0 0
677898888 -0.16350857633258828 -0.4507170016007814 0.3834464990613597 0.7881779171394103 0 0 0 0
678493536 -0.1679474414337229 -0.4452116245397784 0.3826924943715348 0.7861190365901058 0 0 0 0
679088184 -0.16814702215499538 -0.4451430004289415 0.3862625382238001 0.7848658247097956 0 0 0 0
679682832 -0.1712408454643186 -0.4420853004526497 0.38606543169299573 0.7840907871337486 0 0 0 0
680277480 -0.17122727391220158 -0.44205428210614034 0.389494833008987 0.7837314223403784 0 0 0 0
680872128 -0.1710776616403726 -0.4434436802999897 0.38939876885418945 0.7857280846381918 0 0 0 0
681466776 -0.17134890930376692 -0.44283627181965424 0.3920240243131233 0.7844812523777446 0 0 0 0
682061424 -0.17131475205682464 -0.44414524273708106 0.3931547373419863 0.784389002368659 0 0 0 0
682656072 -0.17111726897922086 -0.44076916061618693 0.3930118379755093 0.7817991373763679 0 0 0 0
683250720 -0.17065726041468238 -0.4418408005821438 0.393016983099286 0.7846916823921908 0 0 0 0
683845368 -0.17146753324193909 -0.44310341490109195 0.3941006759666101 0.7844477257296666 0 0 0 0
684440016 -0.17331121801926 -0.4444352812116459 0.3967881038950104 0.7834364692240723 0 0 0 0
685034664 -0.17443550399573307 -0.44450402862993965 0.39766830453558155 0.7816682624742256 0 0 0 0
685629312 -0.17058749570232798 -0.43594685145246215 0.39820121100991734 0.7815253818659971 0 0 0 0
686223960 -0.17183281820946486 -0.43891892118846054 0.3987380286051133 0.781096853842681 0 0 0 0
686818608 -0.17640438666526045 -0.4377225198857957 0.40086287791654096 0.778491533024547 0 0 0 0
687413256 -0.17357666243580466 -0.4378513899579315 0.39971527125652884 0.7789919421551109 0 0 0 0
688007904 -0.1722908019726319 -0.4387941291026973 0.4015618787583052 0.7790931625660817 0 0 0 0
688602552 -0.1744695805690594 -0.4406879061254814 0.40521666310088805 0.7800684834097711 0 0 0 0
689197200 -0.17454336869321252 -0.4400231257501614 0.40424255985323226 0.7791301748204243 0 0 0 0
689791848 -0.1753166657907394 -0.44198049407134654 0.40623056138494446 0.7808798950540128 0 0 0 0
690386496 -0.1755946535692619 -0.43908322153293466 0.40431653172557874 0.7807048768654371 0 0 0 0
690981144 -0.17605032472681356 -0.4379075036496287 0.4063465518669745 0.7820599603902713 0 0 0 0
691575792 -0.1753042113675285 -0.43911655220573437 0.40666867756866215 0.7798426156721328 0 0 0 0
692170440 -0.18130312250771935 -0.436391991424022 0.40988927095270655 0.7782567109969108 0 0 0 0
692765088 -0.17939526992677982 -0.4371545970055644 0.41125983443106445 0.7781929868583969 0 0 0 0
693359736 -0.18089823641812705 -0.43831426008484947 0.4137116908679748 0.7775967380147505 0 0 0 0
693954384 -0.17890767627645285 -0.4365612363873843 0.41233080248996246 0.7782111160808298 0 0 0 0
694549032 -0.1778264185712397 -0.4345880141520257 0.4143443648051478 0.7760674597226461 0 0 0 0
695143680 -0.18378779299518674 -0.43426477157451104 0.4165074469879453 0.7740129976228589 0 0 0 0
695738328 -0.1779774369459289 -0.43557496974444765 0.41756559164086327 0.7765972488765165 0 0 0 0
696332976 -0.18189936233621037 -0.4349448909082378 0.41877545541249406 0.7756435574060702 0 0 0 0
696927624 -0.17966016846692395 -0.43311050795108536 0.41732319203128704 0.7733951493609147 0 0 0 0
697522272 -0.17948673830308431 -0.43650494556864605 0.4178152147086534 0.7743188021333581 0 0 0 0
698116920 -0.18395572949133487 -0.43645231354201014 0.4209631678423778 0.7750832787505252 0 0 0 0
698711568 -0.17905210598184754 -0.43339162907606654 0.4217523872551052 0.7737070892719172 0 0 0 0
699306216 -0.18178308249055222 -0.43865733292068626 0.42473670165380895 0.7752388085456242 0 0 0 0
699900864 -0.18323823667130565 -0.43527215124652885 0.42208966799478875 0.7731937976670931 0 0 0 0
700495512 -0.18107454192005312 -0.43745807395700764 0.4243406741712713 0.7735254345300966 0 0 0 0
701090160 -0.18335809841221065 -0.4352301608767644 0.4255653416518674 0.7723675589956024 0 0 0 0
701684808 -0.18480580246421502 -0.4339012990491938 0.42982547840898067 0.7690642881156975 0 0 0 0
702279456 -0.18470403988371237 -0.43259670210899837 0.4291688449258624 0.7694684839411046 0 0 0 0
702874104 -0.18754357112361286 -0.43532108878873 0.42728321230704397 0.7715240680734786 0 0 0 0
703468752 -0.18662036277274144 -0.4317220007921642 0.4306740475953512 0.7678494956753287 0 0 0 0
704063400 -0.18798867046828702 -0.43587262685864914 0.4325313917731704 0.7701102936409948 0 0 0 0
704658048 -0.18779003613045653 -0.4360669183095288 0.432397925360428 0.7696489814456025 0 0 0 0
705252696 -0.1823520168770058 -0.4347753487928871 0.43291017397388654 0.7679726803942883 0 0 0 0
705847344 -0.18772491532254773 -0.43524901632061463 0.43598627831098874 0.7686089764900571 0 0 0 0
706441992 -0.1876177161985963 -0.43572844100219876 0.4336190590932548 0.7697146567914738 0 0 0 0
707036640 -0.1866188264073399 -0.42931674322505475 0.4325015673866673 0.7673449058254569 0 0 0 0
707631288 -0.18440024222424747 -0.4294067211390563 0.4345941610677846 0.768128656940146 0 0 0 0
708225936 -0.18967244228451965 -0.436902664208115 0.4404335819916008 0.7670165481242981 0 0 0 0
708820584 -0.18682306373570667 -0.43251209909666927 0.4398206077447525 0.7668104210916717 0 0 0 0
709415232 -0.18545157362809314 -0.4301038005547376 0.4404549517557851 0.7648506022224582 0 0 0 0
710009880 -0.18697764499357014 -0.4356703525322745 0.44165150909515544 0.7652895655910709 0 0 0 0
710604528 -0.18408449939217575 -0.4294364440256297 0.43926560517837737 0.7671108008716875 0 0 0 0
711199176 -0.18815394683204745 -0.4330280928470098 0.44275106978136597 0.7657747918870356 0 0 0 0
711793824 -0.18991146313826765 -0.43251197114198753 0.44342738330802 0.7648856907089608 0 0 0 0
712388472 -0.18488931876619988 -0.42879165783467366 0.4444258557246685 0.7641965599106489 0 0 0 0
712983120 -0.18244427743384908 -0.43047442886409276 0.44489526336671625 0.7639157643922645 0 0 0 0
713577768 -0.18363092354420132 -0.42993281830639507 0.44459590049988035 0.7636095370760093 0 0 0 0
714172416 -0.18765037505690077 -0.43062601637519465 0.44832880246075585 0.762992866023029 0 0 0 0
714767064 -0.1850955437013149 -0.4316691835545756 0.44694652355412745 0.7637852195171825 0 0 0 0
715361712 -0.19031923903648254 -0.43222962699475825 0.4511284723945267 0.7617693809320445 0 0 0 0
715956360 -0.1885006308675657 -0.4337504897756902 0.45128309156318575 0.7595721248551485 0 0 0 0
716551008 -0.19364608607415587 -0.4273255669390274 0.45393103148663344 0.7609427589603587 0 0 0 0
717145656 -0.1887625451772541 -0.43088510921729994 0.4532214995159731 0.7605490247006976 0 0 0 0
717740304 -0.18978354393476496 -0.4320362165722221 0.4543282474535493 0.7606810032371971 0 0 0 0
718334952 -0.19174860989956738 -0.4301253500715306 0.45405592127228156 0.7594499120042572 0 0 0 0
718929600 -0.18935322391483864 -0.4271104607230867 0.457185782787815 0.7585538072394673 0 0 0 0
719524248 -0.19019367976993437 -0.42867029084152636 0.4579111482645333 0.7590385144691051 0 0 0 0
720118896 -0.18866019825693847 -0.42375782820166197 0.4597546101430927 0.7555190261111733 0 0 0 0
720713544 -0.18466907198125032 -0.42726898926377815 0.45978841841166546 0.7552322144483129 0 0 0 0
721308192 -0.1856355654675788 -0.4313742148156956 0.4604967924063309 0.7572854462271892 0 0 0 0
