# HZ S RI R 50
600000000 0.28335619765035724 0.2844543936291801 0.44174016006805283 0.7379378057569158 0 0 0 0
600594648 0.25915565002272256 0.2875602995315058 0.4422990982411281 0.738602458657918 0 0 0 0
601189296 0.2736394575402852 0.2832120585421164 0.4427338615300608 0.7369292617821677 0 0 0 0
601783944 0.27561668385339877 0.277886745580363 0.44319005104017983 0.7353624700231689 0 0 0 0
602378592 0.28027069710249014 0.2776469489650645 0.44708124127745485 0.735222752824154 0 0 0 0
602973240 0.2816580025578371 0.2742319671686306 0.4466614633952567 0.733776315953985 0 0 0 0
603567888 0.27626066836538876 0.26748651355309644 0.44846269051568244 0.7325098466573697 0 0 0 0
604162536 0.28170750118255633 0.27123872603103477 0.4480354512456791 0.7349825961418165 0 0 0 0
604757184 0.2822619775160585 0.26973608562087736 0.4504593417838437 0.7329650321379684 0 0 0 0
605351832 0.28328607067011696 0.2706971692378782 0.4527985976071675 0.7332132072884368 0 0 0 0
605946480 0.28315655945162566 0.2666700258030554 0.45411961388504424 0.73241384581722 0 0 0 0
606541128 0.2778226881626715 0.2715417459253029 0.45444499774855557 0.7320331308298414 0 0 0 0
607135776 0.2839651631862323 0.2677057388420519 0.45410037200428044 0.7328000679892538 0 0 0 0
607730424 0.2838904624662236 0.26885702311230486 0.45505812350758934 0.730684770318663 0 0 0 0
608325072 0.2819948633953936 0.263648358788404 0.45765738261966654 0.7305676016290572 0 0 0 0
608919720 0.28109772624407675 0.2613519523618879 0.45695760895823057 0.7316049525219336 0 0 0 0
609514368 0.28290366482084406 0.264205405961788 0.45941128050841923 0.7278769221703519 0 0 0 0
610109016 0.28331857973868296 0.2646312494895066 0.45941776333448686 0.7307270618337346 0 0 0 0
610703664 0.28335240755871366 0.2613651861778583 0.4622121064452057 0.7297229897220856 0 0 0 0
611298312 0.2785243066891626 0.2598451143019254 0.463534025106473 0.7277377697954892 0 0 0 0
611892960 0.28170027768205685 0.2635949260099197 0.46442575542176606 0.7271929742011444 0 0 0 0
612487608 0.28259203157146967 0.2626324110356559 0.46260552223105433 0.7293954774839554 0 0 0 0
613082256 0.2806841502665662 0.26277316560414166 0.46695675017077237 0.7285982100334292 0 0 0 0
613676904 0.2837681618247399 0.25837310365776617 0.4653177905766935 0.7252985913507539 0 0 0 0
614271552 0.2792738486027054 0.25866874864571276 0.466984899512447 0.726883484400462 0 0 0 0
614866200 0.2774273731097117 0.257546772672543 0.4686086785522436 0.7248699154842511 0 0 0 0
615460848 0.2795700090917171 0.2521007709229815 0.47150835453539025 0.7252182006288582 0 0 0 0
616055496 0.28195877874135683 0.25451366213233156 0.47088797116297 0.7258089229852027 0 0 0 0
616650144 0.2807766890577404 0.2578347240464501 0.4729890074479838 0.725932698691804 0 0 0 0
617244792 0.28019153064494234 0.2520534428563653 0.4752393320612605 0.724205279057689 0 0 0 0
617839440 0.28314168487297686 0.2516265643071776 0.47427112775775593 0.7222406044253085 0 0 0 0
618434088 0.28036801710725634 0.2536103857144354 0.47683585032497416 0.7231032982703995 0 0 0 0
619028736 0.28065653407138563 0.25587032462547177 0.4760967715315494 0.7227571801480849 0 0 0 0
619623384 0.28147988171801663 0.2524355581640357 0.47699767518468444 0.7227232167400419 0 0 0 0
620218032 0.28357325759414964 0.24734967452524462 0.477060536590361 0.721236911215894 0 0 0 0
620812680 0.2818700940215339 0.2506665652497568 0.47917030160582497 0.7210495327580719 0 0 0 0
621407328 0.2784437570479049 0.25035736155725635 0.4807159083649869 0.7220961091332523 0 0 0 0
622001976 0.28012985405285135 0.24841199389518834 0.4831216629428703 0.719734958913279 0 0 0 0
622596624 0.2807561749400492 0.24939091897891996 0.48389363794100404 0.7202230995541646 0 0 0 0
623191272 0.2842581320414163 0.24404983065205876 0.4840189513533376 0.7187445971375152 0 0 0 0
623785920 0.27872008334789633 0.24300763674001516 0.4851659284757649 0.7201340556958828 0 0 0 0
624380568 0.2775382794740456 0.245599698124604 0.4883050615819939 0.7208963341158525 0 0 0 0
624975216 0.27988477355991165 0.24584750625825225 0.48565067315936367 0.7197711957583383 0 0 0 0
625569864 0.28190434819786414 0.24606310112235688 0.48907019912361477 0.7164692977153653 0 0 0 0
626164512 0.27735268492795273 0.2393531871059877 0.489550632843078 0.7167775893662164 0 0 0 0
626759160 0.27794268263787825 0.24552971534469187 0.4912999840921395 0.7167174312906158 0 0 0 0
627353808 0.2765630319813276 0.24429946400221886 0.4924659597460549 0.7165425868778288 0 0 0 0
627948456 0.28007584131709684 0.2373291235772531 0.4931593755762352 0.715988243906262 0 0 0 0
628543104 0.280284931086159 0.23664478555729027 0.4941006694264724 0.7172951267145111 0 0 0 0
629137752 0.28140031212397315 0.23813383179946238 0.49481643061362834 0.7152768305540298 0 0 0 0
629732400 0.2800264483354272 0.23862164168246347 0.49559623780128986 0.7155292575464555 0 0 0 0
630327048 0.2798445911656979 0.23618620427971865 0.497362260186574 0.714210639945219 0 0 0 0
630921696 0.27739418527938686 0.2386975332379459 0.49868484075585784 0.7139649125312318 0 0 0 0
631516344 0.28231246520294795 0.2336850734700215 0.4995572830051179 0.7126331693041671 0 0 0 0
632110992 0.27875509851623953 0.23680328451509894 0.5017446493446254 0.7118410474727442 0 0 0 0
632705640 0.2810609154351526 0.23362186152364417 0.5006306953305061 0.7128378288419572 0 0 0 0
633300288 0.28203403281658157 0.23281576375710222 0.5024388261662349 0.7106960046347842 0 0 0 0
633894936 0.2773293958327873 0.2320292974147421 0.5039701899977307 0.7108091536536849 0 0 0 0
634489584 0.27754752405213273 0.23444931467187077 0.5061169735320756 0.7108351289901915 0 0 0 0
635084232 0.275959950125711 0.23030096585821103 0.5060006929493968 0.7113192295185323 0 0 0 0
635678880 0.2762376368199341 0.23046885193124805 0.5072807132475248 0.712455593023443 0 0 0 0
636273528 0.27152968176675696 0.2319603797884484 0.508937731263561 0.7132989959842129 0 0 0 0
636868176 0.2763899458951387 0.2313692041128666 0.5106280049733927 0.7081820495473846 0 0 0 0
637462824 0.2761317114728698 0.22625439913537093 0.5083340890760657 0.7092286568296585 0 0 0 0
638057472 0.27753427841219563 0.22525126663542355 0.5113198982116373 0.7079238383721859 0 0 0 0
638652120 0.2793079820956545 0.22482888914928828 0.5104523961188961 0.7087135781645388 0 0 0 0
639246768 0.2780933994985438 0.22769866764428495 0.5123130223893215 0.7089313816139755 0 0 0 0
639841416 0.2741971005633747 0.22369761248998205 0.5145989678896776 0.7091845530979726 0 0 0 0
640436064 0.2751057104580621 0.22501139583430796 0.5161567735420729 0.7080129795465732 0 0 0 0
641030712 0.2737389209017894 0.2249711957591468 0.5169087099922063 0.7078670749264604 0 0 0 0
641625360 0.2749381677117252 0.22007174985908395 0.5180923136167361 0.7061502240151477 0 0 0 0
642220008 0.2718053762227084 0.22401979711306963 0.520251924698985 0.7069679778033621 0 0 0 0
642814656 0.27378338065959285 0.22182160608267842 0.5188018011348399 0.708009661614875 0 0 0 0
643409304 0.272789700607291 0.21956806861296227 0.5203522644889587 0.7046256728950212 0 0 0 0
644003952 0.2738754163814251 0.22010021491600923 0.5208832689665818 0.7073889891285013 0 0 0 0
644598600 0.2730279704319614 0.21831384802516718 0.5233676741337844 0.7072444309301806 0 0 0 0
645193248 0.2745976579623074 0.21622926716559657 0.5242218657332622 0.7049088013356343 0 0 0 0
645787896 0.27103843474830364 0.21736669545764672 0.524516823425378 0.7054607202996859 0 0 0 0
646382544 0.2714835940623596 0.21660856466667464 0.5252733951233141 0.7032625393546709 0 0 0 0
646977192 0.27039606040332503 0.21591180511246896 0.5277043859774132 0.7049651192459151 0 0 0 0
647571840 0.27241331378539363 0.2140744075394867 0.5274958624885633 0.7034144708889986 0 0 0 0
648166488 0.2709606370368518 0.21344875742477426 0.528244882938738 0.7029575862118915 0 0 0 0
648761136 0.2721643791013544 0.21218503491007337 0.5318134589963042 0.701261177229651 0 0 0 0
649355784 0.26813802159374983 0.21495212295746388 0.5318907869938695 0.7036836321484384 0 0 0 0
649950432 0.2720997610564793 0.21096728964611566 0.5314067848468645 0.7011834584653922 0 0 0 0
650545080 0.2716359521920786 0.2085282754453959 0.5348456582692899 0.7010677990321146 0 0 0 0
651139728 0.2677644021271959 0.21187124525562612 0.5344097122450077 0.7005894111848416 0 0 0 0
651734376 0.2705218018182149 0.20601528146823864 0.5364387435344491 0.7001019021797069 0 0 0 0
652329024 0.26965693811331287 0.20693136249324118 0.5363030485063041 0.6989072045675044 0 0 0 0
652923672 0.27248177191204953 0.20299441332909865 0.5375541197183151 0.699409367871524 0 0 0 0
653518320 0.26715740877798677 0.2085355339407268 0.5409104122076409 0.6984502652341005 0 0 0 0
654112968 0.26914693993296157 0.2081669201974646 0.5399825883409282 0.6985529664778295 0 0 0 0
654707616 0.2713172843743556 0.2023234485203554 0.5417098355166927 0.6969357122198524 0 0 0 0
655302264 0.266889867560454 0.20853794130690703 0.5407227713941714 0.6994098224160852 0 0 0 0
655896912 0.27088396263005987 0.2052779934442857 0.5429993885700355 0.6980267958414843 0 0 0 0
656491560 0.26699576207376513 0.20318851396802345 0.5425004655660024 0.6981916380778649 0 0 0 0
657086208 0.26548449867566304 0.2006626079321933 0.5460071083154735 0.6967142527170329 0 0 0 0
657680856 0.26710582439167274 0.20029444717380004 0.5449827173539629 0.6963613073956529 0 0 0 0
658275504 0.2671851802679572 0.2003854193154899 0.5491825458995999 0.6955452991290346 0 0 0 0
658870152 0.2677990679737321 0.2010880096518992 0.5476365490358243 0.6954278954105438 0 0 0 0
659464800 0.2672988106331226 0.19805107557035462 0.5467034241106487 0.6957084876725503 0 0 0 0
660059448 0.27269165890220887 0.19417777088930857 0.5419337268590523 0.700997397689291 0 0 0 0
660654096 0.2653368349658913 0.1957574933110469 0.5439492946943755 0.7007352386792031 0 0 0 0
661248744 0.26483076991681775 0.19609194670268992 0.5463107446361846 0.701333682246332 0 0 0 0
661843392 0.2673777648671189 0.19494495804603812 0.5473491834064652 0.6985273950984693 0 0 0 0
662438040 0.26307768009755894 0.1992321132926332 0.5520683567819349 0.7012709517034348 0 0 0 0
663032688 0.25706055789536764 0.20130955795096514 0.5534543849293803 0.7008258016657425 0 0 0 0
663627336 0.26321174713429707 0.2033075804262391 0.5568174935558947 0.6998915453733726 0 0 0 0
664221984 0.2598926664707368 0.20150769216113937 0.5575172813804309 0.6970439601676988 0 0 0 0
664816632 0.25681011628774547 0.19579671734447374 0.5584956483597824 0.699604547530581 0 0 0 0
665411280 0.2596112628867692 0.20278253949041572 0.5596570239600962 0.6973367343520607 0 0 0 0
666005928 0.2535324416889746 0.20206245388820326 0.5615470277978534 0.6988053929864848 0 0 0 0
666600576 0.25695291025242345 0.19548998680880894 0.5625266250611641 0.6991225865279022 0 0 0 0
667195224 0.2625173967570171 0.19559749632308301 0.5624739843003853 0.6964408816263338 0 0 0 0
667789872 0.26083083080705344 0.1917659841878428 0.5600931908540564 0.6971993248215117 0 0 0 0
668384520 0.2612099042192911 0.19543355190691905 0.5655949085140989 0.6966022163358435 0 0 0 0
668979168 0.259070082008469 0.1943586551708496 0.5664584308824933 0.6957397824086117 0 0 0 0
669573816 0.259076440626716 0.19331628214166816 0.566543035226637 0.6965794164847408 0 0 0 0
670168464 0.25964032669339776 0.1934941394226213 0.5668883163073407 0.6946661345520614 0 0 0 0
670763112 0.264519557105181 0.1867715257909422 0.5671889059120662 0.6953613911436657 0 0 0 0
671357760 0.2623504979573903 0.1874829414524507 0.5663343326658125 0.6949455722265302 0 0 0 0
671952408 0.25983055666847515 0.18239590790625163 0.5703193428341649 0.6955577881696444 0 0 0 0
672547056 0.259293388435719 0.18388441704417766 0.5694643504249172 0.6944848684316123 0 0 0 0
673141704 0.26173583588856264 0.18149586305260032 0.5698567564230389 0.6946162604419633 0 0 0 0
673736352 0.2591881749195546 0.18331753627703493 0.5697684959067363 0.6924624768494723 0 0 0 0
674331000 0.26253029368024017 0.18072432314939949 0.5712610603326685 0.6936707707776516 0 0 0 0
674925648 0.25909663520617504 0.18019358013462553 0.5728069726272778 0.694278114287128 0 0 0 0
675520296 0.25785544628732804 0.17824491030790576 0.5738368097572513 0.6955837855718557 0 0 0 0
676114944 0.2609448869584533 0.17585014711683777 0.5734209392890387 0.6954580316776983 0 0 0 0
676709592 0.2615439275479364 0.1787881472653062 0.5737313512064796 0.6935069908704606 0 0 0 0
677304240 0.2599473124518862 0.17204633745821188 0.5744453302788264 0.6924587268945299 0 0 0 0
677898888 0.26018955836332136 0.1733474496086932 0.5744107655431091 0.6913315248754267 0 0 0 0
678493536 0.2599005649040678 0.17473692815739653 0.5742165997704141 0.692825054204627 0 0 0 0
679088184 0.2591945757632229 0.17295251503559383 0.5768554885832856 0.692489702434836 0 0 0 0
679682832 0.25858806673596924 0.17454583689936937 0.5784107004158999 0.6932177882971905 0 0 0 0
680277480 0.2574185036173509 0.17395373486114027 0.5804872550223728 0.6923425707223254 0 0 0 0
680872128 0.2592203565611377 0.1713042426438631 0.5802605398861728 0.6920278456052492 0 0 0 0
681466776 0.25748347205842725 0.1703421334135959 0.5803807269152604 0.6922108342153215 0 0 0 0
682061424 0.2567115164813426 0.16864094841958902 0.5825959670635618 0.6932679543409842 0 0 0 0
682656072 0.25913568954510974 0.17326707293690985 0.5846956597208977 0.690815215746671 0 0 0 0
683250720 0.2586582608801076 0.16659854696295173 0.5828373370455782 0.6915720409672382 0 0 0 0
683845368 0.26011207736492253 0.16596767771865806 0.5844616183137412 0.6899961673712558 0 0 0 0
684440016 0.2564457858021689 0.1621126376140388 0.5851233792669983 0.6913076186790557 0 0 0 0
685034664 0.256256186003798 0.16387214663335276 0.5846111627563358 0.6898594906313762 0 0 0 0
685629312 0.2593412697553492 0.16756413765643718 0.5896857071195717 0.689339123062803 0 0 0 0
686223960 0.2594656418780916 0.16572753130732537 0.5883154818260373 0.690420234534254 0 0 0 0
686818608 0.2535254856827831 0.16522666770931094 0.5894930527763896 0.6865862980563446 0 0 0 0
687413256 0.25830654334053554 0.16286306198759626 0.5875853501897056 0.6872294721517876 0 0 0 0
688007904 0.2579377093180531 0.16471362650803223 0.5910324300576516 0.6882506012295935 0 0 0 0
688602552 0.25478122926824903 0.15858806361464114 0.5896664109606671 0.6882490612849861 0 0 0 0
689197200 0.25583960782643955 0.16091107024573958 0.5912877784655526 0.6880714685616544 0 0 0 0
689791848 0.2530874203147489 0.15743886347594932 0.590343034350719 0.6878959859349397 0 0 0 0
690386496 0.26037717096770957 0.15762634156956412 0.5928315542994402 0.6883945581230765 0 0 0 0
690981144 0.2579670841583628 0.15344916280009466 0.5948844903122673 0.6886133271041293 0 0 0 0
691575792 0.25924625056039535 0.1584079337217949 0.5954035436918196 0.6860385963501959 0 0 0 0
692170440 0.2553297891298299 0.157256458040149 0.5963869025910085 0.6874444179966359 0 0 0 0
692765088 0.25476397989449784 0.15810917795162455 0.5954081252220538 0.6854489325283559 0 0 0 0
693359736 0.2550923627105509 0.15481625346447947 0.5968438659947364 0.6877779636460345 0 0 0 0
693954384 0.2580654294000419 0.15237854169639165 0.5986384579059811 0.6861936551723057 0 0 0 0
694549032 0.25545522052406944 0.1541133085852078 0.6008990323865907 0.6838607408961013 0 0 0 0
695143680 0.2538834415996685 0.1528627462706919 0.5997153812549773 0.6859797434304552 0 0 0 0
695738328 0.2550896050535011 0.15014364979123493 0.6037647071210281 0.6852300585552475 0 0 0 0
696332976 0.25405478099741113 0.15184682184434115 0.6006897871667285 0.6861779224722415 0 0 0 0
696927624 0.25680091451501685 0.15013918087620728 0.6015569300791754 0.6836344010651489 0 0 0 0
697522272 0.2532711164063639 0.14987836599023452 0.6026606386068025 0.6857896648876188 0 0 0 0
698116920 0.25548465691134525 0.14513181606518993 0.6038073697380705 0.6836132192949977 0 0 0 0
698711568 0.2587875810021789 0.14892260658655304 0.60519021131517 0.6828851697061866 0 0 0 0
699306216 0.2538606431051269 0.1415869106594929 0.604913811591139 0.6822276653038399 0 0 0 0
699900864 0.2540279841671068 0.14610460852181337 0.6055196450540818 0.6835856153133643 0 0 0 0
700495512 0.2594446553697135 0.14478046116664683 0.6080764821294238 0.679717590827747 0 0 0 0
701090160 0.2560288162484731 0.14267706954095016 0.6075334059022061 0.681142317845018 0 0 0 0
701684808 0.25407073962393717 0.1429280511254844 0.609684504846965 0.6789312835615854 0 0 0 0
702279456 0.2568663552130242 0.14377972339315223 0.6095425995316134 0.6789288367823137 0 0 0 0
702874104 0.2567814458848186 0.14090727312308643 0.6076996741883027 0.6805023098905272 0 0 0 0
703468752 0.25529144020744693 0.14386313351807153 0.6131523888526597 0.6781423267519713 0 0 0 0
704063400 0.25569667779840344 0.13567427134025375 0.6107837160873153 0.6781750182949713 0 0 0 0
704658048 0.2567169419586961 0.13778227132037318 0.6120822734585989 0.6785067505860494 0 0 0 0
705252696 0.25773084823610376 0.13939099781592432 0.6155795458558387 0.6768101611182409 0 0 0 0
705847344 0.25423258022444883 0.13505202608280006 0.6145407158833903 0.6789925737112517 0 0 0 0
706441992 0.25415142845645433 0.13554047885023268 0.6135308037769944 0.68094415229693 0 0 0 0
707036640 0.25899063434899333 0.1398601393400354 0.6154106723757188 0.6777556182852503 0 0 0 0
707631288 0.25733278552820416 0.13700821413873432 0.6172404049662701 0.6778358931168886 0 0 0 0
708225936 0.2551881330982995 0.13288933030207772 0.6164195376771386 0.6787048824014067 0 0 0 0
708820584 0.256196130883011 0.13229808800220436 0.619377476382742 0.6784843593031809 0 0 0 0
709415232 0.2572290156365722 0.13483542606576343 0.6209897576626423 0.6771744465818622 0 0 0 0
710009880 0.2552059533720976 0.1298164661734498 0.6191577564060228 0.675915501130137 0 0 0 0
710604528 0.25893874101941217 0.1314250515437533 0.6196950747654782 0.6765447550790616 0 0 0 0
711199176 0.2557839693657317 0.12970182787603604 0.6192965186091158 0.6763377158390982 0 0 0 0
711793824 0.2528904591808769 0.12944695902976938 0.6195246103801955 0.6755651540478601 0 0 0 0
712388472 0.2568579840125294 0.13214582160275676 0.6222107742210509 0.6759343881897013 0 0 0 0
712983120 0.2570705483773457 0.13171768865108766 0.6252796371580367 0.6748067000806515 0 0 0 0
713577768 0.25542441515948006 0.12778116903755204 0.6252704141704836 0.6761144141592687 0 0 0 0
714172416 0.25744000491978397 0.12578209792177877 0.625319042203389 0.6749875736912844 0 0 0 0
714767064 0.2578461556543171 0.12490056740934617 0.6250100001022806 0.6723344663715508 0 0 0 0
715361712 0.25350903757508525 0.12228156926339875 0.6261908980163461 0.675646662535859 0 0 0 0
715956360 0.2534550541259465 0.1231065502079431 0.6270384262643315 0.673694382099807 0 0 0 0
716551008 0.25245652563092946 0.12406190994608823 0.629055338137018 0.6748985683796241 0 0 0 0
717145656 0.25683344386064516 0.1229411878108221 0.6297282400281422 0.6721678971396154 0 0 0 0
717740304 0.2575812158798994 0.12177524523829357 0.62982482814658 0.6735806114969415 0 0 0 0
718334952 0.253145934041968 0.12239095266630472 0.6315972023012923 0.674198747081185 0 0 0 0
718929600 0.25559277732992697 0.12649931583426585 0.6324726309625421 0.6706784874191772 0 0 0 0
719524248 0.2536389472437271 0.12458122843578716 0.6318484230331941 0.6727751192511515 0 0 0 0
720118896 0.25330817104692405 0.11998015770209683 0.6336413329674956 0.6724584039409077 0 0 0 0
720713544 0.2515372111950112 0.12073804009264151 0.6352953708256999 0.669246493320166 0 0 0 0
721308192 0.25489453146519236 0.11529959877709973 0.6335093267014873 0.6692029564499952 0 0 0 0
721902840 0.2542344578837768 0.11972248875414004 0.6351666034121317 0.6676823438009292 0 0 0 0
722497488 0.2536449482709648 0.11908373213082536 0.6347223643666928 0.667794311386367 0 0 0 0
723092136 0.25158160756377523 0.11577306740110799 0.6357548618103546 0.6665740719364062 0 0 0 0
723686784 0.25248878354190474 0.11657201611463448 0.6382336216697487 0.6669232233776433 0 0 0 0
724281432 0.2480677912442015 0.1154659011902666 0.6392446080690605 0.6684256736319639 0 0 0 0
