# HZ S RI R 50
600000000 0.18712160536738345 0.5219131751791611 0.18095006463153432 0.7165228178112346 0 0 0 0
600594648 0.16538072971361517 0.5215873998134091 0.18247824873953888 0.7172315043426116 0 0 0 0
601189296 0.18050594369788042 0.5226706974296343 0.1839428727728668 0.716892071878037 0 0 0 0
601783944 0.1845385525944005 0.5179878002114038 0.18518475742168286 0.715933045063393 0 0 0 0
602378592 0.19027459512900602 0.5166260106607787 0.19059322598912687 0.7166691593435534 0 0 0 0
602973240 0.19339447741774718 0.5128683171228757 0.18810715899749314 0.7158780795114514 0 0 0 0
603567888 0.19017941326561472 0.5108275868813323 0.1914870896316555 0.7153340543339864 0 0 0 0
604162536 0.19519840023784985 0.5127256584860005 0.19143695249529002 0.7166381880154669 0 0 0 0
604757184 0.19757082200298084 0.5132791192802482 0.19391318913356598 0.7174755808589549 0 0 0 0
605351832 0.19489577473480935 0.514742919830667 0.19613945494770982 0.7179748228559013 0 0 0 0
605946480 0.19979906959427118 0.5117876845523011 0.19540415009885284 0.7171639778670298 0 0 0 0
606541128 0.19802236276246052 0.5125400386221942 0.19713801226545247 0.7185660825758272 0 0 0 0
607135776 0.19497429699625204 0.5113661507947223 0.19785118264021959 0.7184605303200035 0 0 0 0
607730424 0.20038771822921744 0.5077978454833952 0.2009146606164292 0.7185282392147813 0 0 0 0
608325072 0.20036527884890754 0.5089950627423264 0.20156164773886973 0.7184117006242514 0 0 0 0
608919720 0.1982255902353251 0.5082223026051216 0.20136087133176767 0.7188653650801883 0 0 0 0
609514368 0.20089915995242744 0.5076333630740294 0.20437960713875702 0.7178299208750163 0 0 0 0
610109016 0.20190257382385654 0.5081492719009475 0.20631497113676298 0.7189896750922516 0 0 0 0
610703664 0.20241639076741832 0.5076721675941266 0.20787261069198795 0.7202127428770598 0 0 0 0
611298312 0.19964179952899663 0.5006135722077493 0.2085760849408902 0.7191464325528604 0 0 0 0
611892960 0.2013903333914677 0.5042067964659767 0.2091189260707744 0.7192085602772798 0 0 0 0
612487608 0.20356788250548913 0.5093577508585568 0.20822199439857128 0.7197581186571472 0 0 0 0
613082256 0.20370348801922078 0.5063255061878199 0.21280812430148782 0.7197336334803752 0 0 0 0
613676904 0.20789483156278424 0.5049047389397967 0.21313024994624705 0.718879839936557 0 0 0 0
614271552 0.20146572878076896 0.5037283654089995 0.21289318142318256 0.7206168796991029 0 0 0 0
614866200 0.20531002814717186 0.502916176266475 0.21568722996218923 0.7197595850213758 0 0 0 0
615460848 0.2040727467693191 0.5002796166938239 0.21776117361181235 0.7205825670487923 0 0 0 0
616055496 0.20913009066492133 0.5020168937165548 0.2175312845710188 0.722325435592464 0 0 0 0
616650144 0.20639260482181895 0.5006694654282582 0.21933264763752247 0.7213252664826976 0 0 0 0
617244792 0.21100294850816595 0.5002156532345844 0.22293002964499253 0.7213440966976294 0 0 0 0
617839440 0.20971328318741425 0.5020386160138235 0.22321634006437874 0.7199867119134377 0 0 0 0
618434088 0.210970635373425 0.49988838494086096 0.22437379492036655 0.7213792824872021 0 0 0 0
619028736 0.20993032341725013 0.5023925633412261 0.22436158414276736 0.7218788268448773 0 0 0 0
619623384 0.21163758711554737 0.5032207932054682 0.22617055014235043 0.7204131738139224 0 0 0 0
620218032 0.21031921820889624 0.49687665378340445 0.22726930681816 0.7215785221723542 0 0 0 0
620812680 0.21172915502540718 0.4990617494941287 0.22904893013107425 0.7225083718508691 0 0 0 0
621407328 0.21075814414699917 0.4997521182272595 0.2286556315785489 0.7224011046580431 0 0 0 0
622001976 0.21257303150665252 0.49921418700724923 0.23017553161940923 0.721343524142526 0 0 0 0
622596624 0.21452404831058064 0.4987966510510668 0.23340764575336942 0.7233463404205523 0 0 0 0
623191272 0.21669190442559036 0.4942093349241906 0.23518192384892483 0.7223990263096305 0 0 0 0
623785920 0.21296675900230327 0.49248106524708657 0.23474314298529173 0.7224329796293707 0 0 0 0
624380568 0.21275050930278366 0.4950425602977151 0.2361392381686772 0.7256198745960659 0 0 0 0
624975216 0.21438761673176718 0.4974994044686809 0.23652976870694778 0.7228282823691475 0 0 0 0
625569864 0.21962795074438338 0.49564636373891774 0.2394792199346804 0.7235488288594404 0 0 0 0
626164512 0.21647870122216184 0.4903330415018323 0.24073694509866808 0.7222804457271946 0 0 0 0
626759160 0.21393040510382375 0.49651741823352563 0.24165522926972322 0.7235665913971199 0 0 0 0
627353808 0.21408389735318695 0.4941502899152398 0.24433442429088148 0.7246130921666339 0 0 0 0
627948456 0.219297767478149 0.4935045926117294 0.24463173458766876 0.7226367723122451 0 0 0 0
628543104 0.2216955426296812 0.4917864533896401 0.2442346788334013 0.7250752859887198 0 0 0 0
629137752 0.21871308198984846 0.4867710809051838 0.2474802251159377 0.7246985727184426 0 0 0 0
629732400 0.22076222759359043 0.4925293859722011 0.24845881424386812 0.7231255741338659 0 0 0 0
630327048 0.2190208112143243 0.4905270862004637 0.24971247906060975 0.7235835960185918 0 0 0 0
630921696 0.22001278993502263 0.48955581552885696 0.24935005291829815 0.7245949688866776 0 0 0 0
631516344 0.22164375127774605 0.48837490771291736 0.2531004379451875 0.7236600251734131 0 0 0 0
632110992 0.2173131522088359 0.4867586205135751 0.25321211834757984 0.7243515696629624 0 0 0 0
632705640 0.22126846288740828 0.48718665402719374 0.25445732966845713 0.7237906233208161 0 0 0 0
633300288 0.22319385317769147 0.4879893698305786 0.2557847938254586 0.7233592920402548 0 0 0 0
633894936 0.22102758578480225 0.483540632056768 0.256933884758637 0.7262838211930751 0 0 0 0
634489584 0.22091953162828723 0.48518476666601845 0.2604265700372417 0.7250750720957853 0 0 0 0
635084232 0.21774886778896158 0.4834691033511154 0.2611598818779473 0.7249917139686092 0 0 0 0
635678880 0.22158716759655647 0.4854527761947814 0.26113821067843723 0.7270015521626382 0 0 0 0
636273528 0.21633017092270457 0.4819875167610193 0.2614608064227088 0.728170682594658 0 0 0 0
636868176 0.22118316779106356 0.48722491289556824 0.2642713427824528 0.7255885813092381 0 0 0 0
637462824 0.22105528000536515 0.482620029656695 0.2640264189421604 0.7260166649569268 0 0 0 0
638057472 0.2231274727249424 0.47525095034165515 0.2670198505085265 0.7263295352628429 0 0 0 0
638652120 0.2221856838191171 0.48284900692036775 0.26578194374801833 0.7259417632439038 0 0 0 0
639246768 0.2227983870703263 0.4838830522634053 0.2679184049588928 0.7275003097840165 0 0 0 0
639841416 0.22333758618006722 0.4793649314664918 0.26936358857900883 0.7264024639054943 0 0 0 0
640436064 0.22210079032105795 0.48054001581833367 0.2713571930106506 0.7276375160347593 0 0 0 0
641030712 0.21999462718448695 0.481464944523252 0.2731096827108517 0.7277919238322758 0 0 0 0
641625360 0.22271901748502873 0.47224816955261745 0.2744133607948329 0.7270605467396328 0 0 0 0
642220008 0.22411942955337694 0.47745687797939296 0.27836539288021683 0.7279879974407881 0 0 0 0
642814656 0.22192228765671113 0.48086861061938174 0.2755736672220759 0.7290376923562394 0 0 0 0
643409304 0.22302966656554463 0.47563600052913585 0.27734749548999976 0.7268670565311546 0 0 0 0
644003952 0.22118338915537064 0.47632403129921963 0.2787771968046916 0.7290426424495098 0 0 0 0
644598600 0.2225237951466623 0.4745426987458827 0.28002631358252783 0.7296931416439766 0 0 0 0
645193248 0.22650334745894682 0.47586864930193956 0.2827047659485988 0.7284897166890385 0 0 0 0
645787896 0.2214929637455682 0.47847196557284427 0.28172371906107696 0.728685811503464 0 0 0 0
646382544 0.22047053423162055 0.4724906860130798 0.2843418033997716 0.7277002960051341 0 0 0 0
646977192 0.21921062760607754 0.4738149537925449 0.2854831586159483 0.7306857909253314 0 0 0 0
647571840 0.22273701692356315 0.47297881924084734 0.2864708528245072 0.7297454473757421 0 0 0 0
648166488 0.22283178626865968 0.4733759720054075 0.2872191963005061 0.7297580861251242 0 0 0 0
648761136 0.22585850865852883 0.4728577360430352 0.2899668040079532 0.7297161647589071 0 0 0 0
649355784 0.22136934766892252 0.47024919343336313 0.289158242693294 0.7327017173345405 0 0 0 0
649950432 0.2260233700645675 0.4698282313586141 0.2909944565416685 0.7285477425515525 0 0 0 0
650545080 0.2218751941664543 0.46950377430830265 0.2937931967625194 0.7293375415634565 0 0 0 0
651139728 0.22415010110302563 0.4640632593392009 0.29413200100165954 0.7299982930218032 0 0 0 0
651734376 0.22330092195765286 0.46207376509498815 0.29590115644696685 0.7301610721613452 0 0 0 0
652329024 0.2250060473688132 0.464259048999823 0.29843886120535285 0.7280919337481074 0 0 0 0
652923672 0.2201069929406406 0.46486385369491096 0.2964702847395153 0.7303756957206365 0 0 0 0
653518320 0.21995732080871205 0.4643765919353451 0.3005218589350324 0.7298783934408457 0 0 0 0
654112968 0.22437594771568614 0.4675581672285736 0.3023077203238668 0.7303799318916265 0 0 0 0
654707616 0.22704117318432804 0.4651572409713862 0.302479711882553 0.7289165657038964 0 0 0 0
655302264 0.22204289184349157 0.4674075938954598 0.30225201025035403 0.7310763160433696 0 0 0 0
655896912 0.22162288443334857 0.4620594036660664 0.3049771822960185 0.7315438360547046 0 0 0 0
656491560 0.2247958908693548 0.4645030449076773 0.30381384322820554 0.7315659572618936 0 0 0 0
657086208 0.22383837744609142 0.460460157297546 0.30748155572317754 0.7312796357365302 0 0 0 0
657680856 0.2236706846119025 0.45645068272568895 0.3067727654431509 0.7310205140652782 0 0 0 0
658275504 0.22512899989262056 0.4604951791019209 0.3101664403610004 0.7337672361021851 0 0 0 0
658870152 0.2225691556426388 0.46331481991982326 0.3097895352283712 0.7313763789599749 0 0 0 0
659464800 0.22453410947214647 0.46142796668315395 0.31030228810465216 0.7312400797564703 0 0 0 0
660059448 0.23153073305728647 0.4418921191416169 0.30636992642051225 0.731187315864153 0 0 0 0
660654096 0.23003741422202167 0.43889313728603785 0.3074541188895562 0.7328186751149105 0 0 0 0
661248744 0.2188854079449884 0.4403654722921869 0.3072911660972938 0.733141034576437 0 0 0 0
661843392 0.23030006859466567 0.4425844239175458 0.31167846182015024 0.7322540729839492 0 0 0 0
662438040 0.23114770321632627 0.45305061097404364 0.3142316922172563 0.7378248239602885 0 0 0 0
663032688 0.2265585118733927 0.4527391671248332 0.31562411647029054 0.7380047424178571 0 0 0 0
663627336 0.22809853099787603 0.4551996995643228 0.31951742672245576 0.7402657211225195 0 0 0 0
664221984 0.2202433232654563 0.4575133636362449 0.3189191777649553 0.7372547408118395 0 0 0 0
664816632 0.21915203680096218 0.45903964310574147 0.31951360219225183 0.7408467689314218 0 0 0 0
665411280 0.22811378238879623 0.4566438498496261 0.3232207354011897 0.7393848790366496 0 0 0 0
666005928 0.22109843808937688 0.45230029342708394 0.32395909567435754 0.7410149567044017 0 0 0 0
666600576 0.21984983628691251 0.45325383237504935 0.3264947824248207 0.7404142480713968 0 0 0 0
667195224 0.22758501271659234 0.4518987503914498 0.32694839367960793 0.7391255535973084 0 0 0 0
667789872 0.223660155563614 0.4517115770409781 0.3260097114119689 0.7378928742185501 0 0 0 0
668384520 0.22469171618579414 0.45377991571570586 0.3307130502593667 0.7402086925647565 0 0 0 0
668979168 0.2196012104627571 0.4535834190189592 0.33060584081141897 0.7401607800073162 0 0 0 0
669573816 0.22356837578187325 0.45391759978555507 0.3314337141134853 0.7402207603871797 0 0 0 0
670168464 0.2225893236333667 0.4535458079109734 0.33295610269190967 0.7405930101282754 0 0 0 0
670763112 0.22023153159028883 0.45079324858520714 0.3318253815389774 0.7409282136125905 0 0 0 0
671357760 0.22315249222402123 0.44573272506438355 0.33288257121367687 0.7399171000025366 0 0 0 0
671952408 0.21840027114036564 0.4475261078863234 0.33324861299478836 0.7416250221662328 0 0 0 0
672547056 0.22473895573528163 0.4437395334741618 0.3363201804699516 0.74186253477909 0 0 0 0
673141704 0.21913574912836856 0.44571187984632876 0.33530778220491364 0.7394182561693742 0 0 0 0
673736352 0.2189405097096832 0.4458028993192983 0.3358546672278309 0.7392968193501487 0 0 0 0
674331000 0.21959477477252226 0.4419006640238758 0.33746262917585845 0.7395684697372087 0 0 0 0
674925648 0.22179695118463616 0.4435072394779854 0.3377765020244793 0.7412698130603909 0 0 0 0
675520296 0.21866039424719094 0.4387961026080639 0.3408841334222944 0.7420467948893505 0 0 0 0
676114944 0.21814628681680986 0.44191495545746157 0.3387138757809769 0.7422554724760783 0 0 0 0
676709592 0.217437221068582 0.4408277363809165 0.33951332451647265 0.7413325630790013 0 0 0 0
677304240 0.2237619094665642 0.4343088250212826 0.34177057959815477 0.7384788927722371 0 0 0 0
677898888 0.22373222398669468 0.4333629516351058 0.3423465184818389 0.7393399611126991 0 0 0 0
678493536 0.2186673241606171 0.44244736470256085 0.3428936321371967 0.7398518694511265 0 0 0 0
679088184 0.22039041141986135 0.43740239478689896 0.34536919055841325 0.7413139029291822 0 0 0 0
679682832 0.21956929220561147 0.4343615686237909 0.344658296318085 0.7425856986937338 0 0 0 0
680277480 0.2193912673060268 0.4349461039710881 0.3471993871607092 0.7427044668986468 0 0 0 0
680872128 0.22039085935976038 0.43286897729323554 0.34897395675252196 0.742118140007027 0 0 0 0
681466776 0.21692964767197428 0.4294571283141783 0.34940657936071484 0.742962879080573 0 0 0 0
682061424 0.21950510673010973 0.4295664641157903 0.3504832969619778 0.7445847788721711 0 0 0 0
682656072 0.2177796182952828 0.43692095296591815 0.3533949484859941 0.7430022794198045 0 0 0 0
683250720 0.2195804687955954 0.4268415675046652 0.3522311365241784 0.7431489517685271 0 0 0 0
683845368 0.22222919894597415 0.42876495981701845 0.3544682830126315 0.7416379287402457 0 0 0 0
684440016 0.21831593294442825 0.4259190837641381 0.35436193195126914 0.7437599900839954 0 0 0 0
685034664 0.21888231743017458 0.4267409347276129 0.3545942978184161 0.7427582256008571 0 0 0 0
685629312 0.22433098503728763 0.42650513951314634 0.3588679857839041 0.7439980223094398 0 0 0 0
686223960 0.22256950996965974 0.4231676998328721 0.35652695291114694 0.7448702060715451 0 0 0 0
686818608 0.21740874041773484 0.42256946081278807 0.3595964085386956 0.7434877852169891 0 0 0 0
687413256 0.226008862867854 0.41752615469852045 0.36063111180144725 0.7404680067470396 0 0 0 0
688007904 0.2233043130551418 0.4193662414009688 0.36167365894064724 0.7438416972319022 0 0 0 0
688602552 0.21923772663579122 0.41161800524965314 0.3596489418978527 0.7427898934691082 0 0 0 0
689197200 0.22078280767986938 0.41551144988698274 0.3618640606957073 0.7441345041833956 0 0 0 0
689791848 0.2231750777785448 0.4116209255700964 0.3618482925393249 0.7430340452501867 0 0 0 0
690386496 0.223348330663898 0.4131673996688572 0.36395466908262386 0.7445541375313854 0 0 0 0
690981144 0.22559754598237108 0.40758109575496326 0.3655101112113896 0.7455049005257409 0 0 0 0
691575792 0.22507886188914844 0.4119086646261365 0.36731745312686737 0.7445578812866134 0 0 0 0
692170440 0.22319083408795368 0.41102961079383465 0.36696810573205263 0.7468055069247094 0 0 0 0
692765088 0.22201138972194376 0.40546904314217885 0.3672524648925497 0.7443735823407446 0 0 0 0
693359736 0.22072053626625046 0.40563189743930683 0.36795174801858155 0.7446268333751858 0 0 0 0
693954384 0.22741818291825716 0.4052620354127334 0.37029233924845123 0.7452860035042277 0 0 0 0
694549032 0.22770384246391281 0.4057227236836035 0.3734945973949751 0.744158486162291 0 0 0 0
695143680 0.21991427049745713 0.40436207718554934 0.3717296626347801 0.7462642380330932 0 0 0 0
695738328 0.22479986059561835 0.4017571559876917 0.3746515819917621 0.7452252525285061 0 0 0 0
696332976 0.22347041217269786 0.3987843177059552 0.3724282048500434 0.7475302696829885 0 0 0 0
696927624 0.22444128609796157 0.4042259368211014 0.3756564294948922 0.7438922081060497 0 0 0 0
697522272 0.2219841934905109 0.4019833935366237 0.3752406155504165 0.7479276574693139 0 0 0 0
698116920 0.226948454174712 0.39817574998563693 0.3775747117553511 0.7460593584066216 0 0 0 0
698711568 0.2292461225336228 0.39794665711746185 0.379352001667817 0.7444844427735297 0 0 0 0
699306216 0.2205353113806954 0.3937198661391977 0.37865720162419453 0.743599053407088 0 0 0 0
699900864 0.22308481904038785 0.39635187927121923 0.38034442017492526 0.7461805908393503 0 0 0 0
700495512 0.22996867206873534 0.395869850151875 0.38434292160308225 0.7453387620974391 0 0 0 0
701090160 0.2269021544295079 0.3949040892785755 0.3817432443408612 0.7449109075582603 0 0 0 0
701684808 0.22569321715873786 0.39317447684555057 0.3846234629426428 0.7431834062139522 0 0 0 0
702279456 0.22529201066300375 0.39191317027916145 0.3866654082138579 0.7446428642754958 0 0 0 0
702874104 0.2259264742687085 0.39075649184776623 0.3841232158746687 0.7444367391815933 0 0 0 0
703468752 0.2247170296196225 0.39206861143270877 0.3880711539564912 0.7446725481508283 0 0 0 0
704063400 0.22416834514452902 0.38393209395656913 0.3863644506663973 0.7434202027094103 0 0 0 0
704658048 0.2251199353519154 0.3865983910356836 0.3871063582900171 0.7452987677004459 0 0 0 0
705252696 0.23070745315893207 0.3895497785470175 0.3908581116535078 0.7441654530847162 0 0 0 0
705847344 0.22757511195551683 0.38406753394957543 0.39122660939750503 0.7450038468792715 0 0 0 0
706441992 0.22427285474313546 0.38554494001878437 0.39007348503515 0.7462624179533369 0 0 0 0
707036640 0.22703587759028046 0.387749926290308 0.391363262863965 0.7457618053213088 0 0 0 0
707631288 0.23019607847640622 0.3881838229485445 0.39390755551235235 0.7480617556295651 0 0 0 0
708225936 0.222260391051422 0.3835489563861495 0.3935787291906665 0.7451529939707432 0 0 0 0
708820584 0.22738089192023256 0.3838357506331453 0.3954012855863136 0.7464263119920945 0 0 0 0
709415232 0.22586412263278632 0.38527733625278354 0.3982771652000243 0.7482512661773575 0 0 0 0
710009880 0.22535166736175394 0.37729401926249656 0.39697629583640176 0.7453464006580709 0 0 0 0
710604528 0.22620596382052138 0.3822776751692582 0.3971508336717929 0.747107983211978 0 0 0 0
711199176 0.22430085949660095 0.3768919422118125 0.39847677590290365 0.7457974476671396 0 0 0 0
711793824 0.22576956307291043 0.38108038436483593 0.39861941631976994 0.744595478634035 0 0 0 0
712388472 0.22665369725327256 0.3796747708421767 0.4018085213052531 0.7452818913745223 0 0 0 0
712983120 0.22453393183786327 0.3770036489228158 0.40261799306554485 0.7463330201133513 0 0 0 0
713577768 0.2285600726695372 0.37891434318352324 0.40461908734746665 0.7480677049819585 0 0 0 0
714172416 0.22616275238613404 0.37502278649144477 0.404072361305222 0.7464997793579222 0 0 0 0
714767064 0.22986168922801595 0.3734016460736319 0.4052115818092734 0.7441168065774075 0 0 0 0
715361712 0.2209214555830856 0.36966110039871114 0.4042863396567165 0.7480818464005037 0 0 0 0
715956360 0.22299392609468974 0.36940522878887755 0.4075612959779149 0.74613509505938 0 0 0 0
716551008 0.22551996388556725 0.3739953309157509 0.4090736994903228 0.7478073405164197 0 0 0 0
717145656 0.22574770177792228 0.3702544034588338 0.4113113630937292 0.7451444600143307 0 0 0 0
717740304 0.2260459832442357 0.36607259632453804 0.40990713969983594 0.7446937302209542 0 0 0 0
718334952 0.2231519671824382 0.3703915859256412 0.41099236198405986 0.7485222497821761 0 0 0 0
718929600 0.22563657842115292 0.3714952352677424 0.4142048663758188 0.7452933100652617 0 0 0 0
719524248 0.22520079026442272 0.36830463795896967 0.41139619774010244 0.7482933259188057 0 0 0 0
720118896 0.22122690803782682 0.36885086426878627 0.41462150575642115 0.7475239409558186 0 0 0 0
720713544 0.22729498675314527 0.36429661418656745 0.4166328214635437 0.7458961661779946 0 0 0 0
721308192 0.22081322722458988 0.36320459878018196 0.41601747934172434 0.7436772956829331 0 0 0 0
721902840 0.22325409828077744 0.3676160208295139 0.4179624295181646 0.7441192168899408 0 0 0 0
722497488 0.22503547774367177 0.3673792044975126 0.4178320350494976 0.7450024741985828 0 0 0 0
723092136 0.22489669208853721 0.3629711007743451 0.42008946204964315 0.7441741758337183 0 0 0 0
723686784 0.22557783779513624 0.36116454670453857 0.4207144520720064 0.7435164238875411 0 0 0 0
