# HZ S RI R 50
600000000 -0.07159151422108245 -0.4057887139243342 0.5364223928011802 0.7715841121942942 0 0 0 0
600594648 -0.08680092673124239 -0.39748474953180374 0.5357923531948166 0.775460990605421 0 0 0 0
601189296 -0.07457791044955173 -0.39965798193097896 0.5337429409935078 0.7730618192233384 0 0 0 0
601783944 -0.07258688873220753 -0.40221506753205216 0.5363161878100231 0.7743765402350322 0 0 0 0
602378592 -0.07018406155199201 -0.39903560104302993 0.5366703611010436 0.7729913593900557 0 0 0 0
602973240 -0.06852242681818203 -0.39767769494113797 0.5367054460850222 0.7715082102848726 0 0 0 0
603567888 -0.06740324837645591 -0.39972464785003914 0.5375065795713332 0.7737114284423297 0 0 0 0
604162536 -0.07225640936169153 -0.3983635463319439 0.5367375105844846 0.7720473056351127 0 0 0 0
604757184 -0.07035073568657386 -0.39616260899951444 0.5378941777003697 0.7701423602191745 0 0 0 0
605351832 -0.06822147672378624 -0.39548460788501144 0.5380177512438431 0.7694591068356693 0 0 0 0
605946480 -0.07178991161487544 -0.3961389264795034 0.5373095927504021 0.7699919139614058 0 0 0 0
606541128 -0.07372126709116884 -0.3955873882736381 0.5404601049188774 0.7705245966110753 0 0 0 0
607135776 -0.07365798190770838 -0.3943879488726547 0.5415299397406809 0.7698624864881992 0 0 0 0
607730424 -0.07085673585641789 -0.3940355375425098 0.5398489074203703 0.7705502262838545 0 0 0 0
608325072 -0.07490021788268414 -0.3948023199415706 0.5421038336640871 0.7685342874901989 0 0 0 0
608919720 -0.07396771468266901 -0.3956803535057407 0.5429089191391855 0.7702427830292249 0 0 0 0
609514368 -0.0716474870324338 -0.39136767626069646 0.5450109133663278 0.7684704915868288 0 0 0 0
610109016 -0.07124373529073959 -0.3878823725408946 0.5421226877529394 0.7689716449846311 0 0 0 0
610703664 -0.07189719239853175 -0.3866948371710985 0.5409140796496502 0.7666047231260346 0 0 0 0
611298312 -0.07550258165747131 -0.39192318734249626 0.5462525809294694 0.7663344360284595 0 0 0 0
611892960 -0.07717385999119379 -0.38876801065469424 0.5463691274257793 0.7648062170559878 0 0 0 0
612487608 -0.07663578107732631 -0.3882241536549117 0.5473885728432273 0.7637182307904317 0 0 0 0
613082256 -0.07392642689725236 -0.386381211562408 0.5465804267063329 0.7662042285974568 0 0 0 0
613676904 -0.07214520015066296 -0.3906358153322729 0.5464731157414887 0.7649726338834414 0 0 0 0
614271552 -0.07734895258317323 -0.3873080527525499 0.5485796755480904 0.7633506862925441 0 0 0 0
614866200 -0.07668862335114066 -0.38611564705867696 0.5484809235388067 0.7617555613292655 0 0 0 0
615460848 -0.07539924723743847 -0.38003685658948383 0.5495638566661903 0.7639672607464675 0 0 0 0
616055496 -0.07655481221561823 -0.3834454845800039 0.549943291197003 0.7611030970152164 0 0 0 0
616650144 -0.075589484353827 -0.3813720638710648 0.5520858592306976 0.7606643613508355 0 0 0 0
617244792 -0.0744120949638531 -0.3797873896267017 0.5515005841944882 0.7627948159346267 0 0 0 0
617839440 -0.0742855474975243 -0.3786840841328484 0.5519447219102561 0.7594615075200344 0 0 0 0
618434088 -0.07423021566066318 -0.3782232192890929 0.5523590647937346 0.7591852617671031 0 0 0 0
619028736 -0.0781206717470552 -0.37995255225148966 0.5546164254351192 0.7584106463490401 0 0 0 0
619623384 -0.0767445151011609 -0.3776694617532228 0.5538263926129343 0.7594913512998073 0 0 0 0
620218032 -0.07527791468804629 -0.3800877948807653 0.5541766712428345 0.7589936230096389 0 0 0 0
620812680 -0.07307694958417182 -0.3777815582396604 0.5544638137831231 0.7574456752147118 0 0 0 0
621407328 -0.07822589784187939 -0.3756573011569915 0.556065256816043 0.75648328155007 0 0 0 0
622001976 -0.07547017350012744 -0.3768778895044927 0.5569208055059219 0.7560444746059023 0 0 0 0
622596624 -0.07753698903188887 -0.3731974108693854 0.5572982862160136 0.7550999519924596 0 0 0 0
623191272 -0.0759502472166613 -0.37401603252235366 0.5570078116824101 0.7550686574436594 0 0 0 0
623785920 -0.07575547578464269 -0.3765154488170228 0.55749665157048 0.7544351733668815 0 0 0 0
624380568 -0.08064493871476672 -0.3698844251131511 0.5616592443522743 0.7539047791587541 0 0 0 0
624975216 -0.07436693458159303 -0.37229612623169955 0.5569468262714653 0.7536738566411622 0 0 0 0
625569864 -0.07487048775361167 -0.36975448634577524 0.558475472996486 0.7524589106735889 0 0 0 0
626164512 -0.07494615581662027 -0.36982706353181616 0.5612683004847839 0.7514054668438321 0 0 0 0
626759160 -0.07741400463584647 -0.3665343718426732 0.5624179535919294 0.7496183378787707 0 0 0 0
627353808 -0.07546836963571879 -0.3685381142004691 0.5616285859719555 0.7514394283388884 0 0 0 0
627948456 -0.0734661282307797 -0.36842485953010873 0.5620942774215258 0.7514071234187611 0 0 0 0
628543104 -0.076203890214856 -0.37050588545336494 0.5636220322003401 0.7509653855601991 0 0 0 0
629137752 -0.07313617746010309 -0.3690564112570725 0.5640230194144916 0.7496735825012052 0 0 0 0
629732400 -0.07848878524721686 -0.36513196917477236 0.56630806928141 0.7470443331522121 0 0 0 0
630327048 -0.07529639959267204 -0.36520720020595043 0.5662533258724096 0.7488657944931074 0 0 0 0
630921696 -0.07559481775789516 -0.366856562794216 0.5687831579077726 0.7470553846012956 0 0 0 0
631516344 -0.07337725804324476 -0.3657275115697164 0.565895451476036 0.747259920267894 0 0 0 0
632110992 -0.07643355361198724 -0.36527886406264787 0.5684629383792801 0.7454660283150678 0 0 0 0
632705640 -0.07446466541385438 -0.36333376957794694 0.5679714193512337 0.7455427254918047 0 0 0 0
633300288 -0.07650575856181469 -0.3627565445917149 0.5695554670577451 0.7444223244733572 0 0 0 0
633894936 -0.07555679926349562 -0.3616374485624411 0.5698310121098286 0.743694007795742 0 0 0 0
634489584 -0.07936066607983606 -0.36059076355957165 0.5695688825630616 0.7438038287420368 0 0 0 0
635084232 -0.07660115727914583 -0.3629650706375299 0.5717799021196012 0.7411425883704437 0 0 0 0
635678880 -0.07959273850635495 -0.36269855703602033 0.5738495340136843 0.7420982255868955 0 0 0 0
636273528 -0.08341111918706265 -0.3590018922998904 0.5754982477856689 0.7407210373169869 0 0 0 0
636868176 -0.07894803640363199 -0.35932615667586204 0.5730442701651218 0.7404618619414519 0 0 0 0
637462824 -0.07676024579761931 -0.35978637715293754 0.5719121917544223 0.7404385563207793 0 0 0 0
638057472 -0.0764490303586528 -0.35969001805607065 0.5759115353957002 0.7379229707716107 0 0 0 0
638652120 -0.0775862754631122 -0.3594885942259972 0.5747582870116053 0.7389932090658184 0 0 0 0
639246768 -0.07425734671652495 -0.3562202771001755 0.5746584491465501 0.7381951903047083 0 0 0 0
639841416 -0.0796256911050865 -0.3554418053043675 0.5775198392099319 0.7384007939898003 0 0 0 0
640436064 -0.07784108660165728 -0.3556117009705486 0.5770638122970346 0.735990823329323 0 0 0 0
641030712 -0.07569104758841191 -0.3509537251744622 0.5761993351786707 0.735871047624512 0 0 0 0
641625360 -0.07468126413235296 -0.35395177170671144 0.577261274236952 0.7345945277482445 0 0 0 0
642220008 -0.07635064452787878 -0.3527566821157725 0.5776842340216775 0.7347591100946927 0 0 0 0
642814656 -0.07770401226502678 -0.35286123358818305 0.5785213202549789 0.7353615417912621 0 0 0 0
643409304 -0.07709058886034888 -0.35510390014798315 0.580480656778816 0.7338752786943135 0 0 0 0
644003952 -0.07557376635243102 -0.35214312551484356 0.5785384470536836 0.7341024792292972 0 0 0 0
644598600 -0.0809892845305533 -0.3527784457285376 0.5833539396450682 0.732985500462578 0 0 0 0
645193248 -0.07650290664231096 -0.34971416484568324 0.5828479494603086 0.7316021273993321 0 0 0 0
645787896 -0.07996280806774075 -0.3476149856077929 0.5832912868548625 0.7304958927946558 0 0 0 0
646382544 -0.07696270038400163 -0.3497899651396564 0.5849389218442789 0.7291814060428851 0 0 0 0
646977192 -0.08046924667224101 -0.3464198180586374 0.5842859689306684 0.7291626078561712 0 0 0 0
647571840 -0.07882155621609854 -0.3477088243821511 0.5853199413754413 0.7286531769922925 0 0 0 0
648166488 -0.08177682126282408 -0.34808831431421045 0.5845438652368575 0.727118604656635 0 0 0 0
648761136 -0.07756255011598213 -0.34577927281283466 0.5874945962199107 0.7269528417548368 0 0 0 0
649355784 -0.08250763240576207 -0.34646985095669447 0.5891609168506726 0.7269269620718648 0 0 0 0
649950432 -0.07719397938088451 -0.3469029178269863 0.5872706438541336 0.7254304146308216 0 0 0 0
650545080 -0.07888698518970869 -0.3434118643682673 0.5896707510688903 0.7246628936089315 0 0 0 0
651139728 -0.07889827948816774 -0.3427673813098036 0.5890505534320312 0.7236349593414844 0 0 0 0
651734376 -0.07956800655210391 -0.3449503217810171 0.5918002836247722 0.723776232597547 0 0 0 0
652329024 -0.07897953136351604 -0.34366396865892757 0.5907934431947901 0.722929424566661 0 0 0 0
652923672 -0.07686206880446145 -0.34375162571769763 0.5921651235747718 0.7240748699626564 0 0 0 0
653518320 -0.08007798638676165 -0.3398758621569722 0.5942417750375266 0.7207746378802459 0 0 0 0
654112968 -0.07788174923045835 -0.3421916949685607 0.5922336165109684 0.7213767970481042 0 0 0 0
654707616 -0.07743944331504844 -0.340954660094507 0.5925628272121961 0.7202267979548851 0 0 0 0
655302264 -0.0794298971609681 -0.3405559930728989 0.5956011077282003 0.7192674147727074 0 0 0 0
655896912 -0.07718523743654498 -0.340675335975175 0.5962871784277617 0.7194336333294915 0 0 0 0
656491560 -0.0781564149638055 -0.34128049523548787 0.5954714237089936 0.7196111980322348 0 0 0 0
657086208 -0.08081655373734678 -0.3410854352735291 0.5994794177182853 0.7180378809795283 0 0 0 0
657680856 -0.07737363068628922 -0.34175231028821124 0.5971307336498043 0.7170562477710483 0 0 0 0
658275504 -0.07798569231053648 -0.3369878982250375 0.5973050474862361 0.7159155337360602 0 0 0 0
658870152 -0.08026812110998502 -0.3372270296289737 0.5986894107873976 0.713481508163109 0 0 0 0
659464800 -0.07778740838331664 -0.33651578469070814 0.5992673459895171 0.7156131806810674 0 0 0 0
660059448 -0.07318597638737116 -0.33797761124426334 0.5992813094877026 0.7211167186930594 0 0 0 0
660654096 -0.06725783077029554 -0.345239926039384 0.5988010782061058 0.7215709127848795 0 0 0 0
661248744 -0.07183645386943407 -0.3473733746776249 0.6029993569038048 0.7194369950655635 0 0 0 0
661843392 -0.07099402078498959 -0.3448699582861166 0.6025809772546418 0.7211527772930793 0 0 0 0
662438040 -0.07434931133568003 -0.3367315199881837 0.6015334568171176 0.7182065828484331 0 0 0 0
663032688 -0.0778334733852936 -0.33277263899839915 0.6030615903437877 0.7157144834069342 0 0 0 0
663627336 -0.07715705372472179 -0.32814740814503374 0.6042209502012991 0.7141202600547008 0 0 0 0
664221984 -0.07700215895661335 -0.3298406169452043 0.6045467139922253 0.7097285251489959 0 0 0 0
664816632 -0.08002998291065135 -0.3280072954727606 0.6045919440919444 0.7105058612374814 0 0 0 0
665411280 -0.07574623286653068 -0.325291493433037 0.6047279524608308 0.7111327613217858 0 0 0 0
666005928 -0.07717416586885441 -0.32404723342946434 0.6053507907108618 0.7095495469178071 0 0 0 0
666600576 -0.07559890892361225 -0.3271818505766998 0.6073757359484491 0.7074354832279636 0 0 0 0
667195224 -0.075050900662286 -0.3246872451201442 0.6065750228015843 0.707721576240493 0 0 0 0
667789872 -0.07968864620680978 -0.3242073492458082 0.6079579386033556 0.7094193329624722 0 0 0 0
668384520 -0.07361175388425756 -0.3193151849551303 0.608211868181324 0.706125644269498 0 0 0 0
668979168 -0.07482751188126689 -0.3220017513195019 0.610561716932247 0.7052117554942322 0 0 0 0
669573816 -0.07563623014189068 -0.3204814354189716 0.6109026086545561 0.70501873902627 0 0 0 0
670168464 -0.0796873659464189 -0.31864355604697786 0.6094785472802213 0.7047342734401898 0 0 0 0
670763112 -0.07599033714400061 -0.3218258845252816 0.611963380743808 0.7053388189306057 0 0 0 0
671357760 -0.07693365386082093 -0.32090955940121524 0.6125288373550749 0.7037003863433987 0 0 0 0
671952408 -0.0768232657491538 -0.3238241261261636 0.6147062543294821 0.7030452191632688 0 0 0 0
672547056 -0.07752963271856769 -0.3165436314209504 0.6140967574094541 0.7005561818898527 0 0 0 0
673141704 -0.07775170839612885 -0.32061389564417603 0.6153001706633346 0.7039534367566536 0 0 0 0
673736352 -0.07824193145085939 -0.31792536485700573 0.6138609868929912 0.7003829625978457 0 0 0 0
674331000 -0.07572884586933815 -0.32009401064831633 0.6174557095336886 0.7011944031108903 0 0 0 0
674925648 -0.07522226275288718 -0.31671538792692233 0.6168483233867282 0.7009705293936062 0 0 0 0
675520296 -0.07638076381739174 -0.3164199596801649 0.6190786772816028 0.7004884990502641 0 0 0 0
676114944 -0.07650199922184964 -0.3160469309481035 0.6179716579088379 0.7008772805543819 0 0 0 0
676709592 -0.07702104209684357 -0.31548641408524863 0.6187924911059648 0.69967698689041 0 0 0 0
677304240 -0.07477704490493133 -0.31781970211028726 0.6189137960036452 0.7005490239080199 0 0 0 0
677898888 -0.07543035004452635 -0.31627799480038576 0.6200967229026616 0.6981668033358527 0 0 0 0
678493536 -0.07659365658863611 -0.31510835240285445 0.6180405712894972 0.7004139381535552 0 0 0 0
679088184 -0.07440935877796317 -0.31491895278092286 0.6226305851168871 0.6975148118337878 0 0 0 0
679682832 -0.07589188163001646 -0.3110367827730033 0.6223949799064276 0.6972613606991102 0 0 0 0
680277480 -0.077581977693621 -0.31003063203329656 0.621701659638792 0.697204136438805 0 0 0 0
680872128 -0.07452374348241304 -0.31058478664693673 0.6247749290646593 0.6962771837234161 0 0 0 0
681466776 -0.08014758718072729 -0.3116679217472635 0.6246237388550466 0.6962029216180902 0 0 0 0
682061424 -0.07597663904436124 -0.3117185209530159 0.6263917769739895 0.6942840962250267 0 0 0 0
682656072 -0.07497712546875913 -0.30719091878514554 0.6266350251995363 0.693464973608881 0 0 0 0
683250720 -0.0760897820694521 -0.31036985531159933 0.6253653946154988 0.6944414737479796 0 0 0 0
683845368 -0.07534203719000307 -0.3112251027394606 0.6269184506183149 0.6941318440208353 0 0 0 0
684440016 -0.07601814993887829 -0.3096769329840391 0.6282032363063549 0.6923047704267666 0 0 0 0
685034664 -0.07639504728999884 -0.3100968731226894 0.6295778719787931 0.6904852185530529 0 0 0 0
685629312 -0.07226890232504254 -0.3019831381755788 0.6308641571492152 0.6904155655960439 0 0 0 0
686223960 -0.0786650950362592 -0.3052586984419938 0.6300215654527309 0.6907528263046467 0 0 0 0
686818608 -0.07789333603661498 -0.3022460501049045 0.6306483367617199 0.6875296441183638 0 0 0 0
687413256 -0.07640903648728975 -0.3050294302113369 0.6283651920839526 0.6890028630288815 0 0 0 0
688007904 -0.07559143203627654 -0.3039363537805907 0.6318084483064661 0.6874811075230751 0 0 0 0
688602552 -0.07632493051475682 -0.3084939659733199 0.6321152968075323 0.6877234395182656 0 0 0 0
689197200 -0.0779134601224779 -0.30784589694084397 0.632531736906786 0.6875411630297741 0 0 0 0
689791848 -0.07751067553502879 -0.30442436238837867 0.6347985803546718 0.6878739566574239 0 0 0 0
690386496 -0.0765205008882465 -0.3026239717695132 0.633061599553918 0.6883600286054683 0 0 0 0
690981144 -0.07847653876235282 -0.3054751355234554 0.6352115220408444 0.688103769703135 0 0 0 0
691575792 -0.07315943395711258 -0.30401649694579813 0.6353856980459606 0.6867553311802694 0 0 0 0
692170440 -0.08165541012669077 -0.30168320110663954 0.6374673299663971 0.684173756292787 0 0 0 0
692765088 -0.08075229083337186 -0.29920460356902506 0.6379111340789109 0.6839397848554232 0 0 0 0
693359736 -0.08382079940489982 -0.3021534960392896 0.6404630131361921 0.6814584892327307 0 0 0 0
693954384 -0.07761908796748568 -0.2998664667309641 0.6389508242166669 0.6834510331409867 0 0 0 0
694549032 -0.0767438047497933 -0.2974563061476195 0.6410053561629412 0.6810548427744684 0 0 0 0
695143680 -0.08278817407898284 -0.30013832114413924 0.6405752656544252 0.6795853809568454 0 0 0 0
695738328 -0.0794756377396872 -0.2974788078424743 0.6421824562835 0.679550861103122 0 0 0 0
696332976 -0.08009461522001857 -0.2930910163371876 0.6426595875544995 0.6795936916922838 0 0 0 0
696927624 -0.07978288142408625 -0.2970261705792704 0.6408025125293327 0.6795211734726454 0 0 0 0
697522272 -0.0786532848621825 -0.29486610790081424 0.6414191035970039 0.6788005253798644 0 0 0 0
698116920 -0.07992658518196263 -0.29668681842843353 0.6442215383093878 0.6798775997078231 0 0 0 0
698711568 -0.0778577246311868 -0.2970083177067079 0.6442704482629662 0.6772136557665291 0 0 0 0
699306216 -0.07995032576184471 -0.30185246660627335 0.6461466261179231 0.6775477708798916 0 0 0 0
699900864 -0.0815876786260008 -0.2953933745553018 0.6440341059085231 0.6765099668072594 0 0 0 0
700495512 -0.07884408650969377 -0.29453768591551216 0.6460140712867478 0.6768877444344885 0 0 0 0
701090160 -0.07931703927322516 -0.2956504789589324 0.6460256506200371 0.6756316991614997 0 0 0 0
701684808 -0.08030546248296022 -0.2935661298493163 0.6495515657878889 0.6727420095541908 0 0 0 0
702279456 -0.07775389601700372 -0.29065775675126676 0.6467859575403304 0.6718399895440154 0 0 0 0
702874104 -0.08328909326978072 -0.2910615039098716 0.6473629550068258 0.6728900914632134 0 0 0 0
703468752 -0.08250827073010156 -0.2892506315665434 0.6489237847200562 0.6703161557919385 0 0 0 0
704063400 -0.08195479765624325 -0.2942004951462014 0.6504291795750101 0.6711044214007459 0 0 0 0
704658048 -0.08170857250253442 -0.2892040940389433 0.6507338453519828 0.6718016243270013 0 0 0 0
705252696 -0.07848708632882219 -0.28875883709068895 0.6504120313455055 0.6700730082310135 0 0 0 0
705847344 -0.08173830068551982 -0.2901546791984472 0.6527277278827518 0.6684107514604499 0 0 0 0
706441992 -0.08115602625218958 -0.29071325447741286 0.6514450710013083 0.6701869276715777 0 0 0 0
707036640 -0.08052213090140767 -0.2840252277003736 0.6509400696036204 0.6688299594099566 0 0 0 0
707631288 -0.07990799704789618 -0.2853009139899312 0.6532068933915443 0.66902121436309 0 0 0 0
708225936 -0.08221545100096274 -0.28733595615945334 0.6541017049002296 0.667904405516357 0 0 0 0
708820584 -0.07963153909553657 -0.28635234774566565 0.6564275619632435 0.6679336643159166 0 0 0 0
709415232 -0.08052549433444121 -0.2866361391647364 0.6564039148122061 0.6663761640988566 0 0 0 0
710009880 -0.08177527913631706 -0.2856443513670252 0.6554048342845987 0.6650332523360906 0 0 0 0
710604528 -0.08105207540126473 -0.2867734154692454 0.6557218193901775 0.6668412321528564 0 0 0 0
711199176 -0.08294984219253457 -0.2887093929553473 0.6577712698125293 0.6649102555830095 0 0 0 0
711793824 -0.08348041483718777 -0.2842835069075808 0.6574736381736697 0.6635781317728721 0 0 0 0
712388472 -0.08054847128893684 -0.2832354213268384 0.6577184714868246 0.6642641811138266 0 0 0 0
712983120 -0.08207422095034293 -0.28384667403104713 0.6596331928469775 0.662595742709015 0 0 0 0
713577768 -0.08179424866873329 -0.28481710682575434 0.6600337531167642 0.6628404193041826 0 0 0 0
714172416 -0.08453420041986642 -0.28112665656871805 0.6619681361016626 0.6616729348943803 0 0 0 0
714767064 -0.08140697970563766 -0.28479497325977704 0.6612227338938585 0.6603319234040034 0 0 0 0
715361712 -0.08559846705767275 -0.28356136778032975 0.6623538662700422 0.6597305828794996 0 0 0 0
715956360 -0.08654233732877063 -0.28542663524600864 0.6623208386692143 0.6585263682361521 0 0 0 0
716551008 -0.08541105766921486 -0.27952322183596495 0.6654493386113817 0.6580402455513752 0 0 0 0
717145656 -0.08458235220457347 -0.27917030905707096 0.6651068361574358 0.6576348622189594 0 0 0 0
717740304 -0.08425668566454843 -0.2816437266350096 0.6650622935847091 0.6568797242152231 0 0 0 0
718334952 -0.08739139173512471 -0.2790630282656205 0.6659958348480435 0.6548755477821961 0 0 0 0
718929600 -0.08596215673745643 -0.2735739218402563 0.6683965491365672 0.6549332140222135 0 0 0 0
719524248 -0.08516526133046479 -0.28157646671626496 0.6661925396848881 0.6552062664632785 0 0 0 0
720118896 -0.08762370442998606 -0.27997794804697074 0.6685563023148672 0.6521671356290075 0 0 0 0
720713544 -0.08310029684338548 -0.2755313567895836 0.6679583654554354 0.6521450638103938 0 0 0 0
721308192 -0.08458181785415059 -0.2809147053411791 0.6685476106082917 0.6524945595310799 0 0 0 0
721902840 -0.08516533795534263 -0.2766679687637876 0.668752604448775 0.6494068051310512 0 0 0 0
