# HZ S RI R 50
600000000 -0.20895028843989744 0.006162544065488263 1.0133623245373469 -0.06235171295573001 0 0 0 0
600594648 -0.19436821865738685 0.03147331824100529 0.9987422150416395 -0.04314935313905768 0 0 0 0
601189296 -0.1913481837241921 -0.0015611325569389036 1.0061851056447808 -0.05581413923947523 0 0 0 0
601783944 -0.21123330711585098 0.029435459943447637 1.0004480709112529 -0.048863945021978855 0 0 0 0
602378592 -0.18343275833272432 0.013799990260337016 1.0115902641123407 -0.05325868114908275 0 0 0 0
602973240 -0.20711896288000162 0.04965834452957889 0.9950841940661794 -0.05232389382722857 0 0 0 0
603567888 -0.21100591685818204 0.047244124191392435 1.0020763992227477 -0.04593701986672159 0 0 0 0
604162536 -0.23161002607208708 0.03654838441850658 0.9964598645345575 -0.059707176063222345 0 0 0 0
604757184 -0.2163195099479496 0.011063908213104953 1.008958574854501 -0.05337773930274303 0 0 0 0
605351832 -0.23294857298863791 -0.012021470456083162 1.008418944727681 -0.04775159030173693 0 0 0 0
605946480 -0.2272491299836494 0.02165722114350891 0.9980933752050785 -0.04773046861162611 0 0 0 0
606541128 -0.2480352387612862 0.030861313088826902 1.0022424823824136 -0.05175756895682347 0 0 0 0
607135776 -0.23001369400639032 0.016643744769696624 1.0126491911928286 -0.05114185697058572 0 0 0 0
607730424 -0.2218883225476228 0.032595499374546706 1.0097447347945485 -0.04366865481196075 0 0 0 0
608325072 -0.23104370456214024 0.01849021358548277 0.9990062291054131 -0.04818078476942928 0 0 0 0
608919720 -0.22982500797663322 0.018381763642189637 1.0112387835168457 -0.04942232654452326 0 0 0 0
609514368 -0.2353356278098714 0.05626321284474393 0.9883304526674258 -0.045157268117941886 0 0 0 0
610109016 -0.24881436126070888 0.028623406185107104 0.9975281835276251 -0.060000147024042993 0 0 0 0
610703664 -0.24349250573948708 0.005358709839930083 1.017386460499405 -0.0526708931447826 0 0 0 0
611298312 -0.2529783640478829 0.025231830289608063 0.9984828318494081 -0.04297853396925411 0 0 0 0
611892960 -0.24811178976829898 0.026482470671794208 1.0130067071231357 -0.050649379231253885 0 0 0 0
612487608 -0.25915607182535977 0.010913194794393321 0.9941710877822507 -0.044590334292291714 0 0 0 0
613082256 -0.2592955693718355 0.024238012745586263 1.0022918791550768 -0.05790601698930023 0 0 0 0
613676904 -0.2451126442238636 -0.029043889396274246 1.0260454261296652 -0.061787491145821716 0 0 0 0
614271552 -0.2624500841716261 -0.018864177101660006 1.012580495429054 -0.0552074934879135 0 0 0 0
614866200 -0.30037575340580264 -0.007414788562587977 1.0024024436996002 -0.076411295210325 0 0 0 0
615460848 -0.2622243999710114 0.007601073661143766 1.0077281587613076 -0.037726123122138126 0 0 0 0
616055496 -0.2585760887242492 -0.005030221827926383 1.0008528232582967 -0.05142852892653315 0 0 0 0
616650144 -0.27086384730634055 -0.005224901912754787 1.0021178365769468 -0.04399774568626895 0 0 0 0
617244792 -0.27429321011067276 -0.0032052595287032984 0.9962736371641548 -0.05454911647922609 0 0 0 0
617839440 -0.29447529718570103 0.006032264509652267 0.9966984706001284 -0.04984420823300506 0 0 0 0
618434088 -0.27860178891652626 -0.01924736683280519 0.997381737393683 -0.04813617045336599 0 0 0 0
619028736 -0.28161250419313594 -0.002165776342536521 1.003112218477023 -0.04943085197373809 0 0 0 0
619623384 -0.2582931875826476 -0.007598061353438455 1.015512654944645 -0.03810899899732333 0 0 0 0
620218032 -0.274858721544578 -0.01872744803024111 1.022582754992666 -0.04683990250992168 0 0 0 0
620812680 -0.298539549652588 -0.02862402563087708 1.0027439523823583 -0.05369548516627203 0 0 0 0
621407328 -0.3014555456624025 -0.03506450575530744 1.0109603651240582 -0.051596681055153686 0 0 0 0
622001976 -0.3059863241509339 -0.021026395786461066 1.0171569626735788 -0.0489054819046993 0 0 0 0
622596624 -0.3099823674722036 -0.02594466623499753 1.011007815346378 -0.049647987080457784 0 0 0 0
623191272 -0.28844205710199017 -0.030763075113157522 1.0185725619614863 -0.053485657969547795 0 0 0 0
623785920 -0.2656908712933836 -0.03260562092814399 1.0122999088098703 -0.04590348070563913 0 0 0 0
624380568 -0.27925329705729846 -0.04777826037386878 1.0182623789105218 -0.06111476895330862 0 0 0 0
624975216 -0.29123318358169004 -0.03362348970339825 1.0173477296646847 -0.05238654440923697 0 0 0 0
625569864 -0.2873425577031961 -0.05696916957292987 1.0170858562671765 -0.042118672465546486 0 0 0 0
626164512 -0.29685982293300267 -0.05293188303370281 1.0099646411429501 -0.059090205349072986 0 0 0 0
626759160 -0.31656042366121817 -0.031368361826720016 1.0158131433429154 -0.047662356601350375 0 0 0 0
627353808 -0.3027125299150101 -0.037411079170761107 1.0197234662048784 -0.05262486029089582 0 0 0 0
627948456 -0.3155316098105869 -0.04501217995247303 1.018957557744201 -0.051638729418339364 0 0 0 0
628543104 -0.30207380736984996 -0.058026868608347694 1.0132355631192285 -0.052337480974280946 0 0 0 0
629137752 -0.31748988261596345 -0.06997668120489338 1.02010922048789 -0.058197741436731815 0 0 0 0
629732400 -0.3063924654504305 -0.04094188291449406 1.0183387934723263 -0.05389755925326068 0 0 0 0
630327048 -0.29568519633583806 -0.06472808689186636 1.0132874071303726 -0.05500727742488194 0 0 0 0
630921696 -0.3009952089387827 -0.06868861520716037 1.0186573766356508 -0.051340501380152774 0 0 0 0
631516344 -0.31461413197056987 -0.06542738280406848 1.013006153104816 -0.0610993163398592 0 0 0 0
632110992 -0.29694226364709836 -0.06088968932308384 1.0174298072697536 -0.048260094347853846 0 0 0 0
632705640 -0.30445831549883756 -0.08001164136369855 1.0321047005092452 -0.056566283275997636 0 0 0 0
633300288 -0.287755702609475 -0.07360243307953199 1.0270203215299634 -0.05399478550036679 0 0 0 0
633894936 -0.287795325794912 -0.06181563587103345 1.0215731217893855 -0.033818675027229614 0 0 0 0
634489584 -0.32796332359317987 -0.08516356514777035 1.0147458588144243 -0.056545186878805165 0 0 0 0
635084232 -0.3075656604134818 -0.07438589688721287 1.0288693595321439 -0.049606064484846446 0 0 0 0
635678880 -0.30710573304977545 -0.10144865640880586 1.041192059454543 -0.04686680977347188 0 0 0 0
636273528 -0.32792014794597735 -0.09527196364555515 1.0311923988735932 -0.05387968588777851 0 0 0 0
636868176 -0.3092775958764581 -0.12716089133395092 1.040501106763907 -0.058055727345309366 0 0 0 0
637462824 -0.316140902798863 -0.059504898087228884 1.0186629069647093 -0.05027489862701911 0 0 0 0
638057472 -0.3259600520515223 -0.08022169117507255 1.0240304695043927 -0.043168165643330855 0 0 0 0
638652120 -0.3179434651543537 -0.08830639806849819 1.017980399386714 -0.049036197810338814 0 0 0 0
639246768 -0.3321869512462074 -0.10968732770092747 1.031892272535033 -0.059792783629152524 0 0 0 0
639841416 -0.3166490443107595 -0.10221345384574931 1.0288370852129989 -0.044603131584295304 0 0 0 0
640436064 -0.3031103060840489 -0.1106122916868769 1.0394572536882725 -0.050123967563438086 0 0 0 0
641030712 -0.3210794287428876 -0.1176945876721442 1.0366291606282223 -0.05061116994967309 0 0 0 0
641625360 -0.31862658395368854 -0.14104291231689492 1.048340023738162 -0.058490074191723106 0 0 0 0
642220008 -0.32324428429543606 -0.13289007126169164 1.0351109006719352 -0.05006173641396368 0 0 0 0
642814656 -0.33274328696543626 -0.12912609458400096 1.037669875327741 -0.04283910387626589 0 0 0 0
643409304 -0.33858440443032134 -0.13161248305464213 1.0392510538501776 -0.05558520587104938 0 0 0 0
644003952 -0.3199619561295994 -0.12594527483989407 1.0340666325331767 -0.04384353764961182 0 0 0 0
644598600 -0.300584708105872 -0.15822523477053382 1.060143408807287 -0.05102247017493012 0 0 0 0
645193248 -0.33014354972919874 -0.142054972079118 1.0443014470270198 -0.047197383714973916 0 0 0 0
645787896 -0.3245728573085815 -0.11460758958260413 1.0337809046911928 -0.04376010802515776 0 0 0 0
646382544 -0.37056162672801757 -0.12190013351883382 1.0265190088480463 -0.04802285863523822 0 0 0 0
646977192 -0.32119893387635473 -0.1381364645616969 1.0481505853015263 -0.036732529300219766 0 0 0 0
647571840 -0.3462619606245826 -0.17921076291952565 1.0603664886709463 -0.04384860730285121 0 0 0 0
648166488 -0.3393951968389457 -0.11244559032973157 1.0288503957019424 -0.032197582947652514 0 0 0 0
648761136 -0.348685594251799 -0.15494977748055141 1.0385846327234578 -0.05093890719976216 0 0 0 0
649355784 -0.35031327856994293 -0.1537548497728282 1.0463132420337107 -0.037942050622080586 0 0 0 0
649950432 -0.3439816935481469 -0.1557443914612653 1.0515718911878913 -0.04990501238200132 0 0 0 0
650545080 -0.3429902898902111 -0.15650693288872605 1.0479871363219377 -0.03615635423998813 0 0 0 0
651139728 -0.32460753231080725 -0.1805657197263512 1.0550254549352738 -0.03949731269248066 0 0 0 0
651734376 -0.34407353301702576 -0.15594863044544166 1.0461768019397848 -0.028878692553791246 0 0 0 0
652329024 -0.33531695607361095 -0.17427739822594102 1.0504019385398582 -0.029595978236173506 0 0 0 0
652923672 -0.3773321475014447 -0.1609087770230379 1.0276264511090678 -0.05525911033587785 0 0 0 0
653518320 -0.3349627160341765 -0.1924708395745138 1.0546298521299426 -0.037849154582849695 0 0 0 0
654112968 -0.33958202150983896 -0.20268845402255883 1.0495831214179563 -0.03494725489527621 0 0 0 0
654707616 -0.3562430444410151 -0.1899866301527221 1.046292154735023 -0.045968042385666395 0 0 0 0
655302264 -0.33348550625430234 -0.18698105449140145 1.0444057594437914 -0.03930518209304976 0 0 0 0
655896912 -0.34883905679890265 -0.1726500119737929 1.0424377208404552 -0.044033122067333084 0 0 0 0
656491560 -0.34696031314914955 -0.18216493830323094 1.0541347107373533 -0.04168221017034334 0 0 0 0
657086208 -0.35129939656527726 -0.21308731170223894 1.0583411723944556 -0.03925298990496827 0 0 0 0
657680856 -0.331820935843487 -0.2034513016147428 1.047682927680108 -0.023747496780776582 0 0 0 0
658275504 -0.3399303329542882 -0.23688288708564698 1.0725154855109025 -0.030374980438593456 0 0 0 0
658870152 -0.3591200169143476 -0.20986911874252367 1.0526362877584876 -0.04355905269214728 0 0 0 0
659464800 -0.33219768270949646 -0.19694898603561714 1.043453502702776 -0.021976337350114172 0 0 0 0
660059448 -0.36513306563962655 -0.2728648870142041 1.0454598075965416 -0.029685917554381658 0 0 0 0
660654096 -0.4001630268662457 -0.2245743292316302 1.0330770254049078 -0.035399508806441174 0 0 0 0
661248744 -0.38930404630159926 -0.2506465369067386 1.0586790134558894 -0.054376131642202466 0 0 0 0
661843392 -0.38168937197079306 -0.2130586951883193 1.0453423363148369 -0.03094868231867283 0 0 0 0
662438040 -0.3980912807209693 -0.24493310550458441 1.030111062197682 -0.04204413133080296 0 0 0 0
663032688 -0.38244231079454116 -0.26580875554053407 1.0662127679661642 -0.05276271530179607 0 0 0 0
663627336 -0.38803823500089846 -0.24108602360051098 1.0633930122807498 -0.05366544599059677 0 0 0 0
664221984 -0.35836297854971716 -0.2770603404010672 1.0568517116826466 -0.021674016950936736 0 0 0 0
664816632 -0.3692060041298729 -0.23037736010484847 1.0448517687840848 -0.027392380432057696 0 0 0 0
665411280 -0.3892615105646388 -0.2882699233869449 1.063402200818277 -0.044691873104247076 0 0 0 0
666005928 -0.3949811647258162 -0.27926991362162223 1.0720351368961978 -0.03664472437210263 0 0 0 0
666600576 -0.3627167346592595 -0.2814162115081621 1.046975467818818 -0.032881993886412435 0 0 0 0
667195224 -0.40865658511670877 -0.3211682293377484 1.0720769740594591 -0.042791233412054805 0 0 0 0
667789872 -0.37952296199695457 -0.30090048643560674 1.0576897905686011 -0.03226001477926882 0 0 0 0
668384520 -0.37932474962939644 -0.28574830045432814 1.0401469762457183 -0.03595069667524159 0 0 0 0
668979168 -0.38040805533657773 -0.28548565420891586 1.0591703561882866 -0.041539831472633286 0 0 0 0
669573816 -0.39374163053101474 -0.33380134955536295 1.0753227261901648 -0.050306786635904044 0 0 0 0
670168464 -0.3771540868923254 -0.29276006711259767 1.0468837404197062 -0.024416170678699015 0 0 0 0
670763112 -0.39104545669340535 -0.3105873995545929 1.0424653895780407 -0.04192171381741364 0 0 0 0
671357760 -0.40635294263883254 -0.31195983872381805 1.0596835482005058 -0.05250006905502273 0 0 0 0
671952408 -0.4121986512334652 -0.298137771186014 1.0508853768484585 -0.04054416499745727 0 0 0 0
672547056 -0.38928267523124516 -0.31009709602282237 1.0648126115931706 -0.03883983113202563 0 0 0 0
673141704 -0.3881102272382724 -0.35362038609123253 1.0676923426917526 -0.022488255718910277 0 0 0 0
673736352 -0.36851494397158685 -0.3446914328497062 1.0723606028138257 -0.027483279281086646 0 0 0 0
674331000 -0.3668129229645269 -0.3712959004735067 1.0749248632547541 -0.03752258699550743 0 0 0 0
674925648 -0.34955272298770346 -0.35461099856937034 1.0659158971566753 -0.019009541464854673 0 0 0 0
675520296 -0.35002602910989394 -0.31199884549481094 1.0620659717596612 -0.01752226068840565 0 0 0 0
676114944 -0.37651838812034005 -0.33365450284308174 1.0540346068226378 -0.023995153898554313 0 0 0 0
676709592 -0.42305768545093203 -0.34804311026492757 1.066762758403906 -0.04855130167718874 0 0 0 0
677304240 -0.356666682617883 -0.37517297309608405 1.0773096438751864 -0.0287624702788319 0 0 0 0
677898888 -0.36273836756722966 -0.3544870721317227 1.0628285519745444 -0.02544464218085811 0 0 0 0
678493536 -0.38431376776940096 -0.3693553995486678 1.0682534674375752 -0.030956526286807312 0 0 0 0
679088184 -0.3732864432575283 -0.37995264286876235 1.0681210457248205 -0.010611649700411077 0 0 0 0
679682832 -0.3696208016926206 -0.35779070629700155 1.0636347439242069 -0.025014538637441852 0 0 0 0
680277480 -0.33869872998333816 -0.36073207753368297 1.0631790761202284 -0.012994300218617735 0 0 0 0
680872128 -0.3695263968906213 -0.3553133490750858 1.061833539249111 -0.02246708264750178 0 0 0 0
681466776 -0.3657346733451027 -0.37375264046141177 1.0636433968378753 -0.03717648875507083 0 0 0 0
682061424 -0.3282939262002049 -0.38621885182078197 1.0620531350897853 -0.01864108230643926 0 0 0 0
682656072 -0.38567096005234536 -0.3742192114149734 1.0696191241367794 -0.016517574165891877 0 0 0 0
683250720 -0.3441231346663827 -0.383898749120204 1.0616221910115358 -0.019170238334691926 0 0 0 0
683845368 -0.36521532106778937 -0.3742623484043239 1.0629253264230134 -0.013886780037314597 0 0 0 0
684440016 -0.37494162428888955 -0.3990494915028451 1.071530930461812 -0.022200178767112402 0 0 0 0
685034664 -0.3326022149681347 -0.402975324492085 1.066670473100584 -0.007801734419396446 0 0 0 0
685629312 -0.356663521847747 -0.3951726018159823 1.0768055406655783 -0.014113641091831358 0 0 0 0
686223960 -0.35109712687049116 -0.4115581112075873 1.074634657628397 -0.014024178275239982 0 0 0 0
686818608 -0.32537503844654464 -0.4285576928610726 1.0681720140552637 -0.015832391756413128 0 0 0 0
687413256 -0.35338306622501503 -0.40156763015549507 1.0511895206214465 -0.015187358278648672 0 0 0 0
688007904 -0.3403663352305047 -0.3887678143716016 1.0550186172131912 -0.012965936989086484 0 0 0 0
688602552 -0.3391657862311932 -0.4045173050891695 1.0685183140476295 -0.018843681935865338 0 0 0 0
689197200 -0.3732841286019342 -0.4130181173862795 1.0714217656207778 -0.02960738879090804 0 0 0 0
689791848 -0.2966273556709545 -0.40799725214953153 1.0637363214311464 -0.004443358283675598 0 0 0 0
690386496 -0.3285840632937801 -0.42935438892907263 1.0623489898130356 0.0032562425466011874 0 0 0 0
690981144 -0.3123587084026298 -0.37521771821802047 1.063309209053013 0.010444965196308692 0 0 0 0
691575792 -0.3437492472278381 -0.4433994966762191 1.08291744693881 -0.031231506008827223 0 0 0 0
692170440 -0.32895582709413096 -0.44388001323301723 1.0722891251892641 -0.0080673706341408 0 0 0 0
692765088 -0.33413156463718174 -0.4228173036677261 1.0592530138541236 -0.01600091131328992 0 0 0 0
693359736 -0.329059780668541 -0.4558231621218793 1.074169410782691 -0.000304021650007813 0 0 0 0
693954384 -0.35361607205614365 -0.43621454065792264 1.0659560442106364 -0.014333908364930821 0 0 0 0
694549032 -0.3206703962014315 -0.46750775045420495 1.0650258559222907 -0.02807631080609766 0 0 0 0
695143680 -0.3346412724040467 -0.4519949578636265 1.0602104719345118 -0.019829616424554768 0 0 0 0
695738328 -0.34543410993346035 -0.4518723239466428 1.0560093586659949 -0.02081462556564316 0 0 0 0
696332976 -0.2870623306479723 -0.467036472156794 1.0652597311115422 -0.0015447398817642344 0 0 0 0
696927624 -0.31970398806824346 -0.4776290972709883 1.0772133892179274 -0.009654480635589088 0 0 0 0
697522272 -0.3499476809063414 -0.4614867739167806 1.0690211247333958 -0.032777799286564525 0 0 0 0
698116920 -0.31159967837701225 -0.4811324207701687 1.0747815108276793 0.0003786030066769003 0 0 0 0
698711568 -0.2947466333467157 -0.48482007391607235 1.069832830045538 0.010052696514665282 0 0 0 0
699306216 -0.3026577605877696 -0.4878945323677037 1.0865107721425722 -0.0013474757309165503 0 0 0 0
699900864 -0.31245733371769896 -0.4992814038092038 1.070510391488322 -0.021008340823408377 0 0 0 0
700495512 -0.28020798340404673 -0.530262358785958 1.0764064988540654 -0.00012877452603610173 0 0 0 0
701090160 -0.25428261010480435 -0.4950207214234753 1.0778998208411594 0.019483701081167357 0 0 0 0
701684808 -0.27939996481002144 -0.4876243033569332 1.0633009124582404 -0.0027154950884950915 0 0 0 0
702279456 -0.2787110059595648 -0.49483164382445083 1.0782436500704082 -0.0022356963811509672 0 0 0 0
702874104 -0.28664405118195496 -0.501751151849255 1.0789786429326775 -0.01281851303920152 0 0 0 0
703468752 -0.23066591587324814 -0.5012888966483008 1.0651001833519582 0.0008099640916485185 0 0 0 0
704063400 -0.276134686341494 -0.4814175773467579 1.054791221685775 0.008297181488151867 0 0 0 0
704658048 -0.28113170210641214 -0.4958045292666566 1.063740170015093 -0.0033859783726225418 0 0 0 0
705252696 -0.20873722045749804 -0.5209931359381604 1.0674172504897466 0.00950787292099136 0 0 0 0
705847344 -0.26668791975740425 -0.5208649738811015 1.0622684842681973 -0.0025806438081536 0 0 0 0
706441992 -0.2440053973813718 -0.4927732952066342 1.0703056874725025 0.012689768954198141 0 0 0 0
707036640 -0.2504989548954383 -0.5140695690811526 1.0698615578353319 0.003021091636212829 0 0 0 0
707631288 -0.21891441055035488 -0.5107365719376821 1.0612412843087964 0.015706921143350365 0 0 0 0
708225936 -0.25240665251088984 -0.5273978165678017 1.0822026336644321 0.017890380691026192 0 0 0 0
708820584 -0.24951605217136338 -0.5402756420622942 1.0844265924525482 0.012134623894270904 0 0 0 0
709415232 -0.26486400342998523 -0.5046253124929657 1.0663305582673286 -0.0017394831652092838 0 0 0 0
710009880 -0.1976786596006518 -0.5680746702289773 1.0828003633981718 0.023662991663923445 0 0 0 0
710604528 -0.24848046430074316 -0.5419072329007336 1.0674511303938308 0.02160771947767648 0 0 0 0
711199176 -0.21686191520537726 -0.5860481922670168 1.0883257853416308 0.01328680592121674 0 0 0 0
711793824 -0.21264099115522705 -0.5375241545501225 1.0750904087547235 0.0066862071004317875 0 0 0 0
712388472 -0.22206298286142287 -0.5726600368331467 1.0795668672168317 0.013209288893536918 0 0 0 0
712983120 -0.159266017521465 -0.548364840514602 1.0673316225229659 0.03344343585641874 0 0 0 0
713577768 -0.25861358484170294 -0.5594801719507337 1.0895603333610437 0.00960042187101505 0 0 0 0
714172416 -0.16513879086175823 -0.562706938834817 1.0750042063307734 0.019527467313319176 0 0 0 0
714767064 -0.23131905400794678 -0.5583198499459393 1.0714565159325142 -0.01573016219713562 0 0 0 0
715361712 -0.20744431496498142 -0.540875349283528 1.0692747097962485 0.017459476887879577 0 0 0 0
715956360 -0.24075932416682838 -0.5724160413309147 1.0813271401781954 0.013808410336229163 0 0 0 0
716551008 -0.23802338040331547 -0.6012721801951253 1.0810725961070156 0.0076900736134885295 0 0 0 0
717145656 -0.26700767090240224 -0.5671707227512014 1.0732558001472927 -0.024985432298171247 0 0 0 0
717740304 -0.16433620694636134 -0.5479703675378194 1.0559386397085495 0.0177142729070488 0 0 0 0
718334952 -0.20530024340370773 -0.580020818727147 1.0817636014608465 0.016649904840075593 0 0 0 0
718929600 -0.20728583995880256 -0.5877932856911313 1.0772035606074268 -0.007698379004044499 0 0 0 0
