# HZ S RI R 50
600000000 0.9051254791696087 0.1933946749825547 0.053307751600768935 -0.15724807246229242 0 0 0 0
600594648 0.9003976196456807 0.20299483825063197 0.053344753322433366 -0.15497279969163097 0 0 0 0
601189296 0.9015762415711397 0.19306637430023613 0.05206357014100335 -0.15524792778947713 0 0 0 0
601783944 0.9034602622245067 0.20069716333072152 0.05260844908640754 -0.15499446352228682 0 0 0 0
602378592 0.9048434999463549 0.19515763150544763 0.05101707066194061 -0.15322932486072197 0 0 0 0
602973240 0.9042136351932665 0.19704067375148468 0.05241210471499366 -0.1532191223299005 0 0 0 0
603567888 0.9012905425312254 0.19669051181841204 0.05095443419666945 -0.15246886773040738 0 0 0 0
604162536 0.9050007968746732 0.19242475447705454 0.05143135689247356 -0.15307468318020506 0 0 0 0
604757184 0.9031627633168919 0.19002909397757367 0.04994253439462856 -0.15058696840289004 0 0 0 0
605351832 0.9029873030745221 0.1896676052944889 0.04905570850982413 -0.1519780902992089 0 0 0 0
605946480 0.9038758897008085 0.18392383627676193 0.05024792020351805 -0.15087680586098365 0 0 0 0
606541128 0.898250485451487 0.18703239703578253 0.04854877944541329 -0.15166643601724686 0 0 0 0
607135776 0.9026107175487197 0.1863012757420291 0.0497363034048751 -0.1505534344859991 0 0 0 0
607730424 0.901123384585983 0.18068150534324343 0.048041370644034534 -0.14945773022699207 0 0 0 0
608325072 0.903351260131959 0.18205976054515796 0.04973993721629769 -0.14976021128349531 0 0 0 0
608919720 0.8996712278333414 0.18104254783859697 0.049707749481649396 -0.1502084734614846 0 0 0 0
609514368 0.901016594689187 0.18440939966374242 0.04915127938433335 -0.14830243227063977 0 0 0 0
610109016 0.896366970475584 0.1829321567968416 0.04855945086019724 -0.14776637544172258 0 0 0 0
610703664 0.8979479912931694 0.17487294062885322 0.047704998834764326 -0.14833413750571497 0 0 0 0
611298312 0.8976564843861174 0.1778613428774517 0.048536885450861766 -0.14795454885073026 0 0 0 0
611892960 0.9025350055492265 0.1772481571970242 0.04771016676316099 -0.1476632553132507 0 0 0 0
612487608 0.9027709967336718 0.179584342735892 0.04839944956025631 -0.14788766326413205 0 0 0 0
613082256 0.8961624215274975 0.17913688250417012 0.047074874038086745 -0.14661564977770422 0 0 0 0
613676904 0.9036269631433551 0.17777582980439205 0.04694160840009516 -0.1460935183812951 0 0 0 0
614271552 0.9060803078992391 0.17634633812289022 0.04720359794209561 -0.1464349208687619 0 0 0 0
614866200 0.9016957861804228 0.1731309943656823 0.04605507269089653 -0.1462842121460345 0 0 0 0
615460848 0.8947270430331963 0.17478982145424163 0.0449731100379762 -0.14530796975690788 0 0 0 0
616055496 0.9028352703280137 0.17140589845531629 0.04504318664812208 -0.14484954480082088 0 0 0 0
616650144 0.9064744100970584 0.1744121934882286 0.045813593123656404 -0.14487370673663053 0 0 0 0
617244792 0.9026203823875019 0.17082206491622598 0.04436320635021013 -0.1431970155251316 0 0 0 0
617839440 0.8934717731378226 0.17461568993932633 0.04526227980815152 -0.1438843261380703 0 0 0 0
618434088 0.9026978072314008 0.17282608026782448 0.04574406524249661 -0.14356918063646257 0 0 0 0
619028736 0.9047279374094034 0.17245066515404636 0.04520138285522354 -0.14340108349012826 0 0 0 0
619623384 0.9002482285051238 0.1707461425659078 0.044372227603521254 -0.14312599447355764 0 0 0 0
620218032 0.9011473286528908 0.16644010470488765 0.04441781775078165 -0.1425249914061925 0 0 0 0
620812680 0.9044267282495508 0.17136481554645627 0.04252952008466093 -0.14180185096107076 0 0 0 0
621407328 0.9011080411796677 0.1722986039829834 0.042463153402682675 -0.14273517243070488 0 0 0 0
622001976 0.9018820700043892 0.1671969367940954 0.043185822685777864 -0.14095004634980993 0 0 0 0
622596624 0.9046973840012986 0.1655082950863812 0.04229517366574031 -0.14121771119931267 0 0 0 0
623191272 0.9030885149388334 0.16404033933224438 0.04127046229437306 -0.14071754358772176 0 0 0 0
623785920 0.8991920678407157 0.16324520514960603 0.042894913464557954 -0.14020847907602033 0 0 0 0
624380568 0.9047083627499322 0.16650913139321827 0.0425652343768355 -0.1403672513517999 0 0 0 0
624975216 0.9032580887950493 0.16919372672066135 0.04227884486536054 -0.13970538075762864 0 0 0 0
625569864 0.9038626364705288 0.16287958714221937 0.040618110852814096 -0.13935817929936326 0 0 0 0
626164512 0.8979661858671544 0.16229828049186115 0.0419745822340641 -0.13912149594719933 0 0 0 0
626759160 0.9062494645499177 0.16452842481632954 0.04136994879655072 -0.13911519917868 0 0 0 0
627353808 0.8994845059735896 0.16151951613947654 0.040410535673473566 -0.13772329658266053 0 0 0 0
627948456 0.9060405634769736 0.16323306932372245 0.04034975905525411 -0.1376449599452578 0 0 0 0
628543104 0.9041671633729149 0.16147587508904981 0.04086615722100551 -0.13754318466758217 0 0 0 0
629137752 0.9042783485088132 0.15918343385138783 0.04029612437713251 -0.1373909404699748 0 0 0 0
629732400 0.9022492290395827 0.1620616589638673 0.03979137180696187 -0.13708221245572122 0 0 0 0
630327048 0.8986121643240137 0.16025015762339606 0.03981650178199707 -0.1356724959365973 0 0 0 0
630921696 0.905301186227021 0.1606151440804538 0.03868391480662093 -0.13583962884972448 0 0 0 0
631516344 0.9041644006619783 0.15654158679171704 0.03965173682217775 -0.13441533507201653 0 0 0 0
632110992 0.907877504207797 0.15860455881673496 0.038808044910115067 -0.13577042825182964 0 0 0 0
632705640 0.8993877416616121 0.15789680910782714 0.039400640202393186 -0.13456911356735143 0 0 0 0
633300288 0.9017014576490231 0.15412727661293274 0.03871601217223837 -0.13468944176396153 0 0 0 0
633894936 0.9098089731016258 0.15474467158169672 0.038761773690993234 -0.13467478533249969 0 0 0 0
634489584 0.9056578917280882 0.15375052998411665 0.03800689238788841 -0.13386835909090308 0 0 0 0
635084232 0.9048181625829487 0.15449132273455887 0.037359975192879036 -0.13411743757820635 0 0 0 0
635678880 0.9056332492412472 0.15485314244276852 0.037111362038468015 -0.1329608330939088 0 0 0 0
636273528 0.9024411542193229 0.15317045244621028 0.03736317236880818 -0.13430208510167227 0 0 0 0
636868176 0.9027904307609875 0.15323181956572807 0.0371995122268623 -0.13337506396674845 0 0 0 0
637462824 0.9018227297574187 0.15083415492712218 0.03652001060232388 -0.13190573554064353 0 0 0 0
638057472 0.9090738400529297 0.15148504564877502 0.03648050809811081 -0.13177550246203285 0 0 0 0
638652120 0.9050714709226936 0.15332196792651717 0.0368483345793306 -0.13143362169089584 0 0 0 0
639246768 0.9096665205272951 0.15092190303254158 0.03559475413005621 -0.13198240546678308 0 0 0 0
639841416 0.9051302346225386 0.1490157009548311 0.03640422227531323 -0.1314282444176844 0 0 0 0
640436064 0.9070566033595294 0.15026659615849441 0.03598863318143016 -0.1323157039178164 0 0 0 0
641030712 0.9066003393058583 0.15430411009143366 0.0358615154414606 -0.13186373579523872 0 0 0 0
641625360 0.9078396914360286 0.14624254855330712 0.03495366601194223 -0.13029140104528564 0 0 0 0
642220008 0.9088813409322813 0.14421318823271354 0.0340397253887596 -0.1301874330309248 0 0 0 0
642814656 0.9145518564465089 0.1492451669993908 0.03526311295339301 -0.12996426863103552 0 0 0 0
643409304 0.9067413140831211 0.1465861371596978 0.03499326223625292 -0.12830360178099323 0 0 0 0
644003952 0.9050056982761715 0.14769403053236835 0.03437811951902148 -0.12917502738205264 0 0 0 0
644598600 0.9098217474920094 0.1450768929083411 0.03400197614655316 -0.12959588178708958 0 0 0 0
645193248 0.9107198780417379 0.14630043878070326 0.034151587665406435 -0.1285877189930596 0 0 0 0
645787896 0.9086166218062136 0.1480684317426967 0.03483835926938682 -0.12805706491973184 0 0 0 0
646382544 0.9031731523937272 0.14372459416579456 0.03458046456499949 -0.12808814629325346 0 0 0 0
646977192 0.912681573671713 0.14451959630074693 0.032836320214654074 -0.12755485019942672 0 0 0 0
647571840 0.9118719457670398 0.14128590144883563 0.033405944236867005 -0.12747308095443083 0 0 0 0
648166488 0.904339731122736 0.1394925871318225 0.03263986251277618 -0.1272682213232801 0 0 0 0
648761136 0.9091139750061041 0.13900630294884328 0.032981740181215226 -0.12705746379362537 0 0 0 0
649355784 0.909126696531531 0.14432341498681647 0.03307677628521683 -0.12718482004846388 0 0 0 0
649950432 0.9052006809137262 0.14309259911430278 0.03283084853296317 -0.12546936391226163 0 0 0 0
650545080 0.9105818882613163 0.14042312231334655 0.03222997720198905 -0.1259842406599775 0 0 0 0
651139728 0.9070641413357684 0.140410120436622 0.03153147342593504 -0.12561911464968162 0 0 0 0
651734376 0.9066404155601794 0.14006162227177327 0.03151001937422053 -0.12562685586723787 0 0 0 0
652329024 0.9075884230327383 0.1399261476485947 0.03149672791915144 -0.12399988454121005 0 0 0 0
652923672 0.9062191148286256 0.13417708192387193 0.03207693851746721 -0.1253314925421603 0 0 0 0
653518320 0.9083199278230781 0.14035735296836996 0.031103346860362757 -0.12487751399836039 0 0 0 0
654112968 0.9112850298578167 0.1376262207714259 0.031358156752850995 -0.12366988059268161 0 0 0 0
654707616 0.9082658154143867 0.13513687497739132 0.03142584862825881 -0.12447360491309607 0 0 0 0
655302264 0.9084937594178107 0.14053511615131767 0.030821922878482268 -0.12384821966871742 0 0 0 0
655896912 0.9128321910334641 0.13971566239494715 0.030733062666120275 -0.12365214407501184 0 0 0 0
656491560 0.9084677273401464 0.13508551320824802 0.030303159123879243 -0.12337830815271943 0 0 0 0
657086208 0.9075170167122526 0.13812325214020213 0.030182161247276084 -0.12353759464033276 0 0 0 0
657680856 0.9097711069995893 0.13499620771107648 0.0312859866943519 -0.12258178784642834 0 0 0 0
658275504 0.9113740360952814 0.13024268219788526 0.029429205390485186 -0.12258825360382632 0 0 0 0
658870152 0.9132339499008049 0.13821514848022318 0.02995260067414639 -0.12209256321929683 0 0 0 0
659464800 0.9104542862326906 0.13289718307445555 0.02984306856111848 -0.12218630926398899 0 0 0 0
660059448 0.9135420034930253 0.12870739693914596 0.033742802442958124 -0.12211491313040085 0 0 0 0
660654096 0.9118753438344066 0.12393430542366929 0.03096613653267099 -0.12217974478856547 0 0 0 0
661248744 0.9210979730407458 0.1293347213130013 0.03221650948348989 -0.12214914346836714 0 0 0 0
661843392 0.9121993033884783 0.12683706604936112 0.031472102778750476 -0.12068722989605807 0 0 0 0
662438040 0.9154055808289882 0.12823095238492918 0.0297003168643653 -0.12267527230001944 0 0 0 0
663032688 0.9151060877163034 0.12715103292841076 0.03044555519879048 -0.12126141017595149 0 0 0 0
663627336 0.9161400531333832 0.12886206421070462 0.028820045509100604 -0.1216134947931693 0 0 0 0
664221984 0.9142656641938385 0.1284699383006305 0.02925444775747915 -0.1213223146182603 0 0 0 0
664816632 0.9157359764970415 0.12728277030553045 0.028175321041680832 -0.1213622184765752 0 0 0 0
665411280 0.9167169335092871 0.12925605047394748 0.02870341525653694 -0.12052656866667061 0 0 0 0
666005928 0.9175797709141065 0.12811745405889766 0.028137399443193413 -0.12050841002387266 0 0 0 0
666600576 0.9171917577812336 0.12732820831322084 0.02718206024113391 -0.12014213910563143 0 0 0 0
667195224 0.9167159694168893 0.12556186478122172 0.027570876756620406 -0.11898310122870269 0 0 0 0
667789872 0.9184925313118912 0.12540707794286868 0.029261904233606573 -0.11865660426431549 0 0 0 0
668384520 0.9164110489481558 0.1199554569975857 0.026777037249251387 -0.11891366573622304 0 0 0 0
668979168 0.919428305255489 0.12925621685732488 0.02765364664288536 -0.1189502942527654 0 0 0 0
669573816 0.919217258716514 0.12849077574316112 0.026780495009783023 -0.11814969148163548 0 0 0 0
670168464 0.9177961102021619 0.12498597087633714 0.026986036495610943 -0.11839776599333679 0 0 0 0
670763112 0.9180415207108464 0.11998403180641007 0.02767278590647494 -0.11842969623672471 0 0 0 0
671357760 0.9192099702563823 0.12214976002968692 0.02620164473463736 -0.11742416598404579 0 0 0 0
671952408 0.9221711768787682 0.12303523025778061 0.026174427618949274 -0.11730104483388938 0 0 0 0
672547056 0.9187223894910871 0.11976634627003256 0.02679799614051054 -0.11730575849869698 0 0 0 0
673141704 0.9176734867265939 0.12507395338581323 0.026468500695042696 -0.11650466223302305 0 0 0 0
673736352 0.9140726885704142 0.12586622708958375 0.02713156523315434 -0.11682201377804746 0 0 0 0
674331000 0.9206119243485232 0.12129467856803683 0.026220652952586465 -0.11566569407949982 0 0 0 0
674925648 0.9177931951576533 0.12217079913758658 0.02471366816589788 -0.11640155781569098 0 0 0 0
675520296 0.9188026484601111 0.11959747752792829 0.025725427177229594 -0.11606332839517906 0 0 0 0
676114944 0.9194128123807922 0.11792911043984726 0.02630676111712944 -0.1161310328041198 0 0 0 0
676709592 0.916952255669792 0.11913975953571027 0.024909724480803683 -0.11541902041144139 0 0 0 0
677304240 0.9206009629583395 0.1162208527765565 0.026257986071933304 -0.1144977994716954 0 0 0 0
677898888 0.9203474033335708 0.11466962747767445 0.025803470337129306 -0.11408820286122487 0 0 0 0
678493536 0.9173286949181086 0.11740792876339376 0.024774161708604275 -0.11481289286505451 0 0 0 0
679088184 0.921676401203165 0.11623733654530613 0.025815967699887116 -0.11417329861559307 0 0 0 0
679682832 0.9164614085154305 0.11615836827508624 0.02601503178730287 -0.11487942895914698 0 0 0 0
680277480 0.9199374067012115 0.11470136047888378 0.025125952017230436 -0.11445844082816588 0 0 0 0
680872128 0.9221806074625899 0.1133698199383012 0.0257007045333437 -0.1134114933139987 0 0 0 0
681466776 0.91898410931649 0.11288925758027858 0.02501088884723146 -0.11306502816579259 0 0 0 0
682061424 0.9220487597650602 0.11377418760442633 0.02417148163548958 -0.11337848729336744 0 0 0 0
682656072 0.9225006325783531 0.11390455193638684 0.024121407913460374 -0.11253896298340023 0 0 0 0
683250720 0.9211067439456806 0.10842511933361776 0.02484310348847483 -0.11153065835435344 0 0 0 0
683845368 0.9207051511762765 0.10858584239039794 0.024293378942807066 -0.11186064617391622 0 0 0 0
684440016 0.9206129478394983 0.10950364405611752 0.025051253593639883 -0.11258904809116374 0 0 0 0
685034664 0.9220724051572688 0.10739638508790594 0.024569312238730948 -0.1116178042659393 0 0 0 0
685629312 0.9213812392025789 0.10654006987011039 0.023388330455638102 -0.11149871886045347 0 0 0 0
686223960 0.9227211634130728 0.11031478160331533 0.024087654200941132 -0.11189252329891453 0 0 0 0
686818608 0.9171766048339224 0.11151436734816225 0.022863545579566838 -0.11126333498034033 0 0 0 0
687413256 0.9208129640674264 0.10848042580861196 0.023946463692283825 -0.11059364496589835 0 0 0 0
688007904 0.9221945070587788 0.1065995995792677 0.02373003150431979 -0.11037276983421909 0 0 0 0
688602552 0.9190729969660829 0.10888121317551881 0.02410613010714606 -0.11025569796526336 0 0 0 0
689197200 0.9216825801607224 0.11015492037148378 0.024007993136541683 -0.10963381076304728 0 0 0 0
689791848 0.9159790521086654 0.11088180977346018 0.024029354609115466 -0.10958441610450252 0 0 0 0
690386496 0.9240062283444793 0.10583495239227589 0.023547059595252835 -0.1092641706101502 0 0 0 0
690981144 0.9226242488843868 0.10715686629645338 0.024072213706411397 -0.10925879758209342 0 0 0 0
691575792 0.9231208893619276 0.1030057457501926 0.022910370578227292 -0.10888910991233271 0 0 0 0
692170440 0.9235475732609868 0.10534096859299479 0.022533162962427696 -0.10883553463108661 0 0 0 0
692765088 0.9175627367608561 0.10502717074722703 0.02348564735563162 -0.10854182420029293 0 0 0 0
693359736 0.922472847947404 0.10752109392834598 0.023336243201648628 -0.1088805813051872 0 0 0 0
693954384 0.9247610045387097 0.10162941819355373 0.02243530477835041 -0.10803819009935804 0 0 0 0
694549032 0.9231246384162791 0.10299298369846939 0.022381783249453824 -0.10749574789734793 0 0 0 0
695143680 0.9237813981145984 0.10298226697859512 0.021982481371730724 -0.10726804149869809 0 0 0 0
695738328 0.922591081935947 0.09971888362835088 0.02266356506105823 -0.10745134741912468 0 0 0 0
696332976 0.9235994374468114 0.10211438186974216 0.022540420031650597 -0.10689398021029195 0 0 0 0
696927624 0.924669125313444 0.10372904336690686 0.022772250490786895 -0.10684837636252088 0 0 0 0
697522272 0.9243854073604922 0.10293154040940318 0.020950920106267146 -0.10678484591831182 0 0 0 0
698116920 0.9247096003103994 0.10149854571771165 0.02175948670890257 -0.10521794278174156 0 0 0 0
698711568 0.9267755204904888 0.099693136234441 0.021094143740179518 -0.10508362068858747 0 0 0 0
699306216 0.9229034642397668 0.09981167032120322 0.021746442804527644 -0.1060236772843154 0 0 0 0
699900864 0.9218136028283161 0.09947341404931627 0.021179933337480146 -0.10515714136287295 0 0 0 0
700495512 0.9272803779260854 0.10015182216121687 0.02111403200691039 -0.10461023037930044 0 0 0 0
701090160 0.9256388066913904 0.09989013424035421 0.021069679028913355 -0.10468553649261744 0 0 0 0
701684808 0.9245286580952822 0.09566738697748459 0.020842749269160608 -0.10359301351118652 0 0 0 0
702279456 0.9236228398950295 0.09871811180012457 0.02117564630379012 -0.10364748056300753 0 0 0 0
702874104 0.9256326849972603 0.09632247597817457 0.02179468273643188 -0.10401572271463329 0 0 0 0
703468752 0.9251808666521775 0.09498207616957018 0.021280035314771652 -0.10336445391813594 0 0 0 0
704063400 0.9239670674927588 0.09681258828647923 0.020886080699497843 -0.10254947991543008 0 0 0 0
704658048 0.9242054098693909 0.09512741720879635 0.021351226200883783 -0.10305590240731288 0 0 0 0
705252696 0.9271306811258161 0.09471857953709635 0.020697236542520033 -0.10321910882122863 0 0 0 0
705847344 0.9274767708823822 0.09270700518927577 0.021527841706168192 -0.10226576302849517 0 0 0 0
706441992 0.9250299477078533 0.0954602719851645 0.02004605804607427 -0.10187715684067997 0 0 0 0
707036640 0.9277586870697132 0.09472225592531897 0.019736150821146815 -0.10320692556922861 0 0 0 0
707631288 0.9282956836065447 0.09485227889212708 0.01970714259900496 -0.10290681238214687 0 0 0 0
708225936 0.9252324192521514 0.0942489802820178 0.02060555932116099 -0.10093243812184123 0 0 0 0
708820584 0.9256307745660076 0.09035112751467093 0.020322089723372943 -0.1012001833620608 0 0 0 0
709415232 0.9283335301617439 0.09258812450337181 0.019948474704428107 -0.10125812414687677 0 0 0 0
710009880 0.9266414438226368 0.0930661555037434 0.020429029594237372 -0.10058206140671042 0 0 0 0
710604528 0.9263693646261982 0.09319218433052438 0.01907003156375106 -0.10146457330978802 0 0 0 0
711199176 0.926048048751853 0.09172628210844558 0.020520251305295948 -0.10045197045576729 0 0 0 0
711793824 0.9275366515057824 0.09035928500236291 0.020046263904387823 -0.10046653026255625 0 0 0 0
712388472 0.9268835463709577 0.09379878056801268 0.019455852519966774 -0.09982617448731733 0 0 0 0
712983120 0.9283424089347904 0.08981389609500535 0.01944518806600482 -0.09980710914017926 0 0 0 0
713577768 0.9266530459275841 0.09124787346979729 0.01988933930685932 -0.09992332395923545 0 0 0 0
714172416 0.928099434181373 0.08809400090487488 0.018640440766777924 -0.09922815955566483 0 0 0 0
714767064 0.9273622355902265 0.09158113991692556 0.01897940542458463 -0.09830547834923872 0 0 0 0
715361712 0.9268825774496453 0.09069497548399416 0.020063874371595774 -0.09841174534859914 0 0 0 0
715956360 0.9289492984905038 0.0869208355116828 0.019599690044012713 -0.09848853517043758 0 0 0 0
716551008 0.9275631713697747 0.08727534378736136 0.01953997272190225 -0.09816675502812833 0 0 0 0
717145656 0.9285896013089371 0.08746407585804533 0.018047968384031027 -0.09773525410709895 0 0 0 0
717740304 0.9285267408452935 0.09084621525399807 0.018421330477983226 -0.09830983195197004 0 0 0 0
718334952 0.9299257820629546 0.09046764669182801 0.019286269246636033 -0.09724654449480664 0 0 0 0
718929600 0.9283703981677652 0.09169273417597258 0.01860971593802159 -0.09713236132938438 0 0 0 0
719524248 0.9314297682618019 0.09088927386819336 0.018040916334026057 -0.09636895440854534 0 0 0 0
720118896 0.9317551320102508 0.08967473324446841 0.01788612595881018 -0.09687993602149622 0 0 0 0
720713544 0.9309199375637548 0.09038297355680033 0.017837863681397927 -0.09642882263080138 0 0 0 0
