# HZ S RI R 50
600000000 -0.04164217471001189 -0.06080882549410193 0.9937465199594101 0.046888156819353946 0 0 0 0
600594648 -0.04154586095498725 -0.05976651773648312 0.9944671785689098 0.045309526339472855 0 0 0 0
601189296 -0.04145842847346262 -0.05975462507980829 0.9940225893611286 0.045758452654488246 0 0 0 0
601783944 -0.041470359804743756 -0.05999539255156416 0.9937953616090617 0.04532673337911297 0 0 0 0
602378592 -0.041249123422546184 -0.05978740125575994 0.9937230327317128 0.047281148172760745 0 0 0 0
602973240 -0.041575473822972046 -0.05932384674366202 0.9943461700583924 0.04661885083967212 0 0 0 0
603567888 -0.04090707915265548 -0.05925381045353392 0.9945360392523293 0.04584296315094084 0 0 0 0
604162536 -0.0414995662612313 -0.05934416811469001 0.994268566374225 0.04506014680328626 0 0 0 0
604757184 -0.04130524608017545 -0.0591069464034461 0.9944812089657443 0.048280171220004844 0 0 0 0
605351832 -0.04160873762690612 -0.058343428655863186 0.9943252838042791 0.04634310650081268 0 0 0 0
605946480 -0.04166425406046741 -0.05833491748267668 0.9938468489690626 0.04545335670985862 0 0 0 0
606541128 -0.04144153917696425 -0.05766800887830758 0.9936827064995118 0.04665464809818298 0 0 0 0
607135776 -0.04149786324559496 -0.05774838783705866 0.9937865705715723 0.04732005993916075 0 0 0 0
607730424 -0.04168574907360897 -0.05673668809563069 0.9935029379489507 0.04438568372454535 0 0 0 0
608325072 -0.041925133313025074 -0.05659442248341273 0.9941593332434735 0.04675881632358508 0 0 0 0
608919720 -0.04203737303605401 -0.05635111382655058 0.9937952465793981 0.04516000558382018 0 0 0 0
609514368 -0.042307656948649526 -0.0559124812625114 0.9938395598240435 0.04586953577995637 0 0 0 0
610109016 -0.04234929607347621 -0.056090857724314644 0.9946925533950021 0.04549922664510616 0 0 0 0
610703664 -0.042079653406358115 -0.055427997771509724 0.9941355264834929 0.047071271110681365 0 0 0 0
611298312 -0.0421968496593941 -0.05505880544301145 0.9944415714815736 0.04617501641621692 0 0 0 0
611892960 -0.04205314709808553 -0.054635027480143164 0.9939249199658432 0.04558434181350365 0 0 0 0
612487608 -0.04281831452863225 -0.054208824892420994 0.993638098822062 0.044130858340881284 0 0 0 0
613082256 -0.042295089642651065 -0.053842488816631465 0.9944578659019472 0.045511277850376924 0 0 0 0
613676904 -0.042792097282550866 -0.053709576762475 0.99426702876316 0.045858021536641536 0 0 0 0
614271552 -0.04329914112417376 -0.05359256654605752 0.9946073925335209 0.04636753199735957 0 0 0 0
614866200 -0.042109183006841404 -0.05312655857378981 0.9941595894472743 0.05124003804921739 0 0 0 0
615460848 -0.042466039167120884 -0.052458167357166685 0.9951049066173057 0.0497676115051458 0 0 0 0
616055496 -0.04267607094843971 -0.05156361343269141 0.9954006037483235 0.05077171349790586 0 0 0 0
616650144 -0.04219315694732502 -0.05176653962592868 0.994215525411451 0.0512274140255918 0 0 0 0
617244792 -0.04218410317652465 -0.051163057521648306 0.9943720383512478 0.05097317365665922 0 0 0 0
617839440 -0.04241788422194335 -0.05106801137824225 0.9947622363678122 0.05270034162009253 0 0 0 0
618434088 -0.04251205172696457 -0.05081131784607229 0.9944697128448311 0.049961310676157646 0 0 0 0
619028736 -0.042484613834684284 -0.05020802828149631 0.9941423409759017 0.05159703798824497 0 0 0 0
619623384 -0.0428040131813453 -0.04981868675415101 0.9944580838678235 0.050133399740378 0 0 0 0
620218032 -0.042616881532349445 -0.049858920315901244 0.9955439498365805 0.04991262211598084 0 0 0 0
620812680 -0.042834411794677486 -0.04946203610107349 0.994262678698201 0.05143206522304364 0 0 0 0
621407328 -0.0427341555772244 -0.04865070804984146 0.9948384635121702 0.05117314912094541 0 0 0 0
622001976 -0.04284041217294656 -0.04892298824614505 0.9930424261236865 0.05144826564462733 0 0 0 0
622596624 -0.04283775003795907 -0.04802730255374023 0.9943336610239523 0.05123165591890929 0 0 0 0
623191272 -0.042980203576484605 -0.04818497322522906 0.9952512541688154 0.05071422168332855 0 0 0 0
623785920 -0.043254791576894935 -0.04773793626109512 0.9944579083322443 0.04873136353469217 0 0 0 0
624380568 -0.04336847693351281 -0.04729433033926929 0.994929779159065 0.05026451430973758 0 0 0 0
624975216 -0.04318766889839602 -0.04719425091241693 0.9940196013757088 0.04850780477099523 0 0 0 0
625569864 -0.04355692616569602 -0.04657533802269795 0.9953811509981775 0.04886526262393206 0 0 0 0
626164512 -0.04326432902833799 -0.04642365229467634 0.9940463488685863 0.05072222121813082 0 0 0 0
626759160 -0.043280596171992425 -0.04574248863992386 0.9947377044912752 0.04955503655224989 0 0 0 0
627353808 -0.04358510050564357 -0.04520944025418773 0.9942975173684756 0.049196020635715015 0 0 0 0
627948456 -0.04358627950705797 -0.04507455262564748 0.9948030921679859 0.04956097476173055 0 0 0 0
628543104 -0.04350310134810605 -0.04465419475116527 0.9939171819306637 0.0490533173161221 0 0 0 0
629137752 -0.04346093885210983 -0.04438813790365616 0.9944455641810025 0.04949175070852177 0 0 0 0
629732400 -0.04375875365693674 -0.04384062178502502 0.9948070870213628 0.04934735295443495 0 0 0 0
630327048 -0.043908678410399506 -0.04361777427736527 0.9952780214749443 0.04852781146025487 0 0 0 0
630921696 -0.04404776407561599 -0.043458900826150365 0.9954557557354841 0.04795309577935954 0 0 0 0
631516344 -0.04406079332626423 -0.04298100972345667 0.9950677381570966 0.04893463449570006 0 0 0 0
632110992 -0.044141733834531766 -0.04264764467199598 0.9949216532446612 0.04975724765223861 0 0 0 0
632705640 -0.044010870671106386 -0.042722879862598435 0.9943506673550226 0.048524015779435554 0 0 0 0
633300288 -0.04422774016443338 -0.04227828467845237 0.9954906378128326 0.047950124836958825 0 0 0 0
633894936 -0.04439730332240437 -0.041835579246548106 0.9955218339688938 0.048226066718438335 0 0 0 0
634489584 -0.044423743676797946 -0.041738001405894086 0.9944275406732624 0.04876025990773557 0 0 0 0
635084232 -0.04439333760416148 -0.04087828102444428 0.9939421309126412 0.04922973437822367 0 0 0 0
635678880 -0.04430396420434603 -0.04117304794983894 0.995514563592348 0.046929735858212335 0 0 0 0
636273528 -0.04419666780445768 -0.040563952064827755 0.9943053725118294 0.04916839467527792 0 0 0 0
636868176 -0.044234400224601476 -0.040403940880442996 0.9942191078967171 0.05007954953502805 0 0 0 0
637462824 -0.04449338046470105 -0.03997360919038866 0.9944543149976822 0.04975111854622303 0 0 0 0
638057472 -0.044273983995308054 -0.039780429410949135 0.9945138608001293 0.04820278181905157 0 0 0 0
638652120 -0.044375084222138816 -0.039387361689295894 0.9942017456769545 0.04965016104210421 0 0 0 0
639246768 -0.04430642129262232 -0.038925793980325196 0.9950528661708447 0.04671364999412609 0 0 0 0
639841416 -0.044217837615404106 -0.038657291042579825 0.994987034970927 0.048470290450322064 0 0 0 0
640436064 -0.044057168629338714 -0.03861502270814732 0.9936935656473466 0.049423952467416814 0 0 0 0
641030712 -0.044236977091702684 -0.03836523554955733 0.9942495629082524 0.047433476180946815 0 0 0 0
641625360 -0.044255273780146515 -0.037823675855350014 0.9944155152785945 0.048438338414439626 0 0 0 0
642220008 -0.044144061088426986 -0.037620894526363295 0.9937490940976289 0.04892098661159819 0 0 0 0
642814656 -0.04410155469330303 -0.03722827583186683 0.9953510666106499 0.04874209582110118 0 0 0 0
643409304 -0.04424338692925368 -0.03743384820254582 0.9942763415179532 0.0499146345498654 0 0 0 0
644003952 -0.04424820348673775 -0.036920705935012635 0.9942193128913913 0.04955918412054121 0 0 0 0
644598600 -0.04403486898541609 -0.036286389158335514 0.9945299640507645 0.0483989495102742 0 0 0 0
645193248 -0.044166836058054486 -0.03612547738606444 0.995152084138315 0.04774433629457447 0 0 0 0
645787896 -0.04367025251978584 -0.035930013820094454 0.9943673844501498 0.04944233593173057 0 0 0 0
646382544 -0.04407716955096659 -0.035765206966803624 0.9943159291922997 0.04793632872269108 0 0 0 0
646977192 -0.044016992295554676 -0.03519616790957403 0.9945075779835437 0.04740221169551702 0 0 0 0
647571840 -0.04414639290077387 -0.03519350054546385 0.9943275601806703 0.04826369758403279 0 0 0 0
648166488 -0.044373931880625175 -0.03475105912128666 0.994280336348969 0.04613259502766477 0 0 0 0
648761136 -0.04472081672321433 -0.034566942543750784 0.9941315522072133 0.045327992197308334 0 0 0 0
649355784 -0.04452592806103482 -0.034360532810159224 0.994124034014801 0.044548763573721485 0 0 0 0
649950432 -0.04445953624967007 -0.034165097134935665 0.9941430173970787 0.04372985791856073 0 0 0 0
650545080 -0.044531687976847166 -0.03385473962354066 0.9947877288332564 0.04303388916957888 0 0 0 0
651139728 -0.044596992767275946 -0.03370197874923709 0.9944608610097735 0.04297707846850378 0 0 0 0
651734376 -0.04423861446230234 -0.03304915138097342 0.9944073030465787 0.042952579843299046 0 0 0 0
652329024 -0.044433976660852824 -0.03314942346798566 0.9946125942269003 0.04211934513781864 0 0 0 0
652923672 -0.04450836937678045 -0.03264792546719148 0.9940483977902047 0.04336743002992651 0 0 0 0
653518320 -0.0443608271094595 -0.03295967592128469 0.994446023951257 0.0427068384934896 0 0 0 0
654112968 -0.044289480902112856 -0.03226002431214864 0.9940938427718381 0.043091346992763596 0 0 0 0
654707616 -0.04418575549517111 -0.032190469880671584 0.9937748798958913 0.04129138342758392 0 0 0 0
655302264 -0.04407998818748848 -0.03187271150567612 0.993595132677366 0.041229695961089184 0 0 0 0
655896912 -0.044326355810277454 -0.031824609733267964 0.9945285004897734 0.04189942024429261 0 0 0 0
656491560 -0.04358417839893474 -0.03153991445283976 0.994696386981793 0.04315494101133982 0 0 0 0
657086208 -0.04405749682421581 -0.0317635795992392 0.9947158330343167 0.04260094735020734 0 0 0 0
657680856 -0.04345892625114832 -0.030974248504043247 0.994060206069835 0.04239255007787136 0 0 0 0
658275504 -0.043787129698385406 -0.031008780977387764 0.9949595506237534 0.04109177355317362 0 0 0 0
658870152 -0.04373339838834701 -0.030915405596979355 0.994072980134356 0.04315471484600425 0 0 0 0
659464800 -0.04351263548986097 -0.030277943159211645 0.9942209215948831 0.044056535254164385 0 0 0 0
660059448 -0.04252681566086751 -0.033002207588704695 0.9945736224469337 0.03936480929082407 0 0 0 0
660654096 -0.042393253585486075 -0.03177683839906766 0.9949558484577172 0.040173952961083594 0 0 0 0
661248744 -0.04236149215076959 -0.03163478900636534 0.9950424847539063 0.03979640460382946 0 0 0 0
661843392 -0.04229766561439303 -0.03131282847085139 0.9955243929771279 0.039996421240661474 0 0 0 0
662438040 -0.042448469760352076 -0.030922011779166748 0.9936560844611413 0.04038267857260056 0 0 0 0
663032688 -0.04294676303841606 -0.03080213545525077 0.9941798179332245 0.04026696231042577 0 0 0 0
663627336 -0.043212559315193334 -0.030723031480569155 0.994632930353295 0.039913235233314685 0 0 0 0
664221984 -0.04342576419421356 -0.030344821228638706 0.9944931571023298 0.041135573574098507 0 0 0 0
664816632 -0.04302907461901233 -0.029945574386818705 0.9948166829084076 0.04038831820298021 0 0 0 0
665411280 -0.04291776734283417 -0.029693530925504176 0.994777510788649 0.040517927292968735 0 0 0 0
666005928 -0.04276110460096085 -0.029974734019161807 0.9930800698255169 0.0398344428289504 0 0 0 0
666600576 -0.04245892175368252 -0.029020274932308535 0.994115211557271 0.039256957337310085 0 0 0 0
667195224 -0.042345160922652815 -0.028477952470226692 0.9949383231128871 0.040804903508249446 0 0 0 0
667789872 -0.04215978522177464 -0.028253938317573724 0.9943528072610053 0.03866048556261534 0 0 0 0
668384520 -0.04203425063531492 -0.02810922692663147 0.9941585570883598 0.04040191447555802 0 0 0 0
668979168 -0.04197952947820984 -0.02811245887613373 0.994831079706933 0.040328381123630117 0 0 0 0
669573816 -0.042065123370794565 -0.027906227818689497 0.9941813827864117 0.03778216109215756 0 0 0 0
670168464 -0.041976063421622425 -0.027675856286500655 0.9939715502800479 0.038990156264145565 0 0 0 0
670763112 -0.041896958450595205 -0.02754328511783954 0.9945079785028269 0.03990816323746132 0 0 0 0
671357760 -0.041904493184365316 -0.027924796188276303 0.9948165591036401 0.03771612192224907 0 0 0 0
671952408 -0.041764071052662215 -0.027476282483353747 0.9946027666695981 0.03822597860275228 0 0 0 0
672547056 -0.04115733649528066 -0.027278114212366207 0.9943203519797101 0.04023225679306073 0 0 0 0
673141704 -0.041634030343383095 -0.027065755111332766 0.9940252458132725 0.03893370555330013 0 0 0 0
673736352 -0.041454349051860045 -0.027305075536119758 0.99426912116325 0.040082132765466315 0 0 0 0
674331000 -0.04119473629884147 -0.026901308266820925 0.9947520348753018 0.03950775155425268 0 0 0 0
674925648 -0.04111235141770996 -0.026475998030060163 0.9941440177935914 0.03922541875307445 0 0 0 0
675520296 -0.04113721316900885 -0.02672679186755005 0.9936351216276483 0.03873381517819252 0 0 0 0
676114944 -0.0410270841745553 -0.026411816802482446 0.9937837304208966 0.03911214498973066 0 0 0 0
676709592 -0.04066602146824436 -0.026323651618279646 0.9941615462523098 0.03920999959477859 0 0 0 0
677304240 -0.04086267391927317 -0.02614292766760487 0.9945979031334801 0.04093007419218263 0 0 0 0
677898888 -0.0404063457025666 -0.026297795299156226 0.9945585039202656 0.03843865872875437 0 0 0 0
678493536 -0.040879717171610694 -0.026274622537060376 0.9941627002021164 0.03770223345318718 0 0 0 0
679088184 -0.04022861629606516 -0.026068501759410764 0.9947392665286294 0.038408721329817354 0 0 0 0
679682832 -0.04031245089138442 -0.026052230886148414 0.9942177010875065 0.038421784320237955 0 0 0 0
680277480 -0.04006231346672262 -0.02584381764733 0.9954691745177932 0.0386935831436045 0 0 0 0
680872128 -0.04020950065166087 -0.025885114447405756 0.9949721349111865 0.03899012055376828 0 0 0 0
681466776 -0.0401206293430386 -0.026014739357814644 0.9935594165521321 0.03803378828372908 0 0 0 0
682061424 -0.039994173927962784 -0.025738045483959374 0.9939142938927067 0.03985593724342539 0 0 0 0
682656072 -0.03948559291973771 -0.025602723063533738 0.9941371026426472 0.039125884729173575 0 0 0 0
683250720 -0.039806255162140446 -0.025474193535186578 0.9951051635562029 0.03864574144744657 0 0 0 0
683845368 -0.039593670156263694 -0.025471424192238898 0.9938769281806147 0.03783838198304043 0 0 0 0
684440016 -0.03966148667076167 -0.025692955316295958 0.9946269217470343 0.040099631049435765 0 0 0 0
685034664 -0.03943242794565203 -0.02562049127219549 0.9957753633193012 0.03779332473771932 0 0 0 0
685629312 -0.03932789687471603 -0.02572883486961558 0.9945698095101642 0.03994707655222455 0 0 0 0
686223960 -0.03907728669211202 -0.025572479452820072 0.9939438574201411 0.038908406697265516 0 0 0 0
686818608 -0.03875484922970283 -0.025486081736277217 0.994821203441441 0.0389812119274562 0 0 0 0
687413256 -0.03868007227373237 -0.02540698395425424 0.9948139956114078 0.037474901418954765 0 0 0 0
688007904 -0.038870609317125895 -0.02548521233660654 0.9940901524259053 0.03839478975314941 0 0 0 0
688602552 -0.03889783205371459 -0.025492140229049727 0.9942970198480042 0.03871147014264884 0 0 0 0
689197200 -0.03864141077173568 -0.025288360164693487 0.9945922895129027 0.03787398602156979 0 0 0 0
689791848 -0.03821639310307041 -0.025567207414225936 0.995136250359202 0.03848582412803252 0 0 0 0
690386496 -0.03834633232794901 -0.02513342839053784 0.9942082437278434 0.03810858488391557 0 0 0 0
690981144 -0.03827366125265848 -0.025536700368308376 0.9940963098411957 0.03936380843595195 0 0 0 0
691575792 -0.03773279080505855 -0.025294175752441927 0.9939145407725181 0.038971761949828536 0 0 0 0
692170440 -0.03801307593779336 -0.025159168229487383 0.9945117690719539 0.039101909226960246 0 0 0 0
692765088 -0.03740007140618564 -0.025354903440502806 0.9944520781545658 0.03781917396437495 0 0 0 0
693359736 -0.037707970176090705 -0.025272404087118686 0.9940896129927566 0.03790749473245594 0 0 0 0
693954384 -0.037335017493911694 -0.025214698358205365 0.9943472703606957 0.03803032218239197 0 0 0 0
694549032 -0.03737153321703674 -0.025245483721334398 0.9943156995559295 0.039282494484888936 0 0 0 0
695143680 -0.037192438503947385 -0.025443563399048935 0.9944506535934374 0.037516480722400984 0 0 0 0
695738328 -0.037019911626095546 -0.025509311044934223 0.9936722761392788 0.04051105973892077 0 0 0 0
696332976 -0.037043283461689946 -0.02537463871730451 0.9946858347140145 0.03763845317064479 0 0 0 0
696927624 -0.03706323745576667 -0.025604348059279487 0.9937602756716593 0.03777343874178624 0 0 0 0
697522272 -0.036925068998944544 -0.025644394269020994 0.9943433170788686 0.03818403610819161 0 0 0 0
698116920 -0.03685620084621994 -0.025430821972766353 0.9943926321316849 0.038430891378936356 0 0 0 0
698711568 -0.036621018250337666 -0.025449464259951288 0.994432122745269 0.03919591120384928 0 0 0 0
699306216 -0.03667617764094484 -0.025727128074360808 0.9948624595719994 0.03746165137597844 0 0 0 0
699900864 -0.036421201150731004 -0.02586386384351405 0.9946898427526758 0.039282754128374855 0 0 0 0
700495512 -0.036660599656556984 -0.025872569595279366 0.9943705088540513 0.038934611518802974 0 0 0 0
701090160 -0.03648076928762705 -0.02596584443729133 0.9944352926612138 0.03886936334579638 0 0 0 0
701684808 -0.03644848161772556 -0.026096779982456113 0.9947548901523343 0.03709083592985263 0 0 0 0
702279456 -0.03653104889930531 -0.025923320887666242 0.9950190940212343 0.03696020449638916 0 0 0 0
702874104 -0.03630558231452725 -0.02615747892586662 0.9947428404537707 0.038501138944961474 0 0 0 0
703468752 -0.03582022745525858 -0.02621620322355766 0.9937749816449533 0.03853993119449087 0 0 0 0
704063400 -0.03619515815500852 -0.026561774034580196 0.9934924460453509 0.03818216046076469 0 0 0 0
704658048 -0.03591383729666053 -0.026590053926068734 0.9941407183649068 0.039405109798755736 0 0 0 0
705252696 -0.03622926598310567 -0.026433221563002603 0.9955419136558483 0.03859596147979743 0 0 0 0
705847344 -0.03590700058586871 -0.026567592369504893 0.9943073576749619 0.03688576875886553 0 0 0 0
706441992 -0.03625285776096276 -0.026871342680036197 0.9929740613021525 0.038135099689437374 0 0 0 0
707036640 -0.03580002693071352 -0.026831208040360634 0.9947268350645649 0.03830844743252238 0 0 0 0
707631288 -0.03572067362350565 -0.027017239004818016 0.9935644464583664 0.03773229529755287 0 0 0 0
708225936 -0.035425217044677874 -0.027227868690961284 0.9942779363802688 0.03750203664630859 0 0 0 0
708820584 -0.035328820754402905 -0.027674746256677627 0.9933871890344353 0.03615030341126702 0 0 0 0
709415232 -0.035670542203095915 -0.02744160538916034 0.9937937438681682 0.03797304400472856 0 0 0 0
710009880 -0.035192740632588794 -0.027714524217696362 0.9941304312679843 0.03605181178158748 0 0 0 0
710604528 -0.03549875019411485 -0.0279555923857959 0.9952007295280922 0.03823132323060808 0 0 0 0
711199176 -0.03546843981962842 -0.02795179428636051 0.994221696939258 0.03678673306518431 0 0 0 0
711793824 -0.03534054210874276 -0.028159931547570675 0.9937638771990095 0.03631024942508377 0 0 0 0
712388472 -0.03517097171698846 -0.02839842785528444 0.993383769585263 0.03846012121463858 0 0 0 0
712983120 -0.03538760036998256 -0.028370643847581232 0.9935728204502488 0.03671194076442857 0 0 0 0
713577768 -0.03503643606100258 -0.028890031092124648 0.9935271387875287 0.036942146764914044 0 0 0 0
714172416 -0.03517044625876507 -0.028861556611351175 0.9937297582119267 0.037210381598227545 0 0 0 0
714767064 -0.03508789587718572 -0.028942374175739236 0.9929819962169693 0.03809267609456128 0 0 0 0
715361712 -0.035402883308662314 -0.029337821683148912 0.99391814572521 0.03737562727751646 0 0 0 0
715956360 -0.035359475015795304 -0.029463719450786147 0.9928562344401018 0.0368750839191408 0 0 0 0
716551008 -0.035225077579729876 -0.029824872830570597 0.9945018084185389 0.03686427701217494 0 0 0 0
717145656 -0.034820113267795806 -0.030034074671579283 0.9934747515182123 0.03599485783061512 0 0 0 0
