# HZ S RI R 50
600000000 -0.026842501834596917 -0.031569325744303066 0.9957878917568297 0.04817692280992696 0 0 0 0
600594648 -0.02731599673723491 -0.02800830962719067 0.9971423324800202 0.05247887543827755 0 0 0 0
601189296 -0.02664139619389697 -0.029099296145852552 0.9953839774117952 0.049026991291114715 0 0 0 0
601783944 -0.02810748816462714 -0.03059045536344578 0.9967508293846628 0.04684077674406659 0 0 0 0
602378592 -0.023725696417999355 -0.027386269016731035 0.9945270862458475 0.047746619000629806 0 0 0 0
602973240 -0.024418464837795348 -0.028209508401536222 0.9946090690830266 0.050238198203516896 0 0 0 0
603567888 -0.02670922182673523 -0.030506780672921764 0.9946921107602784 0.050093176675138185 0 0 0 0
604162536 -0.027499386074520207 -0.02944594983409017 0.9941054658669293 0.04985403556299525 0 0 0 0
604757184 -0.025664505519019012 -0.03013064750340115 0.9946282008119517 0.04889039364804889 0 0 0 0
605351832 -0.029202050336636597 -0.02976934275023014 0.9942394302616977 0.0483692821539527 0 0 0 0
605946480 -0.02688003723648964 -0.030012795765941326 0.9952242806047849 0.050719518884780296 0 0 0 0
606541128 -0.029182332821815288 -0.031069705484330617 0.9951823963619187 0.048146144144684405 0 0 0 0
607135776 -0.030948080372628996 -0.03282379523896712 0.9950582852596205 0.049191022625110534 0 0 0 0
607730424 -0.029734575880739057 -0.031117524462922378 0.9959604583398984 0.048055844089132736 0 0 0 0
608325072 -0.031396005360181466 -0.03417920970897297 0.9950213953043205 0.0494450695774169 0 0 0 0
608919720 -0.03253319576758542 -0.03443826094099824 0.995793830027351 0.04980285724000841 0 0 0 0
609514368 -0.026785773655335462 -0.03174904352200173 0.9942924618515645 0.04983430103607367 0 0 0 0
610109016 -0.030917976952871434 -0.028970345859442716 0.9953375864497895 0.050123241355725406 0 0 0 0
610703664 -0.033165963433140516 -0.03132242774012026 0.9948945436970345 0.04938421499489703 0 0 0 0
611298312 -0.035339560324448856 -0.03406175046646838 0.9950920949890592 0.049599838791248 0 0 0 0
611892960 -0.03362464506596305 -0.03170643818416543 0.9943782943126207 0.0484298096635814 0 0 0 0
612487608 -0.035318022268304536 -0.03315077552253112 0.9944702576863647 0.050340403558521804 0 0 0 0
613082256 -0.036163579362954446 -0.02915059162474759 0.9950380869117983 0.04887355732994404 0 0 0 0
613676904 -0.03297027739783856 -0.03515083983907443 0.9952560452950641 0.04947964175299019 0 0 0 0
614271552 -0.03609120913241747 -0.034266539774216995 0.9946734237288918 0.047571172856623545 0 0 0 0
614866200 -0.036532456565425434 -0.03331605678223473 0.9951919756515425 0.04861201435473081 0 0 0 0
615460848 -0.03902813074362555 -0.031516371225276556 0.9943641912326805 0.0496786844675994 0 0 0 0
616055496 -0.036508281816500454 -0.03446825693358925 0.9958024061622419 0.04856046748303918 0 0 0 0
616650144 -0.038714547860396416 -0.03429945765167824 0.9939538377343927 0.047213937778152054 0 0 0 0
617244792 -0.0358286728045618 -0.03232124890449094 0.9960482696375186 0.04861105295917954 0 0 0 0
617839440 -0.036921141334084695 -0.032820435084527644 0.9947983472285775 0.0472277838632642 0 0 0 0
618434088 -0.03734588296768574 -0.032288876091788515 0.9946202016345844 0.048962693445167106 0 0 0 0
619028736 -0.040237919969407544 -0.031667339796664654 0.9946474481853951 0.04851401973382017 0 0 0 0
619623384 -0.03865126075659144 -0.03648175955932078 0.994822814295046 0.049525325293057955 0 0 0 0
620218032 -0.03839649213613435 -0.034784120037607176 0.9946430122373042 0.04844197220952564 0 0 0 0
620812680 -0.03860390263040076 -0.036522087246706074 0.9948085135438515 0.04790333358392944 0 0 0 0
621407328 -0.0391953423701125 -0.03715523105773012 0.9948342630961027 0.04765225844424313 0 0 0 0
622001976 -0.038349338871090086 -0.03498307293297902 0.9942323188785422 0.04783430012009671 0 0 0 0
622596624 -0.040831192364016326 -0.034011166536035246 0.9937755062940127 0.04796837610774549 0 0 0 0
623191272 -0.03845480088394007 -0.03485827715837515 0.993084744480126 0.047354826504087504 0 0 0 0
623785920 -0.03983530364877521 -0.03633605542168925 0.9930208682683876 0.04939122832615827 0 0 0 0
624380568 -0.044902882167071535 -0.03534212000482707 0.9942464332918975 0.04685970262753535 0 0 0 0
624975216 -0.04085625697597485 -0.0364640339195997 0.9934850091023318 0.04883039759282061 0 0 0 0
625569864 -0.04069928839096891 -0.03516217380940183 0.9938335760618339 0.048557219081593876 0 0 0 0
626164512 -0.04191797193697943 -0.036184539989430664 0.9939374918829711 0.048583647959663454 0 0 0 0
626759160 -0.04573829808865074 -0.03787514342950229 0.9936256655091602 0.04929173026564322 0 0 0 0
627353808 -0.041559276516682266 -0.037111658478081226 0.9935433482353532 0.04795846038649903 0 0 0 0
627948456 -0.041171356085849195 -0.03908169968355702 0.9932607898465792 0.04779468954913596 0 0 0 0
628543104 -0.043431370865850714 -0.03750835925006646 0.9942584117071913 0.04916393669330471 0 0 0 0
629137752 -0.041560222071094624 -0.03603653040013325 0.9932966785536528 0.04862336189137049 0 0 0 0
629732400 -0.04545219645663856 -0.03649707401257071 0.9924114932385605 0.04744617708007966 0 0 0 0
630327048 -0.046701827423936255 -0.040718444099135845 0.9937303949882095 0.04763101607911224 0 0 0 0
630921696 -0.04476636363034813 -0.03754891098179685 0.9931277222743327 0.04707886332313088 0 0 0 0
631516344 -0.04126392183569826 -0.04158940057028203 0.9931858166220192 0.04986980661695673 0 0 0 0
632110992 -0.044885011930353505 -0.04089440650947174 0.9927369720341386 0.0458453154386369 0 0 0 0
632705640 -0.04769422647249406 -0.04078279731706717 0.993024868167633 0.04783667190354684 0 0 0 0
633300288 -0.04367337076769922 -0.04027176126743568 0.9928557373209814 0.04691193564568591 0 0 0 0
633894936 -0.045082461210868875 -0.0397449872404125 0.9927217204241955 0.04793290892328252 0 0 0 0
634489584 -0.04656575718253447 -0.04025311805278709 0.9925301616354005 0.047267228085551005 0 0 0 0
635084232 -0.05137691050889427 -0.04271457829048324 0.9921565515158292 0.04677333225611972 0 0 0 0
635678880 -0.04836597030034493 -0.04555620728446356 0.9935650592277558 0.04667252345539697 0 0 0 0
636273528 -0.05205136868615239 -0.041864833197312816 0.9937031983863247 0.0467242955976227 0 0 0 0
636868176 -0.04781392279976256 -0.04398240796484196 0.9927925610737721 0.04863642140034945 0 0 0 0
637462824 -0.0495247927696575 -0.04433183361641009 0.9929603422771665 0.047512679400075565 0 0 0 0
638057472 -0.04866549811816372 -0.0455154537787975 0.992182716223108 0.04578009582030987 0 0 0 0
638652120 -0.048098043001198 -0.04430642775158638 0.9913356211045596 0.04905429687987241 0 0 0 0
639246768 -0.05050488894997609 -0.0421552195630828 0.9928357750138 0.0474867419240976 0 0 0 0
639841416 -0.05135549995912939 -0.045656666709331814 0.9931653520025974 0.04849464678824087 0 0 0 0
640436064 -0.051529857259332186 -0.04328272038428481 0.9919839232113935 0.04645072902626476 0 0 0 0
641030712 -0.05200341622545179 -0.043550900691413236 0.992694234707796 0.047352561036948 0 0 0 0
641625360 -0.050727562857504876 -0.043547792553068655 0.9923732840158014 0.0468918182589516 0 0 0 0
642220008 -0.051782114148308044 -0.04512510119082709 0.9932459393693331 0.04515352064551413 0 0 0 0
642814656 -0.0509094163807201 -0.04498805903621534 0.9915067892472793 0.0479695952673449 0 0 0 0
643409304 -0.051523367975454426 -0.05008188552302203 0.9916684485764851 0.047745869334504816 0 0 0 0
644003952 -0.05521619874662782 -0.045740384495014025 0.9922713694643629 0.047085187771338105 0 0 0 0
644598600 -0.05286673697219932 -0.046446607125800426 0.9924471682325344 0.0469452370219446 0 0 0 0
645193248 -0.05240200801847916 -0.047080448406074664 0.9921864991408005 0.04704405686551288 0 0 0 0
645787896 -0.05449343804914286 -0.04730393589144431 0.9923403728456093 0.04779692374530333 0 0 0 0
646382544 -0.05185728026333534 -0.049497016550413185 0.9922247147675333 0.043786207823850884 0 0 0 0
646977192 -0.054312088083301915 -0.04772915282434277 0.9922163014466145 0.047161191870678465 0 0 0 0
647571840 -0.05262780718945005 -0.049201857814237485 0.9915562866681878 0.047015550743759744 0 0 0 0
648166488 -0.05672681499395296 -0.051159271721011285 0.9908594199878968 0.04546144256302877 0 0 0 0
648761136 -0.05306971284755092 -0.04873701458113953 0.9918855156115384 0.045174861360155215 0 0 0 0
649355784 -0.057369458654011524 -0.05037263997884873 0.9930071194223637 0.04609605898122435 0 0 0 0
649950432 -0.055194644657577584 -0.05058294068204321 0.9916235709789163 0.04790513105242592 0 0 0 0
650545080 -0.05575787672901804 -0.05014189791261352 0.9913970083790334 0.044237082521869295 0 0 0 0
651139728 -0.056219680125971214 -0.052709286931749824 0.9915107431595749 0.04628849099140545 0 0 0 0
651734376 -0.059032191129203944 -0.05214057702832185 0.9916810397617891 0.043937788741030014 0 0 0 0
652329024 -0.056494880582659356 -0.053255514141723304 0.9907425058665056 0.04454585575044841 0 0 0 0
652923672 -0.05674333424088968 -0.05457330068490663 0.9917013197063353 0.04664644735332076 0 0 0 0
653518320 -0.05965985271402657 -0.05324778510870123 0.9910823986668916 0.044187595176489715 0 0 0 0
654112968 -0.05538931043034444 -0.05309568652310491 0.9916933302809715 0.04490086335162577 0 0 0 0
654707616 -0.057973112540516965 -0.05452096261664961 0.9926168064412075 0.04302881681272467 0 0 0 0
655302264 -0.057627816329107254 -0.053683875044996304 0.9907601754480351 0.045359650219183444 0 0 0 0
655896912 -0.05846233097492117 -0.0535778454275595 0.9930960475236983 0.04460198575683588 0 0 0 0
656491560 -0.05882475338111215 -0.053913236150435286 0.991660457344195 0.04476208298552924 0 0 0 0
657086208 -0.0595003322641152 -0.055670897439605 0.9922334875358377 0.04316562195071663 0 0 0 0
657680856 -0.05891628334887742 -0.05939865828995345 0.9916272225693377 0.04551594265874058 0 0 0 0
658275504 -0.05887903719636742 -0.05628270970173652 0.9906776727503873 0.045608372071301057 0 0 0 0
658870152 -0.06208549730197089 -0.05530195323110255 0.9916480399986884 0.04447289698622843 0 0 0 0
659464800 -0.06123390288080182 -0.05904033327755127 0.9917036449776947 0.04331339977664755 0 0 0 0
660059448 -0.057377299937184725 -0.0593954480444425 0.9956852156527419 0.05088518227224555 0 0 0 0
660654096 -0.057120276708866186 -0.058179576547449444 0.9943002153103591 0.0499687680792645 0 0 0 0
661248744 -0.060579200030194756 -0.058969633530246035 0.9949694394596563 0.04888565757148835 0 0 0 0
661843392 -0.056683174085267 -0.05909801828758878 0.9952961079438188 0.05086605177808296 0 0 0 0
662438040 -0.06047901869061762 -0.05457171640036844 0.9962660736982399 0.049256132343582365 0 0 0 0
663032688 -0.057643122119916325 -0.05994675835454462 0.9948815208207259 0.049210501309250206 0 0 0 0
663627336 -0.055565311942841346 -0.05981231619964558 0.9949567493742534 0.048532861183510245 0 0 0 0
664221984 -0.05824937488294303 -0.06040829106025627 0.9933312021846812 0.047620373378007626 0 0 0 0
664816632 -0.05999710075275725 -0.06184393109253415 0.9925613589540291 0.048866082201428344 0 0 0 0
665411280 -0.056750852970909545 -0.056790983397805916 0.9937095240741645 0.049506028118521575 0 0 0 0
666005928 -0.058407537621952874 -0.06183855409316164 0.9941960120464223 0.047889171633867904 0 0 0 0
666600576 -0.06168120884199929 -0.062451650118127734 0.9938815541382368 0.04567101032584432 0 0 0 0
667195224 -0.05599234281848875 -0.06296653938539867 0.9928245971461956 0.0481200916916661 0 0 0 0
667789872 -0.059513363682440396 -0.06502470718387003 0.993152290445816 0.04837622317360437 0 0 0 0
668384520 -0.057161314754233965 -0.05662790516792535 0.9932396180429443 0.048364432821631914 0 0 0 0
668979168 -0.06025339024016949 -0.06244779990370604 0.9938805484663699 0.045512069627302844 0 0 0 0
669573816 -0.058903983255646726 -0.061822890868050664 0.9943067152869671 0.04769951060999973 0 0 0 0
670168464 -0.061963680439111 -0.0627159827791072 0.9925967965036209 0.04766312161464457 0 0 0 0
670763112 -0.05886671637337858 -0.06399066167387475 0.9940949041361848 0.04679693001250658 0 0 0 0
671357760 -0.060715912002681 -0.06540626056957344 0.9931237633252179 0.04888227994519005 0 0 0 0
671952408 -0.06081010909204525 -0.06518648058196966 0.9934240070277339 0.04610883709985492 0 0 0 0
672547056 -0.06141055630132126 -0.06455013943502365 0.9941186017964022 0.0478845627926304 0 0 0 0
673141704 -0.06044936663818624 -0.06512827319548752 0.9943986054496375 0.04681667143465747 0 0 0 0
673736352 -0.06005548922940044 -0.06301265594078606 0.9921894158478809 0.04809182858925537 0 0 0 0
674331000 -0.05872598861989922 -0.06904616934575093 0.9934505721578066 0.04821262489768622 0 0 0 0
674925648 -0.05917500962989033 -0.06756247810422632 0.9944717995881511 0.048851062829417986 0 0 0 0
675520296 -0.060100237156527105 -0.06775958103101934 0.9959517340725152 0.04597926778388406 0 0 0 0
676114944 -0.060407152100364354 -0.06680264354282778 0.9946901415012342 0.05038397935910051 0 0 0 0
676709592 -0.059219539340833634 -0.06852150830142464 0.9946009916829893 0.04948846363523508 0 0 0 0
677304240 -0.05642474995988495 -0.07165716699616397 0.9941527856762655 0.048994459564980566 0 0 0 0
677898888 -0.05959740358359928 -0.07032317597482565 0.9936222038121364 0.04740134180442238 0 0 0 0
678493536 -0.05853001527867463 -0.07128481029241512 0.9948260015926172 0.051586168574171344 0 0 0 0
679088184 -0.061676470860745174 -0.07245334865534338 0.9948257055904742 0.04982415180147623 0 0 0 0
679682832 -0.06215891955533062 -0.07350846640713787 0.9932480712463068 0.050038317817430226 0 0 0 0
680277480 -0.061306122637476194 -0.06873938372060527 0.9946030394854068 0.047451952495227115 0 0 0 0
680872128 -0.06202451573648994 -0.07449435412921261 0.9949388591799642 0.0510668714208103 0 0 0 0
681466776 -0.06165108753416186 -0.07211258186093275 0.9943926921306386 0.04814189349282125 0 0 0 0
682061424 -0.06014920460396988 -0.07566018516022822 0.9957442379736193 0.047580421872655855 0 0 0 0
682656072 -0.060728511053738124 -0.071708070492412 0.9941794528814084 0.04774341031025728 0 0 0 0
683250720 -0.05716292972185553 -0.07301510831670706 0.9949182150734345 0.048979352665675525 0 0 0 0
683845368 -0.06027891900345518 -0.07387423336377516 0.9945292620754704 0.04926669218535429 0 0 0 0
684440016 -0.0578080371825874 -0.07487276447869153 0.9940106040817153 0.04943786965823874 0 0 0 0
685034664 -0.0622106284320586 -0.07757917398510608 0.9945383151171786 0.04856319139279019 0 0 0 0
685629312 -0.05750316939381401 -0.07341835888461325 0.9957028095954025 0.04822618295075959 0 0 0 0
686223960 -0.05969671360606145 -0.07378393577674049 0.9938364080162544 0.04931445024079576 0 0 0 0
686818608 -0.05976217185513688 -0.07139624501350457 0.992803934966712 0.04686539976327784 0 0 0 0
687413256 -0.059518153463031395 -0.07599751544823904 0.9921963988044487 0.049391347746040634 0 0 0 0
688007904 -0.058933128803805065 -0.07637084848705454 0.9945487120847087 0.04924872865762149 0 0 0 0
688602552 -0.06195256796881454 -0.0803047852036875 0.9940763358707521 0.04791372413265725 0 0 0 0
689197200 -0.06105946102565829 -0.07829460398951141 0.9941989785853699 0.04785557659907006 0 0 0 0
689791848 -0.06056907686565231 -0.0764953704942508 0.9955279563166619 0.04850210392234973 0 0 0 0
690386496 -0.058595448739918045 -0.07850940486576555 0.9953760034133914 0.04928833683958429 0 0 0 0
690981144 -0.06113147010346289 -0.07788893671262583 0.9958050968676708 0.049215292242309666 0 0 0 0
691575792 -0.05999762751683104 -0.07882058042629153 0.9954186805018608 0.048872258050971465 0 0 0 0
692170440 -0.06250018990917505 -0.0796037847121896 0.9949373909161958 0.049265646385633854 0 0 0 0
692765088 -0.06312454523546993 -0.07685782486223977 0.994161628175271 0.046752383060179314 0 0 0 0
693359736 -0.06499224978967795 -0.08126253176889059 0.9955048942372537 0.0487161730716441 0 0 0 0
693954384 -0.06065201364726534 -0.07870755407227852 0.9940163642561014 0.04923732545679284 0 0 0 0
694549032 -0.06092236268398912 -0.08064048167784653 0.994425705373118 0.04751168884835369 0 0 0 0
695143680 -0.06477464381684542 -0.0835486426582906 0.994916295853536 0.04640715928428321 0 0 0 0
695738328 -0.06159645739027252 -0.0812654347247031 0.9958495232948046 0.04650226108444862 0 0 0 0
696332976 -0.0636510805794867 -0.081662367158331 0.9957906059537265 0.04554186379852791 0 0 0 0
696927624 -0.05980975154027674 -0.08172190281891317 0.993400614889916 0.049596846119893755 0 0 0 0
697522272 -0.0634449920076768 -0.0823741793598226 0.9945157349357877 0.04846125666372524 0 0 0 0
698116920 -0.061334542003797794 -0.0845949748157504 0.9949087896716869 0.04792224348966513 0 0 0 0
698711568 -0.05698431596056479 -0.08343406825656682 0.9939819250181761 0.04657828486495084 0 0 0 0
699306216 -0.06170375646651143 -0.09049455783893406 0.9954913237166407 0.04738147198979851 0 0 0 0
699900864 -0.06027182414022875 -0.08603842725652511 0.9935833292867868 0.0478726367445047 0 0 0 0
700495512 -0.06100626768861564 -0.08481383634473906 0.9952148939954029 0.046133767630370706 0 0 0 0
701090160 -0.061164809292393325 -0.08574207692671262 0.9944744275273926 0.04735963625914759 0 0 0 0
701684808 -0.062386277972453684 -0.08517700619758807 0.993865497909521 0.04415067655679697 0 0 0 0
702279456 -0.06051242963123682 -0.08722946305758486 0.9935030614420731 0.04700963309884798 0 0 0 0
702874104 -0.06211432842566596 -0.08846105460681697 0.9941918815705558 0.048696572301803936 0 0 0 0
703468752 -0.06079331664925108 -0.08295154177627419 0.9916632296310717 0.046136688143899984 0 0 0 0
704063400 -0.060368315658762564 -0.08919396209189077 0.9938445962945597 0.04519630751397579 0 0 0 0
704658048 -0.05868865718482991 -0.08709379719403322 0.9942550684247743 0.04643446482347887 0 0 0 0
705252696 -0.057974845299507055 -0.08564858701523198 0.9945390284103416 0.04644764152916376 0 0 0 0
705847344 -0.05894750412196962 -0.08914478611724487 0.9944911829045556 0.045904902839848834 0 0 0 0
706441992 -0.060937972920526016 -0.08894312800933213 0.9946099311561639 0.04742166846186813 0 0 0 0
707036640 -0.05696843700426634 -0.0878082632558583 0.9945418755850446 0.04744412995939864 0 0 0 0
707631288 -0.0601521839881264 -0.08788649806437278 0.9941699042845715 0.04724615986647325 0 0 0 0
708225936 -0.06128894979207111 -0.09091192379543266 0.9946857603483562 0.0481709063276535 0 0 0 0
708820584 -0.05673010112737214 -0.09041252676982191 0.9952815163473231 0.04759743427116823 0 0 0 0
709415232 -0.06111555392576313 -0.08967032516230128 0.9941564269736701 0.046297379735818434 0 0 0 0
710009880 -0.0590593061437577 -0.09114573845050965 0.993850479338106 0.0455856158954676 0 0 0 0
710604528 -0.057093690535386446 -0.09212414695719877 0.9946111984915089 0.04798427335862013 0 0 0 0
711199176 -0.05924258067144571 -0.09428588526991843 0.9941058684925637 0.04822553261980913 0 0 0 0
711793824 -0.05880304979313879 -0.09028637308528215 0.9937367958757461 0.046247957294671696 0 0 0 0
712388472 -0.05745144833644352 -0.09100827247871826 0.9941374549620596 0.04560192628966015 0 0 0 0
712983120 -0.0570896892499373 -0.09333522956157772 0.9952151369058847 0.04773668402261391 0 0 0 0
713577768 -0.056061888150665234 -0.09334842150596788 0.9951651049739767 0.04716587228202926 0 0 0 0
714172416 -0.060554504909166855 -0.09456983583959422 0.9943058449444987 0.04576054181664232 0 0 0 0
714767064 -0.056850925002504334 -0.09730806658477113 0.9938734124413643 0.04530647432116253 0 0 0 0
715361712 -0.061741298715377015 -0.09514872421551597 0.9938006535354317 0.04596517219709483 0 0 0 0
715956360 -0.06079001293108391 -0.09504377639493981 0.9939535096341069 0.04491527837100188 0 0 0 0
716551008 -0.058536426282352165 -0.09530279398747928 0.9942671072053545 0.04798922148897975 0 0 0 0
717145656 -0.05797641302164729 -0.09690875828728474 0.9943595966754643 0.044936346806824776 0 0 0 0
717740304 -0.058754122520442126 -0.09690203312387002 0.9934334422907325 0.045160534612598856 0 0 0 0
718334952 -0.05804430690372132 -0.09662581876032125 0.993715112050752 0.046406752356715944 0 0 0 0
