# HZ S RI R 50
600000000 0.3089425782235673 0.2345130768258531 0.4780088276642601 0.7656479643651792 0 0 0 0
600594648 0.3090265588644084 0.23388431510818114 0.48016309890624276 0.7647971000383235 0 0 0 0
601189296 0.30873314876281593 0.2331668256511343 0.4811609759328631 0.7648954012014437 0 0 0 0
601783944 0.3079338404803516 0.23151495822203608 0.48051965181815987 0.7649881531220466 0 0 0 0
602378592 0.3081111666310217 0.23086766805260675 0.48255025124923223 0.7654990670733989 0 0 0 0
602973240 0.30730192386797234 0.22974085086224943 0.4839369570253039 0.7658357427839011 0 0 0 0
603567888 0.3071354097528167 0.2290446210170559 0.4857785912507693 0.7645500957200163 0 0 0 0
604162536 0.3070952991299032 0.22745222640708776 0.4870773122446556 0.7637052532998185 0 0 0 0
604757184 0.30659406661477745 0.227292528021955 0.4856155370639464 0.76421043273226 0 0 0 0
605351832 0.3063767159687596 0.22568582058466613 0.48914897688191594 0.7631663263646008 0 0 0 0
605946480 0.30656470282753967 0.22420171152751053 0.4904645546969884 0.7630617313517354 0 0 0 0
606541128 0.3058696886580988 0.22374581224932602 0.49042152659830657 0.764014033712541 0 0 0 0
607135776 0.30562578077151437 0.22275718756931365 0.49197076008517676 0.7631704587565017 0 0 0 0
607730424 0.30535567824211246 0.2222813687971997 0.4923017501003343 0.7617402395713808 0 0 0 0
608325072 0.3048582637800538 0.22159901901336204 0.4934269022128376 0.7637796583078402 0 0 0 0
608919720 0.30466544124580935 0.21998189548217795 0.49482929905744183 0.7621813410814163 0 0 0 0
609514368 0.3047826592521807 0.21935880413510395 0.49584820761707854 0.7623044541388442 0 0 0 0
610109016 0.3040881708905906 0.21791351219150823 0.49913869250383697 0.7612362815267796 0 0 0 0
610703664 0.3041928531480061 0.21774638791942705 0.49810392549550025 0.7620382614779289 0 0 0 0
611298312 0.30370891546588347 0.2164539812847356 0.5002084402247245 0.7612645368624538 0 0 0 0
611892960 0.30372387224500574 0.21586056992984515 0.5018188609835246 0.7605803452253335 0 0 0 0
612487608 0.3025305038173763 0.2148084188707395 0.5017797747920282 0.7606641584007733 0 0 0 0
613082256 0.3020964243932448 0.21384785287811464 0.5031711897398583 0.7599676733072649 0 0 0 0
613676904 0.3023109979223997 0.21277688674096354 0.5043065437866849 0.7602762368720306 0 0 0 0
614271552 0.3013600532286355 0.21107820413682174 0.5055046320825578 0.7596091978412636 0 0 0 0
614866200 0.3019000801262929 0.21034364020712726 0.5065805327864954 0.7595364456123602 0 0 0 0
615460848 0.3008554044290787 0.21031843641644424 0.5081138759104025 0.759549806136453 0 0 0 0
616055496 0.29986645807399853 0.20931537454740812 0.5087054443169602 0.7593696679128524 0 0 0 0
616650144 0.30022987880672364 0.20809276749265543 0.5097693768128875 0.7589351690769676 0 0 0 0
617244792 0.2998608323525005 0.20760131307215032 0.5112082822839333 0.7586149108526201 0 0 0 0
617839440 0.29919568853798817 0.2068779049294116 0.5118022712176014 0.7586201489095682 0 0 0 0
618434088 0.29872115143310346 0.20613481253789384 0.513096818291549 0.7573654754995403 0 0 0 0
619028736 0.29850716478973754 0.20513503852871667 0.5131071693373641 0.7578426429256 0 0 0 0
619623384 0.29829272656177874 0.20423820528178538 0.5156753403712103 0.7569271021386477 0 0 0 0
620218032 0.29847343394983933 0.20308837487252157 0.5176179900627351 0.756510634266919 0 0 0 0
620812680 0.2976436657343862 0.20239104905027389 0.5172199395897049 0.756666357419663 0 0 0 0
621407328 0.2973189443514092 0.20186657671195427 0.5194326093778793 0.7574000708078785 0 0 0 0
622001976 0.2969384350732306 0.20092123737617212 0.5189672199112061 0.7554541182394725 0 0 0 0
622596624 0.2971261878095134 0.20007119834128584 0.5202463046526861 0.7558601516067153 0 0 0 0
623191272 0.29627325777593755 0.19903987960116004 0.522685513714605 0.75647174229247 0 0 0 0
623785920 0.2960067253126639 0.19802729728094076 0.5238003232384439 0.7543725376685829 0 0 0 0
624380568 0.29533769856619535 0.19781403895171043 0.5245956937780458 0.7551032740026151 0 0 0 0
624975216 0.2949082865923727 0.19675985373250318 0.5240007206571934 0.7544483316848752 0 0 0 0
625569864 0.2952622588667622 0.1953455524254044 0.5262558289034998 0.7548207317088488 0 0 0 0
626164512 0.29503402233219733 0.19516817891045934 0.5269320631258391 0.7535388433055468 0 0 0 0
626759160 0.29396603339927135 0.19483511434750506 0.5286070258798478 0.7532424904589674 0 0 0 0
627353808 0.29394016970386283 0.19289891634387574 0.5299448062356428 0.753566716543689 0 0 0 0
627948456 0.29329685735248806 0.1927099525320529 0.5316081525253421 0.7529888197654863 0 0 0 0
628543104 0.29321465306777167 0.1922260742180624 0.5320179417417248 0.7525638709757364 0 0 0 0
629137752 0.29295039030522835 0.190945213439985 0.5324373168677751 0.7520878378499533 0 0 0 0
629732400 0.2924989558136176 0.19026316909926663 0.5345890092755257 0.7521553860854773 0 0 0 0
630327048 0.29184844477062843 0.19042518237771905 0.5348184112605393 0.7513165515336567 0 0 0 0
630921696 0.2915889374651518 0.18882778214764945 0.5372582885853139 0.7500240764589252 0 0 0 0
631516344 0.2912484908888251 0.18834599701804614 0.5377174386356284 0.7507440646941633 0 0 0 0
632110992 0.29067865858553255 0.1876512665646137 0.5389505360092676 0.7508014215349306 0 0 0 0
632705640 0.29064563741940275 0.1865254746423039 0.5389909094940031 0.7485220940510532 0 0 0 0
633300288 0.29027669226783953 0.1859839969048544 0.5422746372796792 0.7492460309334007 0 0 0 0
633894936 0.28974745932915064 0.18449733625973977 0.5428183383711845 0.7481938715157246 0 0 0 0
634489584 0.28891187619654946 0.18400619314616373 0.5430217995753787 0.7481342116437512 0 0 0 0
635084232 0.28872255154229526 0.18367309200182397 0.5440093459167148 0.7471342180799747 0 0 0 0
635678880 0.2889027091902999 0.182564187193741 0.5470965287126542 0.7463509395241793 0 0 0 0
636273528 0.28804493794137553 0.1829166288726527 0.545803321412958 0.7467262259289401 0 0 0 0
636868176 0.2875485888105389 0.18195166015194444 0.5454855954477587 0.7459452803196922 0 0 0 0
637462824 0.28756723369120357 0.1809716933101964 0.5472356034053745 0.7464389115076998 0 0 0 0
638057472 0.2868882996301858 0.18052062411217085 0.5480514243246041 0.745788261876392 0 0 0 0
638652120 0.2868541092486832 0.1792322861091773 0.5508343290667483 0.7451403795151557 0 0 0 0
639246768 0.28691732547371146 0.17870316937559688 0.5527859042469635 0.7450356966863139 0 0 0 0
639841416 0.2856511529188615 0.17904004421030584 0.5530238627963717 0.7436660910364022 0 0 0 0
640436064 0.2846801874479409 0.1786648988770275 0.550523458476708 0.7445317195398894 0 0 0 0
641030712 0.2846702150941819 0.17661426526516 0.5555644809338165 0.7419239575698137 0 0 0 0
641625360 0.284848444572251 0.17610722939650014 0.556404614020544 0.7425814952128275 0 0 0 0
642220008 0.2839530698880976 0.17563608677924175 0.5555663917012441 0.7420536685230568 0 0 0 0
642814656 0.28338614357838043 0.17572401268441074 0.5563529303957965 0.7428019244025512 0 0 0 0
643409304 0.28308027683170106 0.17357138843980965 0.55840148043796 0.7408164832062395 0 0 0 0
644003952 0.28287286904317765 0.17368866561090612 0.5594637025232796 0.7409739999019112 0 0 0 0
644598600 0.2825146559215811 0.1727053549306317 0.561104715636017 0.7395133328662484 0 0 0 0
645193248 0.2821352731841799 0.17234500356580526 0.5624149235393696 0.739964139461492 0 0 0 0
645787896 0.28195635948040426 0.17137641996854985 0.5619286933842222 0.7398317247359061 0 0 0 0
646382544 0.28123700827984593 0.1715174836491397 0.5639857943501477 0.7391422100494435 0 0 0 0
646977192 0.28101721947167685 0.1703581024093291 0.5648115317300865 0.738875517721635 0 0 0 0
647571840 0.2801991194286891 0.16960797219640616 0.5656797110271042 0.7388932055624343 0 0 0 0
648166488 0.27990621401489885 0.1692113089280798 0.567013747174105 0.7381967042938941 0 0 0 0
648761136 0.27960131227778806 0.16845415176335315 0.5687896271309197 0.7368465031357253 0 0 0 0
649355784 0.27934347575865154 0.16827163120924357 0.568995175748307 0.7365180698626322 0 0 0 0
649950432 0.2789252166345446 0.16671630245411295 0.5695462550840438 0.7362249696051304 0 0 0 0
650545080 0.2781192668103515 0.16695297983451604 0.5705885780042751 0.7363250503431186 0 0 0 0
651139728 0.27807431814285277 0.16598706207403738 0.5723382414078785 0.7348671017352527 0 0 0 0
651734376 0.2774459076892661 0.16623443068433671 0.5723317090754396 0.7356993121751946 0 0 0 0
652329024 0.2770701809973032 0.16560393845115592 0.5735175083694043 0.7346581024483554 0 0 0 0
652923672 0.2768643494078625 0.16436396933258746 0.5742531040964988 0.7342373232276134 0 0 0 0
653518320 0.2764519599999355 0.16429563555595159 0.5751266756117744 0.7337207778813616 0 0 0 0
654112968 0.275435520895054 0.16323877934416983 0.5759995033521944 0.7340845274946137 0 0 0 0
654707616 0.27532701920319763 0.16235724376639504 0.5789327935147122 0.7312233880399875 0 0 0 0
655302264 0.27502953433537525 0.16229800124845734 0.5783342519209758 0.7315619948191535 0 0 0 0
655896912 0.274860506135148 0.16144948547167454 0.5800403297926255 0.731189899171443 0 0 0 0
656491560 0.27454680863893677 0.1620823268027728 0.5800255618333213 0.7321840601238542 0 0 0 0
657086208 0.27351255674819097 0.1606642190043884 0.5814778206666983 0.7302089941598969 0 0 0 0
657680856 0.2731172211446729 0.1604150010376014 0.5819591311947658 0.7292587299667168 0 0 0 0
658275504 0.2726959893103196 0.15931909201542696 0.5861431200040097 0.7290867425464199 0 0 0 0
658870152 0.2725033392923861 0.15913632505568195 0.5842913075807642 0.729021383640349 0 0 0 0
659464800 0.27230597275561175 0.15868322315954783 0.5868926929302519 0.7278883312039611 0 0 0 0
660059448 0.27018424196912383 0.15414198239085966 0.5870374599830004 0.7260105450635012 0 0 0 0
660654096 0.2706520809767124 0.15589723539012668 0.5893345032114353 0.7251666542371027 0 0 0 0
661248744 0.2701054915801575 0.15464070416873094 0.5913731021488479 0.7236417047157948 0 0 0 0
661843392 0.2696296947850595 0.15488474768010957 0.5912821577106282 0.7245953350215649 0 0 0 0
662438040 0.26960907604704043 0.15374049203689633 0.5911000149858506 0.7235710444074197 0 0 0 0
663032688 0.26903772271827825 0.1537221813312154 0.5930107862685637 0.7224315536036268 0 0 0 0
663627336 0.269161762093899 0.1536527951002891 0.594122009269316 0.7219714820087788 0 0 0 0
664221984 0.26871691387694285 0.1524093828096656 0.595772816061845 0.7213572344514823 0 0 0 0
664816632 0.26880535450629417 0.15275971411771755 0.5942822306750999 0.7218730745293357 0 0 0 0
665411280 0.26836742037886024 0.152583079754914 0.5959525245710008 0.7211275104769128 0 0 0 0
666005928 0.2680945517088704 0.1515317042793256 0.5974013528947931 0.7192876283703427 0 0 0 0
666600576 0.2682673960948514 0.1513063861983607 0.5983867099819591 0.719696555902062 0 0 0 0
667195224 0.26805355607558234 0.15108889206107515 0.5989695147938413 0.7192883648967611 0 0 0 0
667789872 0.2676949551854998 0.15029738997083114 0.6004407499866171 0.7174095337431532 0 0 0 0
668384520 0.26717083550113435 0.1502793003840145 0.6013214257639397 0.7181571382942055 0 0 0 0
668979168 0.26660768475561625 0.1499437509178954 0.6021527373952699 0.7187934261314171 0 0 0 0
669573816 0.2666662651910035 0.14977544835034226 0.6037309436346097 0.717021153326496 0 0 0 0
670168464 0.2660909107392879 0.1489003133897208 0.6043023827519339 0.716271271895431 0 0 0 0
670763112 0.2657345410157084 0.14905625802230835 0.6039076908351219 0.7163380453360182 0 0 0 0
671357760 0.2651226335829466 0.14819844879605595 0.6060952693802272 0.715316216589804 0 0 0 0
671952408 0.2650615788213272 0.14771609858812973 0.6067749514583327 0.7152499330181591 0 0 0 0
672547056 0.26438820803988167 0.14723164391685092 0.6068713531331457 0.7143115812036216 0 0 0 0
673141704 0.26387591346025796 0.14731129284305303 0.6079241337508076 0.7139861669682682 0 0 0 0
673736352 0.2634104508212599 0.1465532153461896 0.6080084394481481 0.7128477525064757 0 0 0 0
674331000 0.26359984766630523 0.1466971892574127 0.609069513768647 0.7143617104591397 0 0 0 0
674925648 0.262792787098515 0.14589710680333223 0.611404888843473 0.7119194021527735 0 0 0 0
675520296 0.26215992524184145 0.14490996458811561 0.6110181906348665 0.711231411490695 0 0 0 0
676114944 0.26245364865409865 0.14487013179231023 0.6119736359777078 0.7116590039037712 0 0 0 0
676709592 0.2621401685125693 0.14409435819120248 0.6116160036009297 0.7117169005428159 0 0 0 0
677304240 0.26191597043873927 0.14464336379644877 0.6130719199298403 0.7116893673129839 0 0 0 0
677898888 0.26099938052539684 0.1435517836536883 0.6141964872432217 0.7110530413619157 0 0 0 0
678493536 0.2615035763257533 0.14334214724930958 0.6166310638738817 0.7093409356376383 0 0 0 0
679088184 0.2608884577095349 0.14227349055184002 0.6168407564158769 0.7080764050212336 0 0 0 0
679682832 0.2610773928769245 0.14305285711323526 0.6160272829676232 0.7090639785355973 0 0 0 0
680277480 0.2605239529998311 0.1421669522697941 0.6185013667825625 0.7079882388988236 0 0 0 0
680872128 0.25983026772700124 0.1421408039319198 0.6185620626743845 0.7083359765680088 0 0 0 0
681466776 0.2593648924225162 0.14099717854566432 0.6192007702140068 0.706254841740347 0 0 0 0
682061424 0.2593135284127463 0.14070638633633153 0.61895991739921 0.7058833629205218 0 0 0 0
682656072 0.2587054911164087 0.14057344404509095 0.6218433936340898 0.7053469232081899 0 0 0 0
683250720 0.2582849804205567 0.14006366900752965 0.6214244499509193 0.705259735978268 0 0 0 0
683845368 0.2585140647893752 0.13918507799691016 0.6222806343373914 0.703874564824739 0 0 0 0
684440016 0.2584671943838249 0.13962072384948954 0.6227770765599834 0.7054185238560089 0 0 0 0
685034664 0.2584840252350758 0.1390012732557628 0.6255088084491603 0.70375603432952 0 0 0 0
685629312 0.2575063518519165 0.13884060564912368 0.6246104942175851 0.7038540889957811 0 0 0 0
686223960 0.2574967054637018 0.1390446051861399 0.6255131501037183 0.7034254064041685 0 0 0 0
686818608 0.25720209976702374 0.1373174884488142 0.62638056643064 0.7025463886737902 0 0 0 0
687413256 0.25695132563803635 0.13736997502262527 0.6273771631741704 0.7013174753730325 0 0 0 0
688007904 0.25632116617307965 0.1380464969129376 0.6280208457160786 0.7010160542891406 0 0 0 0
688602552 0.2558364542121152 0.13679452711658005 0.628967646481076 0.7007478097724201 0 0 0 0
689197200 0.2556275265737661 0.13614474138137397 0.6293016113644075 0.7006525697002359 0 0 0 0
689791848 0.2557359378570916 0.13655546250752046 0.629415148701226 0.699596668615667 0 0 0 0
690386496 0.25498153715693256 0.13615820438839396 0.6297814958675465 0.6991005403293842 0 0 0 0
690981144 0.2548199518534548 0.13516766184000994 0.6311620012462628 0.6991395493926145 0 0 0 0
691575792 0.25495441720966544 0.13562316901391414 0.6316277230863729 0.6979733632071173 0 0 0 0
692170440 0.25492962410764247 0.13485347792461194 0.6341396310664177 0.6975528864546124 0 0 0 0
692765088 0.25468676272472474 0.13431104473471592 0.6338809276289665 0.6968808124323985 0 0 0 0
693359736 0.2537994978587874 0.13369761827026236 0.6350599984444718 0.6959595266448052 0 0 0 0
693954384 0.25346403959991726 0.13388165763374807 0.6353680784217375 0.6954452556993854 0 0 0 0
694549032 0.25379933155392764 0.13313319140718916 0.6356666299748563 0.6966309010860033 0 0 0 0
695143680 0.25346340174542337 0.13230084091713465 0.6373559280280419 0.6940345698639169 0 0 0 0
695738328 0.25324417889802736 0.13239525377507227 0.636782767728008 0.6942827225251589 0 0 0 0
696332976 0.2528455696350822 0.13187749920719044 0.6382092752906097 0.6937577541394931 0 0 0 0
696927624 0.2523755134381571 0.1314911006697274 0.6387141031110164 0.6928095134707823 0 0 0 0
697522272 0.2516794823820762 0.1314352234558922 0.6396175500042 0.6936664056336725 0 0 0 0
698116920 0.25207306014545516 0.13135913568282778 0.6396383857072754 0.6926566430424134 0 0 0 0
698711568 0.25124950910388294 0.1304886445298846 0.6417742942586625 0.6912935764367926 0 0 0 0
699306216 0.25159080525869376 0.1302154733993548 0.642547410970034 0.6910048222268921 0 0 0 0
699900864 0.2511699816111392 0.12964698059675198 0.6429521132425061 0.6915750373977191 0 0 0 0
700495512 0.2521832299130955 0.12909970982061955 0.6431855499490962 0.6909162630383785 0 0 0 0
701090160 0.25105260190015233 0.129278172283547 0.6449758573714365 0.6888619680772856 0 0 0 0
701684808 0.2511366070112603 0.1284303114843245 0.6451097380635482 0.6889786690898139 0 0 0 0
702279456 0.25032221830958845 0.12856915796204688 0.6452464999603533 0.6886485254273288 0 0 0 0
702874104 0.2504445260219152 0.1277737344037265 0.6457583542987831 0.6885166998631496 0 0 0 0
703468752 0.24966228665531165 0.12810306106448702 0.6462039478701638 0.6878302353898818 0 0 0 0
704063400 0.25000264507540815 0.12695019639343394 0.6460896781483034 0.6870308384959203 0 0 0 0
704658048 0.24991296493413367 0.12655722083278745 0.6464017619211039 0.6872634251161385 0 0 0 0
705252696 0.2492410275062245 0.1263398506216521 0.6490035927779896 0.6861266220342552 0 0 0 0
705847344 0.24893554999067888 0.1259752474567297 0.6497636824908812 0.6852826246844742 0 0 0 0
706441992 0.2490579291314819 0.1250961247178769 0.649981626396965 0.6838142143645504 0 0 0 0
707036640 0.2491669751900626 0.12534723435257286 0.6499506673864531 0.6844357619344327 0 0 0 0
707631288 0.2490278537178207 0.12468137230763815 0.6528819594219918 0.6830330551424286 0 0 0 0
708225936 0.24850187141223948 0.12441453076195834 0.6530566838782076 0.6835007162517743 0 0 0 0
708820584 0.24811729639018304 0.12374849006903516 0.6525669184012993 0.6814904912405945 0 0 0 0
709415232 0.24800447349634133 0.12369671162619118 0.6523929091203284 0.68296607761561 0 0 0 0
710009880 0.2482663713126196 0.12321307445672623 0.6541649210618115 0.6816136586686806 0 0 0 0
710604528 0.24793704070815384 0.12307064695721925 0.6556389803006037 0.6819428045853229 0 0 0 0
711199176 0.24737789993978226 0.12188888815816833 0.65538930026999 0.6798183019116882 0 0 0 0
711793824 0.24812181529670788 0.12180310123306715 0.6561173325966617 0.6804062632774552 0 0 0 0
712388472 0.24727622320965734 0.1216762983796051 0.6561193181010836 0.6800811930018223 0 0 0 0
712983120 0.24749634789867844 0.12111100635000008 0.6576532190343232 0.6778679755518648 0 0 0 0
713577768 0.2469005833938605 0.12086138582881717 0.6584335003643027 0.6785033368364728 0 0 0 0
714172416 0.24687706108554452 0.11974263251731299 0.6583688667503168 0.6780543205266002 0 0 0 0
714767064 0.24669792842684235 0.11979208783050575 0.6583217055405871 0.6769945607901473 0 0 0 0
715361712 0.2461879481971307 0.11974306574471366 0.6607807172830301 0.6772706381251518 0 0 0 0
715956360 0.24633305990194523 0.11950284235951276 0.6599034302582686 0.6771720873236663 0 0 0 0
716551008 0.24584608256435916 0.1188202402780705 0.6611625516875251 0.6765633296599498 0 0 0 0
717145656 0.24654410304069282 0.11816334599355759 0.6620378085035327 0.6755778700200167 0 0 0 0
717740304 0.24617523431332594 0.11721246343955578 0.6621842954333571 0.674340077436699 0 0 0 0
718334952 0.24655259595648527 0.11713831708768849 0.6632299697086341 0.6745760549664456 0 0 0 0
718929600 0.24548388510084168 0.11667870612888967 0.6642028990032356 0.6745326226272728 0 0 0 0
719524248 0.2460831470165597 0.11558049793867778 0.6656237420104677 0.6716255318510093 0 0 0 0
720118896 0.24605151014439375 0.11560983825841856 0.6661775342002648 0.6706339116335406 0 0 0 0
720713544 0.2455247708729288 0.11531228882953445 0.6653997510032789 0.6710727360094759 0 0 0 0
721308192 0.24643139042597034 0.11425774292844251 0.6661037490731258 0.6707626391407031 0 0 0 0
721902840 0.24595489175242208 0.11347862005917408 0.6663939631644066 0.6699816366410416 0 0 0 0
722497488 0.2456355769506036 0.11390540433157602 0.6668965678741577 0.6696059180056347 0 0 0 0
723092136 0.24534309086450173 0.11339687938194264 0.668436684306504 0.6687320327615647 0 0 0 0
