# HZ S RI R 50
600000000 -0.04093259646711781 -0.033603872723255004 1.0008402526886706 0.0060979572820979025 0 0 0 0
600594648 -0.04066618699958535 -0.03311123350562096 1.0004638470978326 0.004951339032867014 0 0 0 0
601189296 -0.04113503090656755 -0.032409213581571526 0.9999155315097763 0.004979397373960022 0 0 0 0
601783944 -0.041030438309760976 -0.03279563055897628 0.9998004199769198 0.005610075453840221 0 0 0 0
602378592 -0.04099238327088958 -0.03238537686386306 1.0006356989441643 0.006151528503040448 0 0 0 0
602973240 -0.04147131948208566 -0.03228162870557759 1.0007976272734707 0.005538615341371561 0 0 0 0
603567888 -0.04118946483961934 -0.032098931426309096 1.000389743510654 0.005643065460265481 0 0 0 0
604162536 -0.04147303686324303 -0.031824262920203024 1.0005062632898711 0.005090570003881654 0 0 0 0
604757184 -0.041259349087209775 -0.0315829703260773 1.0004935494640876 0.007673590005191631 0 0 0 0
605351832 -0.04115392650998147 -0.031135786767865638 1.0005256724153948 0.005289412456901101 0 0 0 0
605946480 -0.04139140472215683 -0.030804745450445713 1.000002485634342 0.005242153119279356 0 0 0 0
606541128 -0.04122390665697065 -0.030603431898223694 1.0003676537468 0.0067485288758667925 0 0 0 0
607135776 -0.04096035383998001 -0.030779740841701174 1.0003048286597962 0.006876739918893117 0 0 0 0
607730424 -0.04117888685139991 -0.03002021998165402 1.000297391090823 0.004863770509560341 0 0 0 0
608325072 -0.04120720114439496 -0.029847437983052116 1.0006040655486566 0.006529080545429058 0 0 0 0
608919720 -0.04120730039336504 -0.029967561870643485 1.0002161783902401 0.006137726438503419 0 0 0 0
609514368 -0.04097386678486682 -0.029274966509939257 0.9997587059509128 0.005912198389203777 0 0 0 0
610109016 -0.041170413431203014 -0.02941613632400856 1.0004131010885204 0.0059357201254396355 0 0 0 0
610703664 -0.04137543853872366 -0.029020279371142828 1.0008175346805723 0.006609872992548943 0 0 0 0
611298312 -0.04112751254221037 -0.028732976260486296 1.0007172356228775 0.005548599368495355 0 0 0 0
611892960 -0.041064221908234846 -0.02827744826750459 1.0007037196476256 0.004835524370202392 0 0 0 0
612487608 -0.04148092414525652 -0.02806983863274411 1.0004910665027626 0.005382698711135943 0 0 0 0
613082256 -0.04118312856879742 -0.02814260471870404 1.0008595815553285 0.004636640862201426 0 0 0 0
613676904 -0.041416973860099765 -0.027531754323905887 0.9999009324006394 0.005510826169172229 0 0 0 0
614271552 -0.04191216908648363 -0.027509002024101812 1.000798420233882 0.00585657299812492 0 0 0 0
614866200 -0.041689852753910545 -0.02735717049540333 1.0001111000967808 0.0074235210823924026 0 0 0 0
615460848 -0.04199776136310299 -0.02669097487732716 1.000441149380313 0.005378162869277518 0 0 0 0
616055496 -0.042265349524660815 -0.026375953487607805 1.0013099925919133 0.005934539311886196 0 0 0 0
616650144 -0.041938620388555774 -0.0263165411668881 1.0001458437305817 0.007542532671738362 0 0 0 0
617244792 -0.04168856166058291 -0.02569075996642896 1.001197928994512 0.00621627425871119 0 0 0 0
617839440 -0.04206913742806553 -0.025597653958030892 1.000762070502526 0.00623690872680903 0 0 0 0
618434088 -0.04181807158577373 -0.025536590639389192 0.9998275285313242 0.004889976524722202 0 0 0 0
619028736 -0.042157049636599345 -0.02531246316655496 0.9994619765133166 0.007036038542443109 0 0 0 0
619623384 -0.04194808415410577 -0.0247065567177868 1.0005534959594293 0.006522840443251871 0 0 0 0
620218032 -0.04198917287257877 -0.024186265563342295 1.0010452987553529 0.006234222536021203 0 0 0 0
620812680 -0.04222228230816604 -0.024377532067494476 0.9998225468976747 0.006561926826310906 0 0 0 0
621407328 -0.04191373969645989 -0.023812254604306773 1.001635359844211 0.005746955931409748 0 0 0 0
622001976 -0.041958292506123485 -0.02400069031877762 0.9988217290021287 0.006606997628497407 0 0 0 0
622596624 -0.042223215360830235 -0.023094796310314848 1.000993685656773 0.006369568376763989 0 0 0 0
623191272 -0.042102544912495696 -0.023134313957919726 1.0016674266561045 0.006800073076959304 0 0 0 0
623785920 -0.042306110757552216 -0.022782591815998777 1.0004272868591604 0.0068158657847063354 0 0 0 0
624380568 -0.04244249801799065 -0.022640958813059813 1.0014425892280896 0.006518707668368292 0 0 0 0
624975216 -0.042226377148429924 -0.02231450063231675 1.0005049067300658 0.006100196398417234 0 0 0 0
625569864 -0.042354856145573244 -0.021939493776059235 0.9997541966065641 0.0074402873275968935 0 0 0 0
626164512 -0.04200647651325042 -0.022044667124131428 1.0003807151516626 0.006502544281027087 0 0 0 0
626759160 -0.04224506023315814 -0.021290549704907184 1.0012523498319554 0.007201020444550293 0 0 0 0
627353808 -0.04241891152309752 -0.021067415901263646 1.0007138996898866 0.006386522661215232 0 0 0 0
627948456 -0.042394775629463796 -0.02070463665734991 1.000803315451076 0.0048958634432085734 0 0 0 0
628543104 -0.042217834387704996 -0.020561389494257048 0.9999680103978296 0.006070263731732193 0 0 0 0
629137752 -0.042220389016928005 -0.020306449726457388 1.0004088674183675 0.007252595017617063 0 0 0 0
629732400 -0.042418186731015606 -0.019903458196814525 0.9995019412318566 0.006394025431610393 0 0 0 0
630327048 -0.04229547426439544 -0.019625067372686728 1.0007765150963799 0.006760270248641995 0 0 0 0
630921696 -0.04208766086151551 -0.019446887248605157 1.0008076896133171 0.0052380530173977155 0 0 0 0
631516344 -0.04207687981435159 -0.018928498790712837 1.0021231694406183 0.006753303327025858 0 0 0 0
632110992 -0.04222325269917164 -0.019049813216049337 1.0006195347787188 0.0061364447467095115 0 0 0 0
632705640 -0.041875564283464825 -0.0187964068460555 0.9993467593216677 0.006665167571344 0 0 0 0
633300288 -0.04216026374681394 -0.018579187481297377 1.0011897985094045 0.006103837136092508 0 0 0 0
633894936 -0.04201108370322346 -0.01805938757548679 1.0002665095648584 0.006466704858857452 0 0 0 0
634489584 -0.04201419749673715 -0.018407652775638522 1.0004764412509701 0.005841140688812918 0 0 0 0
635084232 -0.04185314732664905 -0.01753751623630377 0.9997601562349666 0.005992743773930045 0 0 0 0
635678880 -0.041760851148381115 -0.01785671277694881 1.001045599747999 0.004031535153786523 0 0 0 0
636273528 -0.04132875294762969 -0.017308042537063487 1.0002053672082754 0.006489721207573365 0 0 0 0
636868176 -0.04149278765869634 -0.017239537481429753 0.9997631637668246 0.006283279526750955 0 0 0 0
637462824 -0.041431322290879986 -0.016930739891052437 1.0001248680488681 0.006766620676277698 0 0 0 0
638057472 -0.04116101643088376 -0.01657153922089974 1.000363400957146 0.007362309763053496 0 0 0 0
638652120 -0.041228000296642094 -0.01647302878410229 1.001237695860143 0.006381094878656016 0 0 0 0
639246768 -0.041367773561852665 -0.016037436567296535 1.0008994239703497 0.004604661568904225 0 0 0 0
639841416 -0.041126240605919226 -0.016038545549436296 0.9999414079830566 0.006845234924978303 0 0 0 0
640436064 -0.04093906728329509 -0.015453803256831227 0.999548498680589 0.007153356209820148 0 0 0 0
641030712 -0.04101134573081402 -0.01581195795653919 1.0003382872198237 0.005138697325191097 0 0 0 0
641625360 -0.04112637676970062 -0.015372569507474029 1.0005611606761717 0.005073620933201999 0 0 0 0
642220008 -0.040798190083953564 -0.015031719065032947 1.0005296763204983 0.005960645510803526 0 0 0 0
642814656 -0.040543269128835345 -0.01451515330415671 1.0005584031945514 0.008250513110368273 0 0 0 0
643409304 -0.04058240251756117 -0.01486140237540616 1.0004972283216285 0.005872610404556545 0 0 0 0
644003952 -0.040554314703940386 -0.014437549380181543 1.0001483633702826 0.007414540443475335 0 0 0 0
644598600 -0.04055063709240863 -0.013879755573121573 1.000407038587888 0.006707857974783543 0 0 0 0
645193248 -0.04024549721568271 -0.013822315797042293 1.001262772369006 0.005788731737402447 0 0 0 0
645787896 -0.040177449892808435 -0.013631000715285375 0.9999449828247665 0.0071578312925642896 0 0 0 0
646382544 -0.04036238456569719 -0.01350009322372221 0.9998276536383116 0.006445893460507325 0 0 0 0
646977192 -0.0400603227268782 -0.013273176188671227 1.0006102537181505 0.007064703230600525 0 0 0 0
647571840 -0.0400488444037752 -0.013266897941501486 1.000370059607084 0.006304911443242293 0 0 0 0
648166488 -0.03992345410175674 -0.013040413659796267 1.000404681283661 0.006049052958989078 0 0 0 0
648761136 -0.03983792027060591 -0.012704861649524734 1.0007114984650531 0.004088088288371133 0 0 0 0
649355784 -0.03965055980280528 -0.012814255711617513 0.9998801142451988 0.005609181015327676 0 0 0 0
649950432 -0.03959877502500091 -0.012547037610203818 1.000887872428915 0.006594721226795298 0 0 0 0
650545080 -0.03980905504898002 -0.012546469744872533 1.000353094485645 0.007169205464158977 0 0 0 0
651139728 -0.039523713248977604 -0.012087644989569558 0.9996264157102681 0.005905359242382464 0 0 0 0
651734376 -0.039327364922305846 -0.011993207650444515 1.0004918951233999 0.006421309135150821 0 0 0 0
652329024 -0.03913609076329639 -0.011997827390482971 1.0006714464834938 0.007006992051145829 0 0 0 0
652923672 -0.03942216415737401 -0.011247218507667871 1.0000195395386438 0.005618789006854007 0 0 0 0
653518320 -0.03885244145870254 -0.011282410712900688 1.0006808802522866 0.005808253543520162 0 0 0 0
654112968 -0.039007123567424314 -0.011335542398156782 1.0007418558503811 0.007906015584603285 0 0 0 0
654707616 -0.03885231516772934 -0.01110382896346219 0.9994167254650189 0.005085870253684064 0 0 0 0
655302264 -0.03843733491786537 -0.010885969874435757 0.9999987032668172 0.004985400092745261 0 0 0 0
655896912 -0.038570504453371214 -0.011042120735637383 1.0004367121780056 0.005904037802534994 0 0 0 0
656491560 -0.03812579218503234 -0.0103945710359607 1.0009582289915167 0.0073762936532679735 0 0 0 0
657086208 -0.03848979433932374 -0.0106680073582139 1.0004787865044187 0.005686170659920096 0 0 0 0
657680856 -0.038006934519567354 -0.01004681669721123 0.9998653004539794 0.006340898671153943 0 0 0 0
658275504 -0.0380571644085377 -0.010077768162027559 1.0008149582379298 0.003547300852638757 0 0 0 0
658870152 -0.03808702267056539 -0.010052396597932292 1.0000308121567598 0.005671051994593635 0 0 0 0
659464800 -0.0376482306647975 -0.009777315168535897 1.0006287900266573 0.005370219527558682 0 0 0 0
660059448 -0.03684260490189615 -0.011667737563099481 1.0001720380502466 0.004205637575988241 0 0 0 0
660654096 -0.03607858241202773 -0.010404758214908848 1.0001716258925823 0.002216707021591519 0 0 0 0
661248744 -0.03599458600382321 -0.010227531612964337 0.9999738359390904 0.001178830494359938 0 0 0 0
661843392 -0.03589977389583433 -0.009953384628970509 1.000982800439554 0.0026454749989249394 0 0 0 0
662438040 -0.03627096051487996 -0.01025452726277452 0.9998622085180805 0.004133560188256504 0 0 0 0
663032688 -0.036669686039413854 -0.00976990967769185 1.0000613299548247 0.002625930523996663 0 0 0 0
663627336 -0.036576687333942114 -0.010148071483614891 1.0000952679876072 0.0021267203800855385 0 0 0 0
664221984 -0.03679055819828917 -0.010057223339115517 1.0007078496209558 0.0013889951854413308 0 0 0 0
664816632 -0.03635376298659246 -0.00935755123549621 1.0003809497979956 0.002387709853959488 0 0 0 0
665411280 -0.03605495923908058 -0.009518412854022289 1.0008804032946306 0.0026524891911900187 0 0 0 0
666005928 -0.03592513843363065 -0.010050698614927175 0.9983847041087396 0.0024868748075229786 0 0 0 0
666600576 -0.03555388792923529 -0.008791662108545501 1.0003693991510973 0.0018408631203093678 0 0 0 0
667195224 -0.03520198336348912 -0.00865992551170448 1.000102900689402 0.003541689061841163 0 0 0 0
667789872 -0.03494246391554553 -0.00855067159172995 0.9996190307735415 0.0025345087108577303 0 0 0 0
668384520 -0.03486511341150628 -0.008236527485661187 0.9995014372853933 0.003335651902329365 0 0 0 0
668979168 -0.03467754130833054 -0.00849272384960805 1.0001332543971955 0.004294782296212963 0 0 0 0
669573816 -0.03477755524834646 -0.008170010010431559 0.999575690759233 0.0027480454431853436 0 0 0 0
670168464 -0.034515052484311096 -0.007941753105774548 1.0005705283812654 0.0028756930627654768 0 0 0 0
670763112 -0.03459409673035385 -0.008243175312106202 1.0000602273677917 0.0029917654319620434 0 0 0 0
671357760 -0.034251124203682586 -0.008173351782516595 1.0011572875163064 0.0007281838267951613 0 0 0 0
671952408 -0.03408923003560767 -0.008193744181905853 1.0004165499365607 0.0016964345241778731 0 0 0 0
672547056 -0.033942509788394644 -0.007934891628321382 1.0002905001487632 0.0035136743980269127 0 0 0 0
673141704 -0.033912106065666664 -0.007453392128110281 1.000151898680751 0.0029410775941202225 0 0 0 0
673736352 -0.033716281319038366 -0.007724608787536418 0.9998794149845162 0.0026256682008069954 0 0 0 0
674331000 -0.03326040523056265 -0.0075797824802929575 1.0009565292962712 0.0036887499879610457 0 0 0 0
674925648 -0.03330173559176514 -0.007590789863772869 1.001157512911472 0.0028787544828095444 0 0 0 0
675520296 -0.033011183932193704 -0.007664107651137639 1.0005146426300078 0.0019215392541208453 0 0 0 0
676114944 -0.03278319457501734 -0.007262584660888743 1.0002128872469969 0.0033377528914651966 0 0 0 0
676709592 -0.032636227933457565 -0.007348159808575943 1.0003942691032923 0.0028651304251915755 0 0 0 0
677304240 -0.032486027408453945 -0.007063428506184291 1.0001433551783219 0.00289979609984973 0 0 0 0
677898888 -0.032366605273744346 -0.006793364073417697 1.0007520251034367 0.003527776407414109 0 0 0 0
678493536 -0.03240701525267654 -0.0071330305203071605 1.0006524636041556 0.003455363370263693 0 0 0 0
679088184 -0.03187374242692097 -0.007147834741799781 1.0007537506243775 0.0019563991872864053 0 0 0 0
679682832 -0.031864965005167056 -0.007050763975826454 0.9992663166053312 0.00266933816126706 0 0 0 0
680277480 -0.031912609223371476 -0.007259532637073219 1.0012152035221662 0.003089609356548913 0 0 0 0
680872128 -0.031764519159842276 -0.006985930290711861 1.0007525067185212 0.0037493829441329367 0 0 0 0
681466776 -0.03151829118037238 -0.007151905217313431 0.9998121860554132 0.002563543070450431 0 0 0 0
682061424 -0.031194514826590792 -0.0073276819511817895 1.000727906490152 0.0034865249222177054 0 0 0 0
682656072 -0.031300343328144305 -0.006988636402791433 1.0001698326338047 0.001560216748222514 0 0 0 0
683250720 -0.031083678660264617 -0.006958120775094962 1.0005261924662812 0.0029887493483546587 0 0 0 0
683845368 -0.030750877099665865 -0.007005188787155977 0.9992703198351974 0.002881887849193444 0 0 0 0
684440016 -0.030853196035077347 -0.0068670998518150115 1.0008248328531533 0.003921076657142593 0 0 0 0
685034664 -0.03052344162138356 -0.006971363113169903 1.0016998238191424 0.0032738389033194625 0 0 0 0
685629312 -0.030248021949375658 -0.007032888519100013 0.9999761914232459 0.0034034167204934564 0 0 0 0
686223960 -0.030322833055404314 -0.006937262951946199 0.9999729494270283 0.0029284847428489268 0 0 0 0
686818608 -0.029844480459896006 -0.007217334943446618 1.0005793262698437 0.00342444209809492 0 0 0 0
687413256 -0.02938035664414258 -0.007208347736832615 1.0002203894131714 0.0036374497873612292 0 0 0 0
688007904 -0.029523338809768977 -0.00700379001234682 1.0006257586582246 0.0033168671739233647 0 0 0 0
688602552 -0.02969221093596238 -0.007335715251468452 1.0001862408391127 0.002994758096950993 0 0 0 0
689197200 -0.029511587137234556 -0.007233894856768713 1.0001593691010127 0.004182276994202782 0 0 0 0
689791848 -0.029016267357415547 -0.007320132357876765 0.9995033241810392 0.0029030736510183997 0 0 0 0
690386496 -0.029084430380185777 -0.007135232480261144 0.9996037783408352 0.002304937490254152 0 0 0 0
690981144 -0.02880398470411118 -0.007404352353823319 1.0006376190460982 0.002765164364736832 0 0 0 0
691575792 -0.028352733436417487 -0.007260632891760004 0.9993522631720492 0.0038081828317214315 0 0 0 0
692170440 -0.028638509411384815 -0.007180649207911798 1.000738003349754 0.002871679355558061 0 0 0 0
692765088 -0.028008045880738547 -0.007539596003774361 1.0001356771772665 0.002630170430487721 0 0 0 0
693359736 -0.02831079217539343 -0.007403343898290784 1.0001525006889678 0.0024943037248085637 0 0 0 0
693954384 -0.02790458729595765 -0.0075486985848682185 0.9996391229752789 0.0022074616050002135 0 0 0 0
694549032 -0.02803706150903185 -0.0073931798234641005 1.0000831524766431 0.0033665559481097364 0 0 0 0
695143680 -0.027317711647048337 -0.007991545775798407 0.9999469780181381 0.0005082410690385301 0 0 0 0
695738328 -0.027551284533132443 -0.007597141395738008 0.999621617873722 0.0035179780054873273 0 0 0 0
696332976 -0.02738990986832984 -0.007929062294238703 0.9999652980786311 0.0027271211840369756 0 0 0 0
696927624 -0.027135352207320017 -0.007925081534076398 1.000079221835099 0.002223551823923907 0 0 0 0
697522272 -0.027283470015183033 -0.008109421417705036 1.0006618884759513 0.0033193238211529762 0 0 0 0
698116920 -0.0268025138395706 -0.008139799062028866 0.9999587788718672 0.0023089799009297423 0 0 0 0
698711568 -0.02667491331247879 -0.008297147683148145 1.0001415816029935 0.0033284247480780123 0 0 0 0
699306216 -0.026529354458362218 -0.00825734567777597 1.000658031752996 0.002981148292069749 0 0 0 0
699900864 -0.026424457094284575 -0.008567682428208488 1.0007291486895487 0.004472547384584148 0 0 0 0
700495512 -0.026298683784300062 -0.008703687111491148 1.0002374283205366 0.004541948889220401 0 0 0 0
701090160 -0.02639350603395192 -0.008584169201123825 1.0001949092652065 0.0019593975231697995 0 0 0 0
701684808 -0.026028355788637134 -0.008807561213688773 1.0004040034156712 0.002198863454501337 0 0 0 0
702279456 -0.026000945721133453 -0.008905497839294544 1.000764190028623 0.002088709104504107 0 0 0 0
702874104 -0.02559921024071218 -0.00930268161839587 1.0006613820099617 0.003387890852117592 0 0 0 0
703468752 -0.025424765050461443 -0.009107855712808014 0.9996925664501112 0.0030614724868341984 0 0 0 0
704063400 -0.0253479897483754 -0.00940864682703497 0.9999123746860107 0.0045882961508653935 0 0 0 0
704658048 -0.025293216752742875 -0.009451397698548036 1.0001405364703984 0.0042438395205532786 0 0 0 0
705252696 -0.02556772844432814 -0.009669205833084756 1.0006503421473734 0.0024486222311964137 0 0 0 0
705847344 -0.02503263184922738 -0.00977791653109478 1.0005059989297953 0.0032204911269935726 0 0 0 0
706441992 -0.02510768830166575 -0.009773291423698255 0.9991044455738917 0.0023254261733937198 0 0 0 0
707036640 -0.024957877284550845 -0.009999837807792464 1.0001951481624896 0.0023357009317804467 0 0 0 0
707631288 -0.02492276543127985 -0.010182712461982794 1.0004234827716731 0.0027301357968277993 0 0 0 0
708225936 -0.024655710504982723 -0.010336074102615419 1.0008182600006401 0.0033845865249675505 0 0 0 0
708820584 -0.02433499462631333 -0.010522525283004484 0.999543063122064 0.003029873684249712 0 0 0 0
709415232 -0.024348742918547606 -0.010719352151811473 0.9998504930531492 0.0035968504031137186 0 0 0 0
710009880 -0.024273856099388424 -0.010791132792992568 1.0004830126316142 0.00265404917162298 0 0 0 0
710604528 -0.02419885546272696 -0.011068439700749937 1.0009985233634522 0.003158775725189707 0 0 0 0
711199176 -0.02400889832687983 -0.010952306625741728 1.000090868333276 0.002767226313715953 0 0 0 0
711793824 -0.0240200124898214 -0.011180978087148996 0.9995029873886324 0.003572983494198575 0 0 0 0
712388472 -0.023856212278373656 -0.011508262434121432 0.9992833675823265 0.002973206651327636 0 0 0 0
712983120 -0.023668699957293957 -0.011601007044668996 0.999330820808016 0.0016306701548803437 0 0 0 0
713577768 -0.023639177675103873 -0.011985408418297117 1.0000566779112037 0.0017530646120584533 0 0 0 0
714172416 -0.023709538212486447 -0.012269576279969354 0.999753260959015 0.0027289251742087565 0 0 0 0
714767064 -0.023528881135005474 -0.012291939335869004 0.9996317715212121 0.004102101122287018 0 0 0 0
715361712 -0.023317758833341886 -0.012326601302893557 1.0011067343267968 0.002405070611833582 0 0 0 0
