# HZ S RI R 50
600000000 -0.057592693789142 -0.034114529256598296 0.9954756097146701 -0.002367808078686709 0 0 0 0
600594648 -0.05755308113326949 -0.03430476394132365 0.9967289485244815 -0.0018443762468980606 0 0 0 0
601189296 -0.057435206292714425 -0.0339890832767592 0.9958172621256133 -0.0014803669918742636 0 0 0 0
601783944 -0.05780893967206408 -0.03372698816497048 0.9958949261019809 -0.0033780016850704963 0 0 0 0
602378592 -0.05783808810431718 -0.03338020826127383 0.9958008163452422 -0.002587592517560644 0 0 0 0
602973240 -0.05789434034371348 -0.033087140149941886 0.9962834574840683 -0.002354475790032158 0 0 0 0
603567888 -0.05800267871940351 -0.03327297816091825 0.9956292782104545 -0.002670332553106635 0 0 0 0
604162536 -0.057588657068777825 -0.032613429124973316 0.9961690899978228 -0.0020156305348531106 0 0 0 0
604757184 -0.05809352442938004 -0.032606024082186345 0.9961375938560009 -0.001691463187923513 0 0 0 0
605351832 -0.05782969665976053 -0.03236768668972351 0.9957965041218879 -0.0031226639094726785 0 0 0 0
605946480 -0.05878641580136831 -0.03211215287884557 0.9954665788113056 -0.0032472885395528365 0 0 0 0
606541128 -0.05883660479149925 -0.03112995150232713 0.995598006387641 -0.0032607285525503623 0 0 0 0
607135776 -0.05839403893625543 -0.030676894079976574 0.9964165697382401 -0.0004897607730104927 0 0 0 0
607730424 -0.05856590748187048 -0.030319262471005047 0.9953890253000505 -0.003660849047062621 0 0 0 0
608325072 -0.058692340659320774 -0.030130204534762194 0.9956645244854098 -0.003114794972840524 0 0 0 0
608919720 -0.058794722135302534 -0.02990461245983758 0.9955151835661968 -0.002876374935842551 0 0 0 0
609514368 -0.058842784316858125 -0.02964347107822902 0.9960049312621942 -0.002840589717417643 0 0 0 0
610109016 -0.05917952741602331 -0.029456370078173533 0.995814548028362 -0.0031963879350649666 0 0 0 0
610703664 -0.058660035170007986 -0.029296781922228867 0.9963013605238524 -0.00251475448382561 0 0 0 0
611298312 -0.05909052898228746 -0.02920632720957985 0.9955431838789072 -0.0034427196229300594 0 0 0 0
611892960 -0.05952209008948515 -0.029149989966752256 0.9961123696340732 -0.003614041203181475 0 0 0 0
612487608 -0.05929666222162362 -0.028662718599304915 0.9956079360695287 -0.0020496306068224428 0 0 0 0
613082256 -0.059369773996004745 -0.028540125872630894 0.9957781686675127 -0.003847980417447469 0 0 0 0
613676904 -0.059437187496276106 -0.02813990871566072 0.9952869244653874 -0.001968722260659958 0 0 0 0
614271552 -0.059201860865550994 -0.027855395185499274 0.9955083053643325 -0.003662135774810734 0 0 0 0
614866200 -0.059498964311492916 -0.027457126800092834 0.9956844115191602 -0.0018363317566058865 0 0 0 0
615460848 -0.05962432226462112 -0.027149728151702857 0.9964093284853474 -0.0036543969684335667 0 0 0 0
616055496 -0.05964986488374942 -0.026974629469285364 0.9958165001431184 -0.002719120910833619 0 0 0 0
616650144 -0.05990501149269709 -0.026964565150575222 0.9954412560006041 -0.001289623473133899 0 0 0 0
617244792 -0.06015513587085269 -0.026945538282027226 0.9955727745508275 -0.0030378635337576375 0 0 0 0
617839440 -0.059913495375980244 -0.026281335618431555 0.9955168513257835 -0.0018581556135165208 0 0 0 0
618434088 -0.05993703151334077 -0.02638954920607645 0.9952190264251135 -0.0021888060015192727 0 0 0 0
619028736 -0.06021246328327305 -0.026271006286635156 0.9959244054793863 -0.0018954163061605342 0 0 0 0
619623384 -0.06004424626661043 -0.025732256663304018 0.9959830067595626 -0.0031070403163743136 0 0 0 0
620218032 -0.06031061281208371 -0.025839256982149856 0.9960439828979925 -0.0017303851996072852 0 0 0 0
620812680 -0.060162180817083286 -0.025253117374828507 0.995363913484149 -0.002190128438325895 0 0 0 0
621407328 -0.060233105849020786 -0.025651001778442917 0.9968828238160115 -0.002347402319060306 0 0 0 0
622001976 -0.060267840687055756 -0.025097875365050152 0.9953659270259491 -0.0022381877003444382 0 0 0 0
622596624 -0.06018591650394295 -0.024733852738395644 0.9964334602931394 -0.0034583918143773914 0 0 0 0
623191272 -0.06006196734011721 -0.024949786073317746 0.9960883744313184 -0.004220331049933551 0 0 0 0
623785920 -0.06032489439593437 -0.0247316816655469 0.9961026664603837 -0.002328434532581887 0 0 0 0
624380568 -0.06023605573988588 -0.02461818944007206 0.9963733883839806 -0.0017435751097163443 0 0 0 0
624975216 -0.060425221910986385 -0.024102635372632845 0.9959239171293212 -0.004035835524364369 0 0 0 0
625569864 -0.059814073826359046 -0.024007128014553177 0.9954041979416427 -0.001933505861775204 0 0 0 0
626164512 -0.05993809456151185 -0.023923563103272573 0.9960910257758893 -0.0029191690993008515 0 0 0 0
626759160 -0.060122179308779534 -0.02329558609036027 0.9962392409871859 -0.0035413055056667513 0 0 0 0
627353808 -0.059870004381095826 -0.023349913221895904 0.9955804523906244 -0.0035114774216273175 0 0 0 0
627948456 -0.06008033282659294 -0.0230653661960237 0.9951476291807986 -0.0028286266089989384 0 0 0 0
628543104 -0.05993957542218583 -0.022915934513705705 0.9959671778873941 -0.0022000718101626154 0 0 0 0
629137752 -0.059598898432889034 -0.022549787731031935 0.997191783096066 -0.0030246160044836265 0 0 0 0
629732400 -0.05972487558491842 -0.02249533949330804 0.995689584022093 -0.0027240090032050433 0 0 0 0
630327048 -0.05930356291386497 -0.022100791065025403 0.9956583631562611 -0.0024331384929877327 0 0 0 0
630921696 -0.05967850333585157 -0.021780917966650635 0.9960127115951191 -0.00269126855007783 0 0 0 0
631516344 -0.05986409040687156 -0.021881376397543506 0.995602952992691 -0.003590393972858634 0 0 0 0
632110992 -0.05936534704920355 -0.021884309536584403 0.9948674507451966 -0.0019655583637771716 0 0 0 0
632705640 -0.059540947077027784 -0.02160588683010635 0.996127452420011 -0.0032429399339402643 0 0 0 0
633300288 -0.059346291477923994 -0.021387176727032785 0.9951468786828176 -0.0034912618297793163 0 0 0 0
633894936 -0.059432661756299444 -0.021396682071484138 0.9946896879200131 -0.0021193698987744506 0 0 0 0
634489584 -0.059389857474490534 -0.021268034830096115 0.9955321516747845 -0.002721976142245552 0 0 0 0
635084232 -0.05927359697845864 -0.020997406782360627 0.9955918534514231 -0.0035569849101227836 0 0 0 0
635678880 -0.05894214192977667 -0.02105014115981916 0.9961503132012126 -0.002255447448384691 0 0 0 0
636273528 -0.05914677531707351 -0.02084762112673283 0.9963875623348071 -0.0014658554873604008 0 0 0 0
636868176 -0.05908909404299269 -0.020570837796660257 0.9957934156085347 -0.0030387020465256404 0 0 0 0
637462824 -0.058829781396528315 -0.020444989098919446 0.99593460811374 -0.002086117289805909 0 0 0 0
638057472 -0.05873117308213242 -0.019744279856693817 0.9952230250239642 -0.0027248484782761585 0 0 0 0
638652120 -0.058373122160022044 -0.019774784840612944 0.9960903881805099 -0.00282362652252377 0 0 0 0
639246768 -0.05842233741140989 -0.019371892107772598 0.9942585849780481 -0.0030226415797102307 0 0 0 0
639841416 -0.05845656702068375 -0.019804703307821928 0.9951024893454513 -0.0030068340152772316 0 0 0 0
640436064 -0.05822674558866869 -0.019493986138758978 0.995838943899857 -0.0030607355658889444 0 0 0 0
641030712 -0.058241472943116886 -0.019426046206559328 0.9951897007752631 -0.0026668901340426935 0 0 0 0
641625360 -0.058356913339879427 -0.019489548980849983 0.9960915434714447 -0.0035910257534273893 0 0 0 0
642220008 -0.0578088401044792 -0.01893234772840683 0.9962450998145568 -0.0013344961744419257 0 0 0 0
642814656 -0.05785920512319266 -0.018846608848000913 0.9953925095835916 -0.003282116053418337 0 0 0 0
643409304 -0.057804778532129716 -0.018727575670973343 0.9960288067902082 -0.0013616025923756155 0 0 0 0
644003952 -0.05761792851249735 -0.01835555565715064 0.9957668351795066 -0.002772679163988184 0 0 0 0
644598600 -0.05777311288373846 -0.01830593853964722 0.9958834945395724 -0.002826774853024019 0 0 0 0
645193248 -0.05748542800522865 -0.018427315182100234 0.9954883241035077 -0.004489872976207465 0 0 0 0
645787896 -0.057101270120282765 -0.018443677055766373 0.9953363552592442 -0.0026608021407025545 0 0 0 0
646382544 -0.05711159409440681 -0.01803697961047462 0.996258460442518 -0.0031365227106121144 0 0 0 0
646977192 -0.05691104794453574 -0.01795755898854068 0.9951255489915382 -0.0034780690407708345 0 0 0 0
647571840 -0.056831156272465676 -0.017732101216678123 0.99545888873318 -0.0027767510131898464 0 0 0 0
648166488 -0.05679079745282321 -0.017432491880075257 0.9954750044394735 -0.0018483384183945264 0 0 0 0
648761136 -0.056486175375220146 -0.017717180582961244 0.9960414084507992 -0.002611256980965738 0 0 0 0
649355784 -0.05638259020773741 -0.017385190956639485 0.9964606714638623 -0.003376757846565978 0 0 0 0
649950432 -0.05595041745592371 -0.017224938359611898 0.9951915817925255 -0.0038854141276445605 0 0 0 0
650545080 -0.055914978965021206 -0.017119059217962734 0.9962187117285989 -0.0037566148092278598 0 0 0 0
651139728 -0.05566184182927548 -0.016803021038629185 0.9946782593204598 -0.0031435769230461763 0 0 0 0
651734376 -0.055947633342831836 -0.01710564434464669 0.9955188118390051 -0.0035454652933675826 0 0 0 0
652329024 -0.055416566034777986 -0.017140327734967965 0.9953126118164579 -0.0025817426546993574 0 0 0 0
652923672 -0.055254115144036366 -0.01661117713437007 0.9957002703037591 -0.0025305533917999983 0 0 0 0
653518320 -0.05545497206995056 -0.01691235441347115 0.9958282367403745 -0.0021690498511066788 0 0 0 0
654112968 -0.05499569523012296 -0.01630775156316007 0.9954706718895531 -0.0030205432612857384 0 0 0 0
654707616 -0.05506272097340636 -0.016605555517930633 0.9955162067592617 -0.0023175292756158787 0 0 0 0
655302264 -0.05462704163320607 -0.01612191783977489 0.9955551185499315 -0.003355234842040753 0 0 0 0
655896912 -0.05446062948236679 -0.016239711675803195 0.9961700286956094 -0.0017100092712224373 0 0 0 0
656491560 -0.0540915111850188 -0.01583254239073783 0.9955983723885266 -0.00406304479700729 0 0 0 0
657086208 -0.05411313432734912 -0.01571137720024024 0.9954496104091353 -0.002700938107772022 0 0 0 0
657680856 -0.05375992162177541 -0.0156609183029642 0.9952097798588055 -0.002757902998149541 0 0 0 0
658275504 -0.053469759655949106 -0.015398697100066581 0.9957368677342594 -0.0027188939967857824 0 0 0 0
658870152 -0.05342015529607105 -0.015661736422156465 0.9959998053636698 -0.002239933444122679 0 0 0 0
659464800 -0.05316758967720704 -0.015593789812220699 0.9946031843640982 -0.003313509708903061 0 0 0 0
660059448 -0.051949262736674696 -0.01564312426349361 0.9959461843681167 -0.0022223844161116113 0 0 0 0
660654096 -0.05145212904969827 -0.01550247950041583 0.9966752608184769 -0.0029184940171869058 0 0 0 0
661248744 -0.05131575321270179 -0.016136703147481272 0.9960065615971914 -0.0023482048477573947 0 0 0 0
661843392 -0.05179132933335256 -0.015870182455450042 0.9949135868953791 -0.003833413396490167 0 0 0 0
662438040 -0.05106080821295751 -0.015888087255893975 0.9949634631794689 -0.002753336211467308 0 0 0 0
663032688 -0.05079692790405808 -0.01578378427403549 0.9952674509973165 -0.0035329303542822473 0 0 0 0
663627336 -0.050926548313150945 -0.01592611893777502 0.9950934409236523 -0.0018578524452979516 0 0 0 0
664221984 -0.05063229729286099 -0.015393443603933629 0.9953283798305759 -0.003256401359369714 0 0 0 0
664816632 -0.050456913905932606 -0.015136308426786996 0.9953240850702877 -0.0024587341461704522 0 0 0 0
665411280 -0.050113394141002465 -0.014911349422969842 0.995810815618969 -0.0031365394992497317 0 0 0 0
666005928 -0.04974765648999985 -0.015226887927966712 0.9957526867900168 -0.003279038782668249 0 0 0 0
666600576 -0.04985462214186014 -0.014697387559547049 0.9952400697134778 -0.0025936595265129894 0 0 0 0
667195224 -0.049131325967851656 -0.014277877691534198 0.9953384382006066 -0.00248209821308213 0 0 0 0
667789872 -0.04937801077852425 -0.014308919090409222 0.9965722829713888 -0.0025776739827781917 0 0 0 0
668384520 -0.04889047555820699 -0.014381066071662493 0.9954136311807865 -0.004162788402076469 0 0 0 0
668979168 -0.04846915838616693 -0.014211381812872565 0.9952539162492695 -0.003169843807611661 0 0 0 0
669573816 -0.04840622262501115 -0.014362097362092948 0.9952431379713957 -0.003887353908383877 0 0 0 0
670168464 -0.04811912856107265 -0.014320579262797641 0.9952472540677536 -0.0029463659301121213 0 0 0 0
670763112 -0.04794828704450261 -0.01415814478407262 0.9967565223316168 -0.003715545591138394 0 0 0 0
671357760 -0.04751944497925988 -0.014563402511989365 0.9947548877480673 -0.004288847817240261 0 0 0 0
671952408 -0.04744125156199824 -0.014332145633244545 0.9956413457587204 -0.0037957008059908755 0 0 0 0
672547056 -0.04722517573851549 -0.014156716321025465 0.9947082313916041 -0.002854735507956236 0 0 0 0
673141704 -0.04709256223215445 -0.014036077089790967 0.9957768079604393 -0.0027678120816142554 0 0 0 0
673736352 -0.046579223553601584 -0.013874253395732186 0.9966963412430446 -0.00381045449340471 0 0 0 0
674331000 -0.04622155582863468 -0.01415484985904666 0.99399310082927 -0.0026021236762644503 0 0 0 0
674925648 -0.04589056979390578 -0.014330604668219732 0.9952360084791124 -0.0024728421153679936 0 0 0 0
675520296 -0.0455950885120548 -0.014447740152138736 0.99582474969956 -0.002532623199228211 0 0 0 0
676114944 -0.04523140423034356 -0.014298906079349565 0.995430822912155 -0.0028765653785860464 0 0 0 0
676709592 -0.04524771193009855 -0.014151304450782347 0.9947761428783329 -0.004731467057937982 0 0 0 0
677304240 -0.04490022071914471 -0.014139275541306666 0.9944735069065189 -0.003024106949670821 0 0 0 0
677898888 -0.0448226309229525 -0.014039046034911499 0.9948432885563787 -0.004109193740680063 0 0 0 0
678493536 -0.04447986752832867 -0.014341673796326683 0.9952271181998814 -0.00410224812847072 0 0 0 0
679088184 -0.044128862819629376 -0.014361107870231878 0.9956785463648358 -0.0037407838027393994 0 0 0 0
679682832 -0.04343067286144612 -0.014374528623438054 0.9958660071055873 -0.0011978876724490677 0 0 0 0
680277480 -0.0432056382501173 -0.014189285930977891 0.995237489293653 -0.0014617855129173821 0 0 0 0
680872128 -0.04275984008767809 -0.014462281758845414 0.9947303154451071 -0.002814864923349283 0 0 0 0
681466776 -0.042758354576346025 -0.01415830963121924 0.9957403512151808 -0.0034978509105060623 0 0 0 0
682061424 -0.042955029748385186 -0.01455113635062225 0.9950729327767323 -0.0023608549736795804 0 0 0 0
682656072 -0.042004323323454495 -0.01442795673035199 0.9945245329376436 -0.003314064734621157 0 0 0 0
683250720 -0.04206319581780787 -0.014541796553371877 0.9945108430350116 -0.0034904386028795876 0 0 0 0
683845368 -0.041463774366251704 -0.014283544577478817 0.9951846555775865 -0.0030376541053894644 0 0 0 0
684440016 -0.04105090574911473 -0.014849477640788292 0.9949109832985548 -0.002451017024814243 0 0 0 0
685034664 -0.040782235118374685 -0.014475394857466089 0.9945771304630389 -0.003346664928574663 0 0 0 0
685629312 -0.04021307983546041 -0.014514503488114087 0.9957658288746484 -0.0022216310303507436 0 0 0 0
686223960 -0.040072944907125575 -0.014611624259115677 0.9957324824182121 -0.0035858847815694195 0 0 0 0
686818608 -0.03982916269283329 -0.014489287606383723 0.995829273154025 -0.004231264993524375 0 0 0 0
687413256 -0.03958867729721357 -0.01478440357590849 0.9952372103760352 -0.002059186724249871 0 0 0 0
688007904 -0.03935206680570093 -0.014882004025079417 0.9945926830454916 -0.0036049351763598834 0 0 0 0
688602552 -0.03887463139475993 -0.015075987071813813 0.9952463154072827 -0.0017285455957118724 0 0 0 0
689197200 -0.03832646396621787 -0.01505096817527368 0.9946058868074769 -0.002948066531149633 0 0 0 0
689791848 -0.03810844361939251 -0.015241609237064501 0.994769071430332 -0.004529899073545628 0 0 0 0
690386496 -0.03782765380830775 -0.015189501078656962 0.9953574347155699 -0.0022166593735334144 0 0 0 0
690981144 -0.03763733574008961 -0.015454334702655162 0.9955680693841639 -0.0032171757792354237 0 0 0 0
691575792 -0.03767720301195666 -0.015329931967860942 0.9950225219259062 -0.0021780287451761957 0 0 0 0
692170440 -0.036956898112798925 -0.015504137990263357 0.9951502855058852 -0.003645160107190738 0 0 0 0
692765088 -0.036886966663767166 -0.015418666479772889 0.9946602908453316 -0.003559051809488877 0 0 0 0
693359736 -0.036318254206962615 -0.015435867021723892 0.9946025651082585 -0.003969253808915303 0 0 0 0
693954384 -0.03620575253516641 -0.015395596548354136 0.9948008970368875 -0.004396768839246237 0 0 0 0
694549032 -0.035554357615021445 -0.01580094128079997 0.9951221375322168 -0.003916976220221572 0 0 0 0
695143680 -0.03549193711701007 -0.01593815603123313 0.9959943938036488 -0.0023935916545887673 0 0 0 0
695738328 -0.03548445774632558 -0.016056467715973254 0.9954565310457238 -0.00243110561701564 0 0 0 0
696332976 -0.03473979234207848 -0.016273902675439277 0.9963916665844185 -0.0029278671860596237 0 0 0 0
696927624 -0.034450225415030455 -0.016207691560923145 0.9957787847070417 -0.003727313322884236 0 0 0 0
697522272 -0.03403263582612721 -0.016375445370231893 0.9959476124801506 -0.0015181875654147364 0 0 0 0
698116920 -0.03374120113718227 -0.016633030245068365 0.9951654454558991 -0.002267034651041953 0 0 0 0
698711568 -0.03366593219629762 -0.016621406956839068 0.9955531798760661 -0.0023724601201825643 0 0 0 0
699306216 -0.03325489132751759 -0.016956322480917368 0.9957605467891655 -0.0027043908958679754 0 0 0 0
699900864 -0.032561298694219414 -0.01688702234670757 0.9949834039349159 -0.0026755410630358383 0 0 0 0
700495512 -0.03239833478402902 -0.01740740149370077 0.9959687563835098 -0.004440522542780689 0 0 0 0
701090160 -0.03226821480541125 -0.017531058352316883 0.9954879985248163 -0.003562940632769205 0 0 0 0
701684808 -0.03237412814994674 -0.017330980441077448 0.9954829556523228 -0.002975095070349913 0 0 0 0
702279456 -0.03195525480707716 -0.017836481862968323 0.9958031579214672 -0.00369210202685209 0 0 0 0
702874104 -0.03159194701892485 -0.017941439153764043 0.9953500441750183 -0.002184403820331023 0 0 0 0
703468752 -0.03101382506679809 -0.018225950375106423 0.9957797077868256 -0.002980299189495009 0 0 0 0
704063400 -0.030791888633338357 -0.018276314517160414 0.9950654730440154 -0.003667617771600142 0 0 0 0
704658048 -0.030291569990727775 -0.018688886113470127 0.9952480294832606 -0.003584052505855296 0 0 0 0
705252696 -0.030037775497909144 -0.018948730257427944 0.9957497320594584 -0.004649364161971344 0 0 0 0
705847344 -0.029908108898247243 -0.018990405402477366 0.9958077878796696 -0.004153042647710799 0 0 0 0
706441992 -0.029360455592567263 -0.01901151848968337 0.9950018874891235 -0.0035364161643238867 0 0 0 0
707036640 -0.029312171859874985 -0.019061599536720725 0.9950737828443835 -0.0003162050710508761 0 0 0 0
707631288 -0.029067088905989455 -0.01927758922389122 0.9954305675364878 -0.004410759803181785 0 0 0 0
708225936 -0.028588243977114198 -0.01950336057898866 0.9951615947110046 -0.0030632296528491586 0 0 0 0
708820584 -0.02813290900397592 -0.019818832146381884 0.9953586479821734 -0.0018948313840942456 0 0 0 0
709415232 -0.028025672424588595 -0.01999203829902035 0.9956019599443636 -0.003074043399471869 0 0 0 0
710009880 -0.027934340355749432 -0.020025555203379595 0.995574895467 -0.005517020202302216 0 0 0 0
710604528 -0.02739356547457214 -0.02043063499794113 0.9957919816524311 -0.001334692115925615 0 0 0 0
711199176 -0.027076038100745475 -0.02058825891446545 0.9956228852036613 -0.003905898704991906 0 0 0 0
711793824 -0.026876937104745202 -0.020942708451652303 0.9960935659683414 -0.001843960817056553 0 0 0 0
712388472 -0.026395746625088725 -0.020993361133427008 0.9955097930720281 -0.003163502235146055 0 0 0 0
712983120 -0.026287401498527412 -0.021216140987319942 0.9943306481385356 -0.004363618310684924 0 0 0 0
713577768 -0.026058459450185145 -0.021517735871796347 0.9951852471000966 -0.0034160950468503093 0 0 0 0
714172416 -0.025833317510396133 -0.021723535729963644 0.9959811142506427 -0.004573940713307154 0 0 0 0
714767064 -0.02577966043380196 -0.02211394577862466 0.99521039943664 -0.0021638679331164633 0 0 0 0
715361712 -0.02506768578105885 -0.022489611488627513 0.9958083339455992 -0.0016634915960387071 0 0 0 0
