! Data measured by Modelithics, Inc. 
! support@modelithics.com 813-866-6335 Tampa FL USA
# GHZ S MA R 50
! Scattering Parameters
 0.2500 0.40614  -40.941  26.02523  133.930  0.02000   36.515  0.31076   11.837
 0.3000 0.37848  -45.949  23.89630  127.770  0.02167   41.411  0.32573    9.479
 0.3500 0.35306  -50.461  21.98011  122.385  0.02365   45.130  0.33818    7.441
 0.4000 0.32948  -53.866  20.22577  117.639  0.02599   48.823  0.34747    5.582
 0.4500 0.31245  -57.247  18.67595  113.713  0.02835   50.417  0.35922    3.891
 0.5000 0.29337  -60.450  17.35183  109.954  0.03060   51.788  0.36381    1.342
 0.5500 0.27804  -63.195  16.14179  106.598  0.03315   53.496  0.36626   -0.682
 0.6000 0.26536  -65.631  15.12180  103.505  0.03556   54.391  0.37054   -2.467
 0.6500 0.25423  -68.247  14.17020  100.741  0.03823   55.267  0.37330   -4.392
 0.7000 0.24461  -70.241  13.35031   98.181  0.04068   55.612  0.37586   -5.951
 0.7500 0.23241  -72.496  12.61745   95.626  0.04295   55.987  0.37695   -7.487
 0.8000 0.22463  -74.126  11.93247   93.371  0.04569   56.037  0.37800   -8.882
 0.8500 0.21773  -76.002  11.33165   91.210  0.04817   56.098  0.37926  -10.275
 0.9000 0.21044  -77.577  10.79050   89.070  0.05092   56.215  0.38137  -11.611
 0.9500 0.20402  -79.422  10.28704   87.089  0.05345   55.969  0.38128  -13.155
 1.0000 0.19877  -80.657  9.83312   85.199  0.05617   55.873  0.38277  -14.360
 1.1000 0.18921  -83.649  9.03481   81.512  0.06113   55.196  0.38347  -16.952
 1.2000 0.18153  -86.257  8.35391   78.081  0.06626   54.345  0.38548  -19.441
 1.3000 0.17560  -88.613  7.75777   74.787  0.07148   53.512  0.38591  -21.761
 1.4000 0.17047  -90.782  7.24791   71.676  0.07651   52.360  0.38712  -24.188
 1.5000 0.16666  -93.121  6.80716   68.664  0.08180   51.159  0.38836  -26.207
 1.6000 0.16263  -95.034  6.41331   65.723  0.08681   49.923  0.38869  -28.579
 1.7000 0.16066  -96.879  6.06159   62.848  0.09204   48.537  0.39068  -30.751
 1.8000 0.15854  -98.660  5.75082   60.079  0.09708   47.129  0.39140  -32.764
 1.9000 0.15772 -100.441  5.46890   57.401  0.10199   45.738  0.39258  -34.921
 2.0000 0.15602 -102.094  5.21477   54.701  0.10712   44.271  0.39336  -37.138
 2.1000 0.15585 -103.700  4.98724   52.110  0.11213   42.701  0.39470  -39.121
 2.2000 0.15494 -105.182  4.77413   49.454  0.11704   41.172  0.39634  -41.191
 2.3000 0.15618 -106.688  4.58609   46.966  0.12185   39.591  0.39819  -43.231
 2.4000 0.15495 -108.436  4.41267   44.423  0.12682   37.905  0.39877  -45.325
 2.5000 0.15631 -109.056  4.24692   41.915  0.13185   36.382  0.40132  -47.407
 2.6000 0.15744 -111.263  4.09863   39.424  0.13670   34.783  0.40291  -49.222
 2.7000 0.15812 -111.968  3.95931   36.960  0.14149   33.018  0.40386  -51.487
 2.8000 0.15975 -113.845  3.83170   34.544  0.14643   31.465  0.40637  -53.430
 2.9000 0.16049 -114.473  3.71362   32.086  0.15124   29.700  0.40797  -55.509
 3.0000 0.16304 -116.090  3.59910   29.728  0.15590   27.910  0.41036  -57.455
 3.2500 0.16749 -118.679  3.35155   23.802  0.16752   23.676  0.41463  -62.577
 3.5000 0.17300 -121.868  3.13860   17.857  0.17881   19.191  0.41900  -67.458
 3.7500 0.18285 -125.068  2.95079   12.098  0.18959   14.821  0.42394  -72.564
 4.0000 0.18765 -128.554  2.79407    6.278  0.20082   10.166  0.42872  -77.802
 4.2500 0.19810 -132.024  2.64826    0.486  0.21088    5.523  0.43209  -83.089
 4.5000 0.20881 -135.490  2.52413   -5.129  0.22102    0.996  0.43601  -88.027
 4.7500 0.22069 -139.477  2.40937  -10.650  0.23051   -3.611  0.44173  -93.081
 5.0000 0.23198 -143.567  2.31189  -16.222  0.24009   -8.203  0.44838  -97.937
 5.2500 0.24149 -147.156  2.22628  -21.693  0.24927  -12.711  0.45764 -102.708
 5.5000 0.25086 -151.179  2.14994  -27.337  0.25882  -17.384  0.46724 -107.723
 5.7500 0.26431 -154.486  2.07580  -32.862  0.26783  -22.208  0.47801 -112.783
 6.0000 0.27698 -157.380  2.00919  -38.451  0.27587  -26.985  0.48939 -118.136
 6.2500 0.28942 -161.722  1.94742  -44.121  0.28390  -31.966  0.50058 -123.347
 6.5000 0.30636 -164.844  1.88396  -49.638  0.29087  -36.881  0.51221 -128.803
 6.7500 0.31795 -168.103  1.82723  -55.238  0.29768  -41.917  0.52440 -134.336
 7.0000 0.33537 -172.309  1.77553  -60.930  0.30391  -47.018  0.53878 -140.002
 7.2500 0.35536 -175.418  1.72298  -66.474  0.30912  -52.117  0.55192 -145.761
 7.5000 0.36992 -179.630  1.67080  -72.266  0.31354  -57.364  0.56684 -151.334
 7.7500 0.38949  175.739  1.62254  -78.217  0.31736  -62.864  0.58126 -157.634
 8.0000 0.40641  173.035  1.56712  -83.851  0.31937  -67.905  0.59700 -163.270
! Noise Parameters
 0.2500   0.15764  0.17370   44.6931  0.09767
 0.3000   0.16025  0.17349   48.0118  0.03677
 0.3500   0.16291  0.17328   51.3082  0.03605
 0.4000   0.16563  0.17306   54.5823  0.03549
 0.4500   0.16842  0.17285   57.8341  0.07340
 0.5000   0.17125  0.17264   61.0636  0.10348
 0.5500   0.17415  0.17243   64.2709  0.03052
 0.6000   0.17711  0.17221   67.4559  0.03834
 0.6500   0.18012  0.17200   70.6185  0.04117
 0.7000   0.18319  0.17179   73.7590  0.03611
 0.7500   0.18632  0.17158   76.8771  0.04589
 0.8000   0.18950  0.17136   79.9729  0.03667
 0.8500   0.19275  0.17115   83.0465  0.03684
 0.9000   0.19605  0.17094   86.0978  0.03630
 0.9500   0.19941  0.17073   89.1268  0.03179
 1.0000   0.20283  0.17051   92.1335  0.03415
 1.1000   0.20984  0.17009   98.0800  0.03304
 1.2000   0.21708  0.16966  103.9375  0.03219
 1.3000   0.22455  0.16924  109.7058  0.03342
 1.4000   0.23226  0.16881  115.3850  0.03427
 1.5000   0.24019  0.16839  120.9751  0.02930
 1.6000   0.24836  0.16796  126.4760  0.02897
 1.7000   0.25676  0.16754  131.8878  0.03116
 1.8000   0.26539  0.16711  137.2105  0.03217
 1.9000   0.27426  0.16669  142.4441  0.03192
 2.0000   0.28335  0.16626  147.5885  0.03340
 2.1000   0.29268  0.16584  152.6438  0.03242
 2.2000   0.30224  0.16541  157.6099  0.03091
 2.3000   0.31203  0.16499  162.4870  0.04463
 2.4000   0.32205  0.16456  167.2749  0.04213
 2.5000   0.33230  0.16414  171.9737  0.03070
 2.6000   0.34279  0.16371  176.5833  0.03826
 2.7000   0.35351  0.16329 -178.8962  0.03569
 2.8000   0.36446  0.16286 -174.4648  0.03871
 2.9000   0.37564  0.16244 -170.1225  0.04023
 3.0000   0.38705  0.16201 -165.8694  0.04168
 3.2500   0.41659  0.16095 -155.6264  0.04640
 3.5000   0.44759  0.15989 -145.9406  0.04907
 3.7500   0.48003  0.15883 -136.8118  0.05458
 4.0000   0.51392  0.15776 -128.2400  0.06110
 4.2500   0.54925  0.15670 -120.2254  0.07039
 4.5000   0.58604  0.15564 -112.7677  0.07651
 4.7500   0.62427  0.15458 -105.8671  0.08793
 5.0000   0.66395  0.15351  -99.5236  0.09267
 5.2500   0.70508  0.15245  -93.7371  0.11699
 5.5000   0.74766  0.15139  -88.5077  0.10295
 5.7500   0.79169  0.15033  -83.8353  1.22342
 6.0000   0.83716  0.14926  -79.7200  0.11858
 6.2500   0.88409  0.14820  -76.1617  0.12268
 6.5000   0.93246  0.14714  -73.1605  0.13298
 6.7500   0.98228  0.14608  -70.7164  0.14131
 7.0000   1.03354  0.14501  -68.8293  0.14237
 7.2500   1.08626  0.14395  -67.4992  0.15159
 7.5000   1.14042  0.14289  -66.7262  0.15833
 7.7500   1.19603  0.14183  -66.5103  0.16240
 8.0000   1.25309  0.14076  -66.8514  0.16166