! Data measured by Modelithics, Inc. 
! support@modelithics.com 813-866-6335 Tampa FL USA
# GHZ S MA R 50
! Scattering Parameters
 0.2500 0.84868  -47.651  44.55889  143.711  0.00981   66.585  0.65332  -21.008
 0.3000 0.81393  -55.444  42.06532  137.962  0.01132   61.749  0.62864  -24.363
 0.3500 0.77863  -62.687  39.63001  132.634  0.01255   59.385  0.60205  -27.251
 0.4000 0.74159  -69.256  37.18573  127.800  0.01379   58.575  0.57728  -29.531
 0.4500 0.71390  -75.237  34.94720  123.858  0.01466   57.918  0.55594  -31.047
 0.5000 0.68570  -80.995  32.92817  119.846  0.01554   55.167  0.53791  -33.222
 0.5500 0.65889  -86.269  31.00742  116.201  0.01654   53.582  0.51796  -34.886
 0.6000 0.63680  -91.163  29.34155  112.896  0.01752   53.195  0.50227  -36.329
 0.6500 0.61853  -95.825  27.73356  109.919  0.01827   52.229  0.48820  -37.576
 0.7000 0.60057  -99.884  26.31161  107.164  0.01897   51.813  0.47562  -38.581
 0.7500 0.58270 -104.165  24.99532  104.387  0.01960   50.529  0.46225  -39.701
 0.8000 0.56763 -107.798  23.74298  101.982  0.02048   50.067  0.45158  -40.594
 0.8500 0.55524 -111.241  22.63560   99.660  0.02144   49.907  0.44200  -41.431
 0.9000 0.54379 -114.591  21.62242   97.420  0.02198   49.233  0.43342  -42.231
 0.9500 0.53340 -117.860  20.67422   95.318  0.02265   49.147  0.42599  -43.102
 1.0000 0.52391 -120.675  19.80952   93.386  0.02333   48.771  0.41957  -43.790
 1.1000 0.50874 -126.340  18.27262   89.539  0.02468   47.274  0.40708  -45.393
 1.2000 0.49591 -131.327  16.94188   86.047  0.02610   46.786  0.39770  -46.895
 1.3000 0.48501 -135.831  15.75932   82.701  0.02752   45.786  0.39006  -48.398
 1.4000 0.47669 -140.011  14.74933   79.610  0.02891   44.849  0.38386  -49.919
 1.5000 0.46895 -143.986  13.85856   76.620  0.03012   44.365  0.37855  -51.430
 1.6000 0.46240 -147.529  13.06530   73.744  0.03151   43.412  0.37456  -52.983
 1.7000 0.45720 -150.908  12.35098   70.949  0.03273   42.993  0.37054  -54.502
 1.8000 0.45219 -154.023  11.71692   68.271  0.03424   41.939  0.36891  -56.060
 1.9000 0.44963 -156.880  11.13737   65.709  0.03557   40.989  0.36538  -57.612
 2.0000 0.44551 -159.789  10.61487   63.124  0.03707   39.931  0.36402  -59.358
 2.1000 0.44285 -162.308  10.13966   60.681  0.03832   39.117  0.36394  -60.929
 2.2000 0.43992 -164.977  9.70423   58.150  0.03968   38.052  0.36216  -62.458
 2.3000 0.43826 -167.229  9.31263   55.811  0.04099   37.066  0.36196  -64.209
 2.4000 0.43616 -169.696  8.94711   53.415  0.04252   36.103  0.36198  -65.883
 2.5000 0.43328 -171.708  8.60736   51.071  0.04372   34.816  0.36158  -67.859
 2.6000 0.43283 -173.936  8.29225   48.733  0.04504   33.655  0.36232  -69.436
 2.7000 0.43064 -175.902  8.00602   46.428  0.04642   32.620  0.36202  -71.039
 2.8000 0.43034 -177.992  7.73032   44.163  0.04776   31.504  0.36338  -73.084
 2.9000 0.42769 -179.819  7.48206   41.865  0.04921   30.526  0.36562  -74.705
 3.0000 0.42835  178.294  7.24085   39.684  0.05068   29.019  0.36486  -76.357
 3.2500 0.42354  173.993  6.71703   34.161  0.05377   26.254  0.36892  -80.865
 3.5000 0.42158  169.675  6.25823   28.657  0.05697   22.999  0.37233  -85.309
 3.7500 0.42040  166.355  5.85705   23.292  0.06014   19.837  0.37752  -90.010
 4.0000 0.41857  162.390  5.50853   17.856  0.06318   16.254  0.38253  -94.965
 4.2500 0.41723  159.329  5.17832   12.475  0.06606   12.786  0.38773 -100.024
 4.5000 0.41962  157.122  4.88542    7.374  0.06839    8.754  0.39335 -105.342
 4.7500 0.42613  153.676  4.64918    2.337  0.07076    5.671  0.39953 -110.125
 5.0000 0.42687  150.740  4.41915   -2.909  0.07345    2.307  0.40702 -114.934
 5.2500 0.43433  148.791  4.22362   -7.654  0.07538   -1.230  0.41447 -119.533
 5.5000 0.44473  144.565  4.07789  -12.946  0.07839   -4.498  0.42357 -124.310
 6.0000 0.44994  138.555  3.77807  -23.509  0.08357  -11.714  0.44496 -133.378
 6.2500 0.45433  134.964  3.63957  -28.938  0.08567  -15.846  0.45532 -138.244
 6.5000 0.45846  132.713  3.50918  -34.191  0.08781  -19.737  0.46556 -143.086
 6.7500 0.45910  129.702  3.38958  -39.537  0.08967  -23.882  0.47877 -147.882
 7.0000 0.46528  126.896  3.27088  -44.938  0.09115  -27.858  0.49168 -152.693
 7.2500 0.47059  125.140  3.16253  -50.141  0.09262  -31.878  0.50535 -157.394
 7.5000 0.47397  122.113  3.05211  -55.565  0.09396  -36.273  0.52216 -161.992
 7.7500 0.48362  119.464  2.94839  -61.141  0.09463  -40.243  0.53772 -167.374
 8.0000 0.48638  117.853  2.84475  -66.343  0.09575  -44.290  0.55466 -171.792
! Noise Parameters
 0.2500   0.07024  0.24889   12.5276  0.05024
 0.3000   0.07318  0.25037   15.8154  0.04898
 0.3500   0.07616  0.25184   19.0803  0.04775
 0.4000   0.07918  0.25332   22.3222  0.04655
 0.4500   0.08225  0.25479   25.5412  0.04538
 0.5000   0.08535  0.25627   28.7372  0.04424
 0.5500   0.08850  0.25774   31.9103  0.04313
 0.6000   0.09169  0.25922   35.0605  0.04204
 0.6500   0.09491  0.26069   38.1878  0.04099
 0.7000   0.09819  0.26217   41.2921  0.03997
 0.7500   0.10150  0.26364   44.3735  0.03897
 0.8000   0.10485  0.26511   47.4320  0.03800
 0.8500   0.10825  0.26659   50.4675  0.03707
 0.9000   0.11168  0.26806   53.4801  0.03616
 0.9500   0.11516  0.26954   56.4698  0.03528
 1.0000   0.11868  0.27101   59.4365  0.03443
 1.1000   0.12585  0.27396   65.3011  0.03282
 1.2000   0.13318  0.27691   71.0741  0.03132
 1.3000   0.14067  0.27986   76.7553  0.02995
 1.4000   0.14834  0.28281   82.3447  0.02868
 1.5000   0.15617  0.28576   87.8425  0.02754
 1.6000   0.16416  0.28871   93.2485  0.02651
 1.7000   0.17232  0.29166   98.5627  0.02560
 1.8000   0.18065  0.29461  103.7853  0.02481
 1.9000   0.18914  0.29756  108.9161  0.02413
 2.0000   0.19780  0.30050  113.9551  0.02357
 2.1000   0.20662  0.30345  118.9025  0.02312
 2.2000   0.21561  0.30640  123.7581  0.02280
 2.3000   0.22477  0.30935  128.5220  0.02259
 2.4000   0.23409  0.31230  133.1941  0.02249
 2.5000   0.24358  0.31525  137.7745  0.02251
 2.6000   0.25324  0.31820  142.2632  0.02265
 2.7000   0.26306  0.32115  146.6602  0.02291
 2.8000   0.27305  0.32410  150.9654  0.02328
 2.9000   0.28320  0.32705  155.1789  0.02377
 3.0000   0.29352  0.33000  159.3006  0.02438
 3.2500   0.32004  0.33737  169.2037  0.02640
 3.5000   0.34760  0.34474  178.5334  0.02916
 3.7500   0.37620  0.35211 -172.7102  0.03265
 4.0000   0.40584  0.35949 -164.5271  0.03686
 4.2500   0.43651  0.36686 -156.9173  0.04181
 4.5000   0.46823  0.37423 -149.8809  0.04748
 4.7500   0.50097  0.38161 -143.4177  0.05388
 5.0000   0.53476  0.38898 -137.5279  0.06102
 5.2500   0.56959  0.39635 -132.2114  0.06888
 5.5000   0.60545  0.40372 -127.4683  0.07747
 6.0000   0.68029  0.41847 -119.7020  0.09685
 6.2500   0.71926  0.42584 -116.6788  0.10763
 6.5000   0.75928  0.43322 -114.2289  0.11914
 6.7500   0.80033  0.44059 -112.3524  0.13138
 7.0000   0.84242  0.44796 -111.0492  0.14435
 7.2500   0.88554  0.45533 -110.3193  0.15805
 7.5000   0.92971  0.46271 -110.1627  0.17247
 7.7500   0.97491  0.47008 -110.5795  0.18763
 8.0000   1.02115  0.47745 -111.5695  0.20352
