! Data measured by Modelithics, Inc. 
! support@modelithics.com 813-866-6335 Tampa FL USA
# GHZ S MA R 50
! Scattering Parameters
 0.2500 0.75218  -37.579  39.10691  134.371  0.00860   73.030  0.69711  -11.192
 0.3000 0.69883  -42.188  35.86982  128.206  0.00983   73.982  0.68407  -12.833
 0.3500 0.65030  -46.126  32.98519  122.793  0.01140   72.057  0.67115  -14.190
 0.4000 0.60582  -49.277  30.32559  118.030  0.01279   72.038  0.65915  -15.177
 0.4500 0.57031  -51.992  27.99198  114.225  0.01415   70.497  0.65297  -15.674
 0.5000 0.53643  -54.601  26.02173  110.441  0.01554   70.562  0.64375  -17.067
 0.5500 0.50752  -56.850  24.22128  107.072  0.01672   69.710  0.63638  -18.101
 0.6000 0.48241  -58.816  22.69340  104.015  0.01817   68.714  0.63180  -18.948
 0.6500 0.46056  -60.798  21.27319  101.273  0.01938   68.602  0.62628  -19.835
 0.7000 0.44152  -62.286  20.05239   98.748  0.02069   68.061  0.62391  -20.617
 0.7500 0.42124  -63.924  18.95989   96.145  0.02195   66.871  0.61868  -21.591
 0.8000 0.40537  -65.243  17.92738   93.895  0.02335   66.516  0.61438  -22.410
 0.8500 0.39149  -66.603  17.03375   91.743  0.02470   66.452  0.61115  -23.148
 0.9000 0.37890  -67.840  16.22013   89.609  0.02571   65.376  0.60898  -24.070
 0.9500 0.36635  -69.132  15.47008   87.635  0.02702   64.611  0.60663  -24.968
 1.0000 0.35638  -70.164  14.78685   85.750  0.02841   64.177  0.60526  -25.773
 1.1000 0.33806  -72.399  13.59447   82.069  0.03103   62.888  0.60102  -27.567
 1.2000 0.32296  -74.463  12.57283   78.630  0.03356   61.605  0.59889  -29.316
 1.3000 0.31121  -76.343  11.68059   75.325  0.03614   59.862  0.59607  -31.122
 1.4000 0.30095  -78.318  10.91319   72.230  0.03857   58.652  0.59552  -32.932
 1.5000 0.29212  -80.263  10.25436   69.199  0.04100   57.159  0.59402  -34.716
 1.6000 0.28496  -82.036  9.66180   66.257  0.04355   55.657  0.59301  -36.587
 1.7000 0.27903  -83.875  9.13463   63.370  0.04608   54.056  0.59200  -38.458
 1.8000 0.27410  -85.593  8.66417   60.598  0.04861   52.785  0.59227  -40.285
 1.9000 0.27092  -87.596  8.24047   57.889  0.05104   50.880  0.59227  -42.101
 2.0000 0.26648  -89.366  7.85781   55.194  0.05353   49.415  0.59193  -44.079
 2.1000 0.26421  -91.095  7.51411   52.566  0.05596   47.722  0.59315  -45.979
 2.2000 0.26196  -92.896  7.19472   49.899  0.05858   46.226  0.59232  -47.837
 2.3000 0.26110  -94.807  6.91066   47.378  0.06061   44.539  0.59285  -49.762
 2.4000 0.25892  -96.625  6.64716   44.811  0.06313   42.815  0.59417  -51.636
 2.5000 0.25937  -98.196  6.39889   42.264  0.06543   41.041  0.59513  -53.641
 2.6000 0.25859 -100.283  6.17379   39.752  0.06792   39.565  0.59656  -55.548
 2.7000 0.25939 -101.869  5.96488   37.248  0.07003   37.765  0.59691  -57.388
 2.8000 0.25902 -104.009  5.77086   34.790  0.07262   35.993  0.59741  -59.391
 2.9000 0.26016 -105.464  5.58901   32.293  0.07471   34.346  0.59994  -61.404
 3.0000 0.26105 -107.694  5.41986   29.895  0.07728   32.454  0.60011  -63.257
 3.2500 0.26403 -111.826  5.04538   23.823  0.08267   28.295  0.60416  -68.059
 3.5000 0.26814 -116.388  4.72068   17.749  0.08786   23.815  0.60816  -73.012
 3.7500 0.27676 -120.974  4.43676   11.753  0.09292   19.318  0.61275  -78.067
 4.0000 0.28314 -125.648  4.19299    5.687  0.09823   14.691  0.61801  -83.179
 4.2500 0.29233 -130.537  3.97075   -0.357  0.10270    9.922  0.62216  -88.534
 4.5000 0.30462 -135.367  3.77652   -6.287  0.10712    5.154  0.62805  -93.847
 4.7500 0.31530 -140.289  3.60628  -12.171  0.11146    0.622  0.63574  -99.053
 5.0000 0.32802 -145.289  3.44606  -18.146  0.11479   -4.196  0.64095 -104.320
 5.2500 0.34193 -149.960  3.30947  -23.857  0.11854   -8.697  0.65082 -109.343
 5.5000 0.35486 -155.110  3.19397  -29.818  0.12246  -13.325  0.66202 -114.685
 6.0000 0.38337 -164.264  2.97695  -41.905  0.12860  -22.971  0.68451 -125.348
 6.2500 0.39627 -169.497  2.87500  -48.134  0.13127  -28.062  0.69672 -130.782
 6.5000 0.41434 -173.722  2.77285  -54.205  0.13341  -33.133  0.70905 -136.391
 6.7500 0.42914 -178.068  2.68006  -60.339  0.13516  -38.293  0.72198 -142.039
 7.0000 0.44814  177.049  2.58780  -66.598  0.13591  -43.588  0.73772 -147.618
 7.2500 0.47031  172.896  2.49825  -72.659  0.13663  -48.603  0.75350 -153.343
 7.5000 0.48831  168.015  2.40492  -78.988  0.13641  -54.025  0.77007 -158.910
 7.7500 0.51134  162.875  2.31762  -85.476  0.13559  -59.373  0.78720 -165.110
 8.0000 0.53238  158.829  2.22393  -91.578  0.13445  -64.482  0.80502 -170.577
! Noise Parameters
 0.2500   0.07325  0.25971    8.5054  0.04356
 0.3000   0.07597  0.25955   11.8883  0.04287
 0.3500   0.07874  0.25939   15.2490  0.04220
 0.4000   0.08156  0.25923   18.5877  0.04155
 0.4500   0.08443  0.25908   21.9043  0.04092
 0.5000   0.08735  0.25892   25.1987  0.04032
 0.5500   0.09032  0.25876   28.4711  0.03973
 0.6000   0.09334  0.25860   31.7213  0.03917
 0.6500   0.09641  0.25844   34.9494  0.03863
 0.7000   0.09953  0.25828   38.1555  0.03811
 0.7500   0.10270  0.25812   41.3394  0.03761
 0.8000   0.10592  0.25796   44.5012  0.03713
 0.8500   0.10919  0.25780   47.6409  0.03667
 0.9000   0.11251  0.25764   50.7585  0.03624
 0.9500   0.11588  0.25748   53.8540  0.03582
 1.0000   0.11929  0.25732   56.9274  0.03543
 1.1000   0.12628  0.25700   63.0078  0.03470
 1.2000   0.13347  0.25668   68.9999  0.03406
 1.3000   0.14086  0.25636   74.9035  0.03351
 1.4000   0.14845  0.25604   80.7186  0.03304
 1.5000   0.15623  0.25572   86.4454  0.03265
 1.6000   0.16422  0.25540   92.0837  0.03235
 1.7000   0.17241  0.25508   97.6336  0.03214
 1.8000   0.18079  0.25477  103.0951  0.03201
 1.9000   0.18938  0.25445  108.4681  0.03196
 2.0000   0.19817  0.25413  113.7528  0.03200
 2.1000   0.20715  0.25381  118.9490  0.03212
 2.2000   0.21634  0.25349  124.0567  0.03233
 2.3000   0.22572  0.25317  129.0761  0.03262
 2.4000   0.23531  0.25285  134.0070  0.03300
 2.5000   0.24509  0.25253  138.8495  0.03346
 2.6000   0.25507  0.25221  143.6036  0.03400
 2.7000   0.26526  0.25189  148.2692  0.03463
 2.8000   0.27564  0.25157  152.8464  0.03535
 2.9000   0.28622  0.25125  157.3352  0.03615
 3.0000   0.29701  0.25093  161.7356  0.03703
 3.2500   0.32484  0.25014  172.3497  0.03962
 3.5000   0.35392  0.24934 -177.5889  0.04273
 3.7500   0.38424  0.24854 -168.0802  0.04637
 4.0000   0.41582  0.24774 -159.1241  0.05054
 4.2500   0.44864  0.24694 -150.7207  0.05524
 4.5000   0.48271  0.24615 -142.8700  0.06047
 4.7500   0.51803  0.24535 -135.5719  0.06623
 5.0000   0.55460  0.24455 -128.8264  0.07251
 5.2500   0.59241  0.24375 -122.6336  0.07933
 5.5000   0.63148  0.24295 -116.9935  0.08668
 6.0000   0.71335  0.24136 -107.3713  0.10295
 6.2500   0.75615  0.24056 -103.3892  0.11189
 6.5000   0.80021  0.23976  -99.9597  0.12135
 6.7500   0.84551  0.23896  -97.0829  0.13134
 7.0000   0.89207  0.23816  -94.7587  0.14186
 7.2500   0.93987  0.23737  -92.9872  0.15291
 7.5000   0.98891  0.23657  -91.7684  0.16449
 7.7500   1.03921  0.23577  -91.1022  0.17660
 8.0000   1.09075  0.23497  -90.9887  0.18924
