! Data measured by Modelithics, Inc. 
! support@modelithics.com 813-866-6335 Tampa FL USA
# GHZ S MA R 50
! Scattering Parameters
 0.2500 0.86389  -40.839  46.59204  146.353  0.00689   64.708  0.73186  -15.303
 0.3000 0.82961  -47.635  44.29158  140.837  0.00825   66.222  0.71388  -17.969
 0.3500 0.79487  -53.984  42.00282  135.673  0.00921   62.990  0.69293  -20.214
 0.4000 0.75897  -59.803  39.67401  130.919  0.01000   61.423  0.67277  -22.085
 0.4500 0.72867  -65.021  37.44396  126.987  0.01093   60.107  0.65833  -23.344
 0.5000 0.69793  -70.245  35.46892  122.953  0.01181   58.870  0.64189  -24.990
 0.5500 0.66997  -74.874  33.50091  119.412  0.01239   57.417  0.62753  -26.500
 0.6000 0.64657  -79.254  31.85644  116.107  0.01317   57.333  0.61431  -27.662
 0.6500 0.62561  -83.527  30.20661  113.090  0.01376   55.757  0.60288  -28.743
 0.7000 0.60562  -87.181  28.74487  110.301  0.01457   54.962  0.59271  -29.763
 0.7500 0.58511  -91.020  27.37926  107.501  0.01505   54.669  0.58227  -30.740
 0.8000 0.56773  -94.294  26.06809  105.058  0.01571   54.593  0.57365  -31.623
 0.8500 0.55374  -97.425  24.90368  102.714  0.01633   54.038  0.56628  -32.430
 0.9000 0.54014 -100.442  23.83141  100.428  0.01693   52.908  0.55918  -33.274
 0.9500 0.52667 -103.448  22.82052   98.317  0.01748   52.995  0.55337  -34.196
 1.0000 0.51570 -106.011  21.88807   96.372  0.01808   52.099  0.54907  -34.965
 1.1000 0.49644 -111.172  20.24653   92.486  0.01904   51.444  0.53983  -36.592
 1.2000 0.47977 -115.750  18.80601   88.956  0.02014   50.232  0.53219  -38.166
 1.3000 0.46621 -119.869  17.52334   85.589  0.02136   50.138  0.52671  -39.698
 1.4000 0.45498 -123.665  16.41607   82.490  0.02243   49.639  0.52302  -41.384
 1.5000 0.44495 -127.274  15.44280   79.496  0.02343   49.064  0.51968  -42.933
 1.6000 0.43676 -130.488  14.56968   76.628  0.02455   48.357  0.51692  -44.578
 1.7000 0.42960 -133.482  13.77899   73.841  0.02571   47.399  0.51559  -46.198
 1.8000 0.42301 -136.268  13.07771   71.188  0.02663   46.505  0.51533  -47.864
 1.9000 0.41909 -138.800  12.43215   68.658  0.02789   45.912  0.51429  -49.441
 2.0000 0.41332 -141.373  11.85636   66.106  0.02883   45.037  0.51439  -51.211
 2.1000 0.41017 -143.594  11.32875   63.693  0.02992   44.192  0.51516  -52.873
 2.2000 0.40561 -145.793  10.84033   61.198  0.03112   43.188  0.51467  -54.550
 2.3000 0.40351 -147.733  10.40212   58.914  0.03206   42.769  0.51697  -56.242
 2.4000 0.40081 -149.846  9.99508   56.571  0.03301   41.339  0.51810  -58.038
 2.5000 0.39797 -151.393  9.60981   54.283  0.03419   40.277  0.52032  -59.807
 2.6000 0.39651 -153.371  9.25851   52.019  0.03526   39.571  0.52237  -61.397
 2.7000 0.39421 -154.799  8.93660   49.783  0.03617   38.851  0.52364  -63.105
 2.8000 0.39326 -156.597  8.62957   47.571  0.03730   37.427  0.52646  -64.878
 2.9000 0.39111 -157.914  8.34910   45.359  0.03835   36.722  0.52964  -66.661
 3.0000 0.39086 -159.500  8.07829   43.239  0.03933   35.648  0.53138  -68.302
 3.2500 0.38707 -162.596  7.48682   37.919  0.04188   32.955  0.53941  -72.569
 3.5000 0.38460 -165.648  6.96516   32.612  0.04412   30.196  0.54727  -76.829
 3.7500 0.38680 -168.146  6.51233   27.513  0.04654   27.279  0.55613  -81.172
 4.0000 0.38525 -170.825  6.11805   22.261  0.04879   24.386  0.56586  -85.791
 4.2500 0.38925 -173.161  5.75198   17.167  0.05069   21.564  0.57378  -90.371
 4.5000 0.39137 -174.832  5.42824   12.037  0.05271   17.975  0.58460  -94.997
 4.7500 0.40360 -176.637  5.12786    7.457  0.05361   15.013  0.59318  -99.651
 5.0000 0.41382  179.701  4.90950    2.719  0.05553   12.523  0.60152 -103.882
 5.2500 0.41160  177.560  4.68909   -2.301  0.05711    9.707  0.61384 -107.897
 5.5000 0.42328  175.541  4.49005   -7.018  0.05887    6.955  0.62607 -112.207
 6.0000 0.43434  170.741  4.15679  -16.827  0.06197    1.116  0.65136 -120.395
 6.2500 0.44018  167.818  4.00262  -21.835  0.06335   -2.120  0.66532 -124.643
 6.5000 0.44840  165.953  3.85359  -26.705  0.06481   -5.320  0.67786 -128.988
 6.7500 0.45364  163.868  3.71855  -31.560  0.06576   -8.653  0.69139 -133.095
 7.0000 0.46211  161.210  3.58915  -36.569  0.06642  -11.898  0.70562 -137.405
 7.2500 0.47371  159.478  3.46827  -41.366  0.06714  -14.888  0.71923 -141.611
 7.5000 0.48016  156.850  3.34338  -46.327  0.06749  -18.451  0.73531 -145.707
 7.7500 0.49230  153.974  3.23470  -51.513  0.06772  -21.554  0.74888 -150.593
 8.0000 0.50256  152.069  3.12094  -56.311  0.06808  -24.588  0.76485 -154.521
! Noise Parameters
 0.2500   0.01628  0.24550   20.5290  0.05091
 0.3000   0.01985  0.24729   23.3934  0.04988
 0.3500   0.02343  0.24909   26.2380  0.04887
 0.4000   0.02704  0.25089   29.0628  0.04787
 0.4500   0.03066  0.25268   31.8678  0.04690
 0.5000   0.03431  0.25448   34.6531  0.04594
 0.5500   0.03797  0.25628   37.4186  0.04500
 0.6000   0.04165  0.25808   40.1643  0.04408
 0.6500   0.04534  0.25987   42.8903  0.04318
 0.7000   0.04906  0.26167   45.5964  0.04230
 0.7500   0.05280  0.26347   48.2828  0.04143
 0.8000   0.05655  0.26527   50.9494  0.04058
 0.8500   0.06033  0.26706   53.5962  0.03976
 0.9000   0.06412  0.26886   56.2233  0.03895
 0.9500   0.06793  0.27066   58.8305  0.03815
 1.0000   0.07176  0.27246   61.4180  0.03738
 1.1000   0.07947  0.27605   66.5337  0.03589
 1.2000   0.08726  0.27964   71.5702  0.03447
 1.3000   0.09513  0.28324   76.5276  0.03313
 1.4000   0.10307  0.28683   81.4059  0.03186
 1.5000   0.11108  0.29043   86.2051  0.03066
 1.6000   0.11917  0.29402   90.9251  0.02954
 1.7000   0.12733  0.29762   95.5661  0.02849
 1.8000   0.13557  0.30121  100.1279  0.02752
 1.9000   0.14388  0.30481  104.6106  0.02662
 2.0000   0.15227  0.30840  109.0142  0.02579
 2.1000   0.16073  0.31200  113.3387  0.02503
 2.2000   0.16927  0.31559  117.5840  0.02435
 2.3000   0.17788  0.31919  121.7503  0.02375
 2.4000   0.18657  0.32278  125.8374  0.02322
 2.5000   0.19533  0.32638  129.8455  0.02276
 2.6000   0.20417  0.32997  133.7744  0.02237
 2.7000   0.21308  0.33356  137.6242  0.02206
 2.8000   0.22207  0.33716  141.3948  0.02182
 2.9000   0.23113  0.34075  145.0864  0.02166
 3.0000   0.24027  0.34435  148.6988  0.02157
 3.2500   0.26343  0.35334  157.3838  0.02166
 3.5000   0.28707  0.36232  165.5743  0.02222
 3.7500   0.31117  0.37131  173.2704  0.02324
 4.0000   0.33574  0.38030 -179.5281  0.02472
 4.2500   0.36078  0.38928 -172.8210  0.02666
 4.5000   0.38628  0.39827 -166.6083  0.02906
 4.7500   0.41226  0.40726 -160.8902  0.03192
 5.0000   0.43870  0.41624 -155.6665  0.03524
 5.2500   0.46560  0.42523 -150.9373  0.03902
 5.5000   0.49298  0.43422 -146.7025  0.04327
 6.0000   0.54913  0.45219 -139.7164  0.05314
 6.2500   0.57791  0.46118 -136.9651  0.05876
 6.5000   0.60715  0.47016 -134.7082  0.06485
 6.7500   0.63687  0.47915 -132.9458  0.07139
 7.0000   0.66705  0.48814 -131.6779  0.07840
 7.2500   0.69769  0.49712 -130.9045  0.08587
 7.5000   0.72881  0.50611 -130.6255  0.09380
 7.7500   0.76039  0.51510 -130.8410  0.10219
 8.0000   0.79244  0.52408 -131.5509  0.11104
